INFO    2025-09-02 11:30:00,122  root:acudc260_fast_test.py:363 测试进度:['test_case', 'Voltage', 'Current_1', 'Current_2', '等待时间(h)', 'voltage_accuracy', 'current_accuracy', 'power_accuracy', '采样次数', '采样间隔'],执行时间:2025_09_02 11:30:00
INFO    2025-09-02 11:30:00,127  root:source_control.py:26 <源输出>
    电压检定点:6.0%;
    电流检定点:0.08%;
    电压纹波比例:0%;
    电流纹波比例:0%;
    电压纹波相位:0度;
    电流纹波相位:0度;
    纹波频率:300Hz;
    电能方向:正向;
    <End>
INFO    2025-09-02 11:30:01,738  root:source_control.py:30 recv_data ret is:<源输出应答>
电压总值:60.000000V;
电流总值:0.480000A;
功率总值:28.799999W;
电压直流:60.000000V;
电流直流:0.480000A;
功率直流:28.799999W;
电压纹波:0.000000V;
电流纹波:0.000000A;
功率纹波:0.000000W;
<End>
DEBUG   2025-09-02 11:30:11,839  pymodbus.logging:transaction.py:184 Current transaction state - IDLE
DEBUG   2025-09-02 11:30:11,839  pymodbus.logging:transaction.py:193 Running transaction 0
DEBUG   2025-09-02 11:30:11,839  pymodbus.logging:transaction.py:293 SEND: 0x1 0x3 0x30 0x0 0x0 0x2 0xcb 0xb
DEBUG   2025-09-02 11:30:11,839  pymodbus.logging:base.py:250 New Transaction state "SENDING"
DEBUG   2025-09-02 11:30:11,839  pymodbus.logging:transaction.py:317 Changing transaction state from "SENDING" to "WAITING FOR REPLY"
DEBUG   2025-09-02 11:30:11,867  pymodbus.logging:transaction.py:419 Changing transaction state from "WAITING FOR REPLY" to "PROCESSING REPLY"
DEBUG   2025-09-02 11:30:11,867  pymodbus.logging:transaction.py:324 RECV: 0x1 0x3 0x4 0x42 0x6f 0xfb 0x47 0xdd 0x54
DEBUG   2025-09-02 11:30:11,867  pymodbus.logging:base.py:92 Processing: 0x1 0x3 0x4 0x42 0x6f 0xfb 0x47 0xdd 0x54
DEBUG   2025-09-02 11:30:11,867  pymodbus.logging:decoders.py:103 decode PDU for 3
DEBUG   2025-09-02 11:30:11,867  pymodbus.logging:base.py:102 Frame advanced, resetting header!!
DEBUG   2025-09-02 11:30:11,868  pymodbus.logging:transaction.py:67 Adding transaction 0
DEBUG   2025-09-02 11:30:11,868  pymodbus.logging:transaction.py:78 Getting transaction 0
DEBUG   2025-09-02 11:30:11,868  pymodbus.logging:transaction.py:258 Changing transaction state from "PROCESSING REPLY" to "TRANSACTION_COMPLETE"
INFO    2025-09-02 11:30:11,868  root:modbus_rtu_tcp.py:44 read_measurement ret is:ReadHoldingRegistersResponse (2)
INFO    2025-09-02 11:30:11,868  root:acudc260_modbus_get.py:131 read u_voltage ret is:[17007, 64327]
DEBUG   2025-09-02 11:30:11,868  pymodbus.logging:transaction.py:184 Current transaction state - TRANSACTION_COMPLETE
DEBUG   2025-09-02 11:30:11,868  pymodbus.logging:transaction.py:193 Running transaction 0
DEBUG   2025-09-02 11:30:11,868  pymodbus.logging:transaction.py:293 SEND: 0x1 0x3 0x30 0x2 0x0 0x2 0x6a 0xcb
DEBUG   2025-09-02 11:30:11,868  pymodbus.logging:serial.py:271 Changing state to IDLE - Last Frame End - 1756783811.867547 Current Time stamp - 1756783811.868548
DEBUG   2025-09-02 11:30:11,868  pymodbus.logging:serial.py:279 Waiting for 3.5 char before next send - 1.823 ms
DEBUG   2025-09-02 11:30:11,871  pymodbus.logging:base.py:250 New Transaction state "SENDING"
DEBUG   2025-09-02 11:30:11,871  pymodbus.logging:transaction.py:317 Changing transaction state from "SENDING" to "WAITING FOR REPLY"
DEBUG   2025-09-02 11:30:11,903  pymodbus.logging:transaction.py:419 Changing transaction state from "WAITING FOR REPLY" to "PROCESSING REPLY"
DEBUG   2025-09-02 11:30:11,903  pymodbus.logging:transaction.py:324 RECV: 0x1 0x3 0x4 0x3e 0xea 0x67 0x93 0xbc 0x72
DEBUG   2025-09-02 11:30:11,903  pymodbus.logging:base.py:92 Processing: 0x1 0x3 0x4 0x3e 0xea 0x67 0x93 0xbc 0x72
DEBUG   2025-09-02 11:30:11,903  pymodbus.logging:decoders.py:103 decode PDU for 3
DEBUG   2025-09-02 11:30:11,903  pymodbus.logging:base.py:102 Frame advanced, resetting header!!
DEBUG   2025-09-02 11:30:11,903  pymodbus.logging:transaction.py:67 Adding transaction 0
DEBUG   2025-09-02 11:30:11,903  pymodbus.logging:transaction.py:78 Getting transaction 0
DEBUG   2025-09-02 11:30:11,903  pymodbus.logging:transaction.py:258 Changing transaction state from "PROCESSING REPLY" to "TRANSACTION_COMPLETE"
INFO    2025-09-02 11:30:11,903  root:modbus_rtu_tcp.py:44 read_measurement ret is:ReadHoldingRegistersResponse (2)
INFO    2025-09-02 11:30:11,903  root:acudc260_modbus_get.py:145 read i1_current ret is:[16106, 26515]
DEBUG   2025-09-02 11:30:11,903  pymodbus.logging:transaction.py:184 Current transaction state - TRANSACTION_COMPLETE
DEBUG   2025-09-02 11:30:11,903  pymodbus.logging:transaction.py:193 Running transaction 0
DEBUG   2025-09-02 11:30:11,903  pymodbus.logging:transaction.py:293 SEND: 0x1 0x3 0x30 0x4 0x0 0x2 0x8a 0xca
DEBUG   2025-09-02 11:30:11,904  pymodbus.logging:serial.py:271 Changing state to IDLE - Last Frame End - 1756783811.903257 Current Time stamp - 1756783811.903257
DEBUG   2025-09-02 11:30:11,904  pymodbus.logging:serial.py:279 Waiting for 3.5 char before next send - 1.823 ms
DEBUG   2025-09-02 11:30:11,906  pymodbus.logging:base.py:250 New Transaction state "SENDING"
DEBUG   2025-09-02 11:30:11,906  pymodbus.logging:transaction.py:317 Changing transaction state from "SENDING" to "WAITING FOR REPLY"
DEBUG   2025-09-02 11:30:11,935  pymodbus.logging:transaction.py:419 Changing transaction state from "WAITING FOR REPLY" to "PROCESSING REPLY"
DEBUG   2025-09-02 11:30:11,935  pymodbus.logging:transaction.py:324 RECV: 0x1 0x3 0x4 0x3e 0xeb 0x6 0x2a 0x5 0x90
DEBUG   2025-09-02 11:30:11,935  pymodbus.logging:base.py:92 Processing: 0x1 0x3 0x4 0x3e 0xeb 0x6 0x2a 0x5 0x90
DEBUG   2025-09-02 11:30:11,935  pymodbus.logging:decoders.py:103 decode PDU for 3
DEBUG   2025-09-02 11:30:11,935  pymodbus.logging:base.py:102 Frame advanced, resetting header!!
DEBUG   2025-09-02 11:30:11,935  pymodbus.logging:transaction.py:67 Adding transaction 0
DEBUG   2025-09-02 11:30:11,935  pymodbus.logging:transaction.py:78 Getting transaction 0
DEBUG   2025-09-02 11:30:11,935  pymodbus.logging:transaction.py:258 Changing transaction state from "PROCESSING REPLY" to "TRANSACTION_COMPLETE"
INFO    2025-09-02 11:30:11,935  root:modbus_rtu_tcp.py:44 read_measurement ret is:ReadHoldingRegistersResponse (2)
INFO    2025-09-02 11:30:11,935  root:acudc260_modbus_get.py:159 read i2_current ret is:[16107, 1578]
DEBUG   2025-09-02 11:30:11,935  pymodbus.logging:transaction.py:184 Current transaction state - TRANSACTION_COMPLETE
DEBUG   2025-09-02 11:30:11,935  pymodbus.logging:transaction.py:193 Running transaction 0
DEBUG   2025-09-02 11:30:11,935  pymodbus.logging:transaction.py:293 SEND: 0x1 0x3 0x30 0x6 0x0 0x2 0x2b 0xa
DEBUG   2025-09-02 11:30:11,935  pymodbus.logging:serial.py:271 Changing state to IDLE - Last Frame End - 1756783811.935896 Current Time stamp - 1756783811.935896
DEBUG   2025-09-02 11:30:11,935  pymodbus.logging:serial.py:279 Waiting for 3.5 char before next send - 1.823 ms
DEBUG   2025-09-02 11:30:11,938  pymodbus.logging:base.py:250 New Transaction state "SENDING"
DEBUG   2025-09-02 11:30:11,938  pymodbus.logging:transaction.py:317 Changing transaction state from "SENDING" to "WAITING FOR REPLY"
DEBUG   2025-09-02 11:30:11,966  pymodbus.logging:transaction.py:419 Changing transaction state from "WAITING FOR REPLY" to "PROCESSING REPLY"
DEBUG   2025-09-02 11:30:11,966  pymodbus.logging:transaction.py:324 RECV: 0x1 0x3 0x4 0x3f 0x6a 0xb6 0xde 0x20 0x3
DEBUG   2025-09-02 11:30:11,966  pymodbus.logging:base.py:92 Processing: 0x1 0x3 0x4 0x3f 0x6a 0xb6 0xde 0x20 0x3
DEBUG   2025-09-02 11:30:11,966  pymodbus.logging:decoders.py:103 decode PDU for 3
DEBUG   2025-09-02 11:30:11,966  pymodbus.logging:base.py:102 Frame advanced, resetting header!!
DEBUG   2025-09-02 11:30:11,966  pymodbus.logging:transaction.py:67 Adding transaction 0
DEBUG   2025-09-02 11:30:11,966  pymodbus.logging:transaction.py:78 Getting transaction 0
DEBUG   2025-09-02 11:30:11,966  pymodbus.logging:transaction.py:258 Changing transaction state from "PROCESSING REPLY" to "TRANSACTION_COMPLETE"
INFO    2025-09-02 11:30:11,966  root:modbus_rtu_tcp.py:44 read_measurement ret is:ReadHoldingRegistersResponse (2)
INFO    2025-09-02 11:30:11,966  root:acudc260_modbus_get.py:173 read i_sum_current ret is:[16234, 46814]
DEBUG   2025-09-02 11:30:11,966  pymodbus.logging:transaction.py:184 Current transaction state - TRANSACTION_COMPLETE
DEBUG   2025-09-02 11:30:11,966  pymodbus.logging:transaction.py:193 Running transaction 0
DEBUG   2025-09-02 11:30:11,966  pymodbus.logging:transaction.py:293 SEND: 0x1 0x3 0x30 0x8 0x0 0x2 0x4a 0xc9
DEBUG   2025-09-02 11:30:11,966  pymodbus.logging:serial.py:271 Changing state to IDLE - Last Frame End - 1756783811.966152 Current Time stamp - 1756783811.96666
DEBUG   2025-09-02 11:30:11,966  pymodbus.logging:serial.py:279 Waiting for 3.5 char before next send - 1.823 ms
DEBUG   2025-09-02 11:30:11,969  pymodbus.logging:base.py:250 New Transaction state "SENDING"
DEBUG   2025-09-02 11:30:11,969  pymodbus.logging:transaction.py:317 Changing transaction state from "SENDING" to "WAITING FOR REPLY"
DEBUG   2025-09-02 11:30:11,995  pymodbus.logging:transaction.py:419 Changing transaction state from "WAITING FOR REPLY" to "PROCESSING REPLY"
DEBUG   2025-09-02 11:30:11,995  pymodbus.logging:transaction.py:324 RECV: 0x1 0x3 0x4 0x3c 0xe2 0x18 0x65 0x9c 0x7e
DEBUG   2025-09-02 11:30:11,995  pymodbus.logging:base.py:92 Processing: 0x1 0x3 0x4 0x3c 0xe2 0x18 0x65 0x9c 0x7e
DEBUG   2025-09-02 11:30:11,995  pymodbus.logging:decoders.py:103 decode PDU for 3
DEBUG   2025-09-02 11:30:11,996  pymodbus.logging:base.py:102 Frame advanced, resetting header!!
DEBUG   2025-09-02 11:30:11,996  pymodbus.logging:transaction.py:67 Adding transaction 0
DEBUG   2025-09-02 11:30:11,996  pymodbus.logging:transaction.py:78 Getting transaction 0
DEBUG   2025-09-02 11:30:11,996  pymodbus.logging:transaction.py:258 Changing transaction state from "PROCESSING REPLY" to "TRANSACTION_COMPLETE"
INFO    2025-09-02 11:30:11,996  root:modbus_rtu_tcp.py:44 read_measurement ret is:ReadHoldingRegistersResponse (2)
INFO    2025-09-02 11:30:11,996  root:acudc260_modbus_get.py:187 read p1_power ret is:[15586, 6245]
DEBUG   2025-09-02 11:30:11,996  pymodbus.logging:transaction.py:184 Current transaction state - TRANSACTION_COMPLETE
DEBUG   2025-09-02 11:30:11,996  pymodbus.logging:transaction.py:193 Running transaction 0
DEBUG   2025-09-02 11:30:11,996  pymodbus.logging:transaction.py:293 SEND: 0x1 0x3 0x30 0xa 0x0 0x2 0xeb 0x9
DEBUG   2025-09-02 11:30:11,996  pymodbus.logging:serial.py:271 Changing state to IDLE - Last Frame End - 1756783811.995377 Current Time stamp - 1756783811.996262
DEBUG   2025-09-02 11:30:11,996  pymodbus.logging:serial.py:279 Waiting for 3.5 char before next send - 1.823 ms
DEBUG   2025-09-02 11:30:11,998  pymodbus.logging:base.py:250 New Transaction state "SENDING"
DEBUG   2025-09-02 11:30:11,998  pymodbus.logging:transaction.py:317 Changing transaction state from "SENDING" to "WAITING FOR REPLY"
DEBUG   2025-09-02 11:30:12,031  pymodbus.logging:transaction.py:419 Changing transaction state from "WAITING FOR REPLY" to "PROCESSING REPLY"
DEBUG   2025-09-02 11:30:12,031  pymodbus.logging:transaction.py:324 RECV: 0x1 0x3 0x4 0x3c 0xe4 0xcc 0x93 0xa3 0x39
DEBUG   2025-09-02 11:30:12,031  pymodbus.logging:base.py:92 Processing: 0x1 0x3 0x4 0x3c 0xe4 0xcc 0x93 0xa3 0x39
DEBUG   2025-09-02 11:30:12,031  pymodbus.logging:decoders.py:103 decode PDU for 3
DEBUG   2025-09-02 11:30:12,031  pymodbus.logging:base.py:102 Frame advanced, resetting header!!
DEBUG   2025-09-02 11:30:12,031  pymodbus.logging:transaction.py:67 Adding transaction 0
DEBUG   2025-09-02 11:30:12,031  pymodbus.logging:transaction.py:78 Getting transaction 0
DEBUG   2025-09-02 11:30:12,031  pymodbus.logging:transaction.py:258 Changing transaction state from "PROCESSING REPLY" to "TRANSACTION_COMPLETE"
INFO    2025-09-02 11:30:12,031  root:modbus_rtu_tcp.py:44 read_measurement ret is:ReadHoldingRegistersResponse (2)
INFO    2025-09-02 11:30:12,031  root:acudc260_modbus_get.py:201 read p2_power ret is:[15588, 52371]
DEBUG   2025-09-02 11:30:12,031  pymodbus.logging:transaction.py:184 Current transaction state - TRANSACTION_COMPLETE
DEBUG   2025-09-02 11:30:12,031  pymodbus.logging:transaction.py:193 Running transaction 0
DEBUG   2025-09-02 11:30:12,031  pymodbus.logging:transaction.py:293 SEND: 0x1 0x3 0x30 0xc 0x0 0x2 0xb 0x8
DEBUG   2025-09-02 11:30:12,031  pymodbus.logging:serial.py:271 Changing state to IDLE - Last Frame End - 1756783812.031281 Current Time stamp - 1756783812.031281
DEBUG   2025-09-02 11:30:12,031  pymodbus.logging:serial.py:279 Waiting for 3.5 char before next send - 1.823 ms
DEBUG   2025-09-02 11:30:12,034  pymodbus.logging:base.py:250 New Transaction state "SENDING"
DEBUG   2025-09-02 11:30:12,034  pymodbus.logging:transaction.py:317 Changing transaction state from "SENDING" to "WAITING FOR REPLY"
DEBUG   2025-09-02 11:30:12,062  pymodbus.logging:transaction.py:419 Changing transaction state from "WAITING FOR REPLY" to "PROCESSING REPLY"
DEBUG   2025-09-02 11:30:12,062  pymodbus.logging:transaction.py:324 RECV: 0x1 0x3 0x4 0x3d 0x63 0x72 0x7c 0x22 0xc0
DEBUG   2025-09-02 11:30:12,062  pymodbus.logging:base.py:92 Processing: 0x1 0x3 0x4 0x3d 0x63 0x72 0x7c 0x22 0xc0
DEBUG   2025-09-02 11:30:12,062  pymodbus.logging:decoders.py:103 decode PDU for 3
DEBUG   2025-09-02 11:30:12,062  pymodbus.logging:base.py:102 Frame advanced, resetting header!!
DEBUG   2025-09-02 11:30:12,062  pymodbus.logging:transaction.py:67 Adding transaction 0
DEBUG   2025-09-02 11:30:12,062  pymodbus.logging:transaction.py:78 Getting transaction 0
DEBUG   2025-09-02 11:30:12,062  pymodbus.logging:transaction.py:258 Changing transaction state from "PROCESSING REPLY" to "TRANSACTION_COMPLETE"
INFO    2025-09-02 11:30:12,062  root:modbus_rtu_tcp.py:44 read_measurement ret is:ReadHoldingRegistersResponse (2)
INFO    2025-09-02 11:30:12,062  root:acudc260_modbus_get.py:215 read p_sum_power ret is:[15715, 29308]
DEBUG   2025-09-02 11:30:12,163  pymodbus.logging:transaction.py:184 Current transaction state - TRANSACTION_COMPLETE
DEBUG   2025-09-02 11:30:12,163  pymodbus.logging:transaction.py:193 Running transaction 0
DEBUG   2025-09-02 11:30:12,163  pymodbus.logging:transaction.py:293 SEND: 0x1 0x3 0x30 0x0 0x0 0x2 0xcb 0xb
DEBUG   2025-09-02 11:30:12,163  pymodbus.logging:serial.py:271 Changing state to IDLE - Last Frame End - 1756783812.062509 Current Time stamp - 1756783812.163466
DEBUG   2025-09-02 11:30:12,164  pymodbus.logging:base.py:250 New Transaction state "SENDING"
DEBUG   2025-09-02 11:30:12,164  pymodbus.logging:transaction.py:317 Changing transaction state from "SENDING" to "WAITING FOR REPLY"
DEBUG   2025-09-02 11:30:12,190  pymodbus.logging:transaction.py:419 Changing transaction state from "WAITING FOR REPLY" to "PROCESSING REPLY"
DEBUG   2025-09-02 11:30:12,190  pymodbus.logging:transaction.py:324 RECV: 0x1 0x3 0x4 0x42 0x6f 0xfc 0xc3 0xdf 0x7
DEBUG   2025-09-02 11:30:12,190  pymodbus.logging:base.py:92 Processing: 0x1 0x3 0x4 0x42 0x6f 0xfc 0xc3 0xdf 0x7
DEBUG   2025-09-02 11:30:12,190  pymodbus.logging:decoders.py:103 decode PDU for 3
DEBUG   2025-09-02 11:30:12,191  pymodbus.logging:base.py:102 Frame advanced, resetting header!!
DEBUG   2025-09-02 11:30:12,191  pymodbus.logging:transaction.py:67 Adding transaction 0
DEBUG   2025-09-02 11:30:12,191  pymodbus.logging:transaction.py:78 Getting transaction 0
DEBUG   2025-09-02 11:30:12,191  pymodbus.logging:transaction.py:258 Changing transaction state from "PROCESSING REPLY" to "TRANSACTION_COMPLETE"
INFO    2025-09-02 11:30:12,191  root:modbus_rtu_tcp.py:44 read_measurement ret is:ReadHoldingRegistersResponse (2)
INFO    2025-09-02 11:30:12,191  root:acudc260_modbus_get.py:131 read u_voltage ret is:[17007, 64707]
DEBUG   2025-09-02 11:30:12,191  pymodbus.logging:transaction.py:184 Current transaction state - TRANSACTION_COMPLETE
DEBUG   2025-09-02 11:30:12,191  pymodbus.logging:transaction.py:193 Running transaction 0
DEBUG   2025-09-02 11:30:12,191  pymodbus.logging:transaction.py:293 SEND: 0x1 0x3 0x30 0x2 0x0 0x2 0x6a 0xcb
DEBUG   2025-09-02 11:30:12,191  pymodbus.logging:serial.py:271 Changing state to IDLE - Last Frame End - 1756783812.190961 Current Time stamp - 1756783812.191576
DEBUG   2025-09-02 11:30:12,191  pymodbus.logging:serial.py:279 Waiting for 3.5 char before next send - 1.823 ms
DEBUG   2025-09-02 11:30:12,194  pymodbus.logging:base.py:250 New Transaction state "SENDING"
DEBUG   2025-09-02 11:30:12,194  pymodbus.logging:transaction.py:317 Changing transaction state from "SENDING" to "WAITING FOR REPLY"
DEBUG   2025-09-02 11:30:12,223  pymodbus.logging:transaction.py:419 Changing transaction state from "WAITING FOR REPLY" to "PROCESSING REPLY"
DEBUG   2025-09-02 11:30:12,223  pymodbus.logging:transaction.py:324 RECV: 0x1 0x3 0x4 0x3e 0xf9 0xc2 0x7a 0xf7 0x69
DEBUG   2025-09-02 11:30:12,223  pymodbus.logging:base.py:92 Processing: 0x1 0x3 0x4 0x3e 0xf9 0xc2 0x7a 0xf7 0x69
DEBUG   2025-09-02 11:30:12,223  pymodbus.logging:decoders.py:103 decode PDU for 3
DEBUG   2025-09-02 11:30:12,223  pymodbus.logging:base.py:102 Frame advanced, resetting header!!
DEBUG   2025-09-02 11:30:12,223  pymodbus.logging:transaction.py:67 Adding transaction 0
DEBUG   2025-09-02 11:30:12,223  pymodbus.logging:transaction.py:78 Getting transaction 0
DEBUG   2025-09-02 11:30:12,223  pymodbus.logging:transaction.py:258 Changing transaction state from "PROCESSING REPLY" to "TRANSACTION_COMPLETE"
INFO    2025-09-02 11:30:12,223  root:modbus_rtu_tcp.py:44 read_measurement ret is:ReadHoldingRegistersResponse (2)
INFO    2025-09-02 11:30:12,223  root:acudc260_modbus_get.py:145 read i1_current ret is:[16121, 49786]
DEBUG   2025-09-02 11:30:12,223  pymodbus.logging:transaction.py:184 Current transaction state - TRANSACTION_COMPLETE
DEBUG   2025-09-02 11:30:12,223  pymodbus.logging:transaction.py:193 Running transaction 0
DEBUG   2025-09-02 11:30:12,223  pymodbus.logging:transaction.py:293 SEND: 0x1 0x3 0x30 0x4 0x0 0x2 0x8a 0xca
DEBUG   2025-09-02 11:30:12,224  pymodbus.logging:serial.py:271 Changing state to IDLE - Last Frame End - 1756783812.223094 Current Time stamp - 1756783812.22421
DEBUG   2025-09-02 11:30:12,224  pymodbus.logging:serial.py:279 Waiting for 3.5 char before next send - 1.823 ms
DEBUG   2025-09-02 11:30:12,226  pymodbus.logging:base.py:250 New Transaction state "SENDING"
DEBUG   2025-09-02 11:30:12,226  pymodbus.logging:transaction.py:317 Changing transaction state from "SENDING" to "WAITING FOR REPLY"
DEBUG   2025-09-02 11:30:12,254  pymodbus.logging:transaction.py:419 Changing transaction state from "WAITING FOR REPLY" to "PROCESSING REPLY"
DEBUG   2025-09-02 11:30:12,254  pymodbus.logging:transaction.py:324 RECV: 0x1 0x3 0x4 0x3e 0xf8 0x3a 0xb6 0xe5 0x3c
DEBUG   2025-09-02 11:30:12,254  pymodbus.logging:base.py:92 Processing: 0x1 0x3 0x4 0x3e 0xf8 0x3a 0xb6 0xe5 0x3c
DEBUG   2025-09-02 11:30:12,254  pymodbus.logging:decoders.py:103 decode PDU for 3
DEBUG   2025-09-02 11:30:12,254  pymodbus.logging:base.py:102 Frame advanced, resetting header!!
DEBUG   2025-09-02 11:30:12,254  pymodbus.logging:transaction.py:67 Adding transaction 0
DEBUG   2025-09-02 11:30:12,254  pymodbus.logging:transaction.py:78 Getting transaction 0
DEBUG   2025-09-02 11:30:12,254  pymodbus.logging:transaction.py:258 Changing transaction state from "PROCESSING REPLY" to "TRANSACTION_COMPLETE"
INFO    2025-09-02 11:30:12,254  root:modbus_rtu_tcp.py:44 read_measurement ret is:ReadHoldingRegistersResponse (2)
INFO    2025-09-02 11:30:12,254  root:acudc260_modbus_get.py:159 read i2_current ret is:[16120, 15030]
DEBUG   2025-09-02 11:30:12,254  pymodbus.logging:transaction.py:184 Current transaction state - TRANSACTION_COMPLETE
DEBUG   2025-09-02 11:30:12,254  pymodbus.logging:transaction.py:193 Running transaction 0
DEBUG   2025-09-02 11:30:12,254  pymodbus.logging:transaction.py:293 SEND: 0x1 0x3 0x30 0x6 0x0 0x2 0x2b 0xa
DEBUG   2025-09-02 11:30:12,254  pymodbus.logging:serial.py:271 Changing state to IDLE - Last Frame End - 1756783812.254565 Current Time stamp - 1756783812.254565
DEBUG   2025-09-02 11:30:12,254  pymodbus.logging:serial.py:279 Waiting for 3.5 char before next send - 1.823 ms
DEBUG   2025-09-02 11:30:12,257  pymodbus.logging:base.py:250 New Transaction state "SENDING"
DEBUG   2025-09-02 11:30:12,257  pymodbus.logging:transaction.py:317 Changing transaction state from "SENDING" to "WAITING FOR REPLY"
DEBUG   2025-09-02 11:30:12,287  pymodbus.logging:transaction.py:419 Changing transaction state from "WAITING FOR REPLY" to "PROCESSING REPLY"
DEBUG   2025-09-02 11:30:12,287  pymodbus.logging:transaction.py:324 RECV: 0x1 0x3 0x4 0x3f 0x78 0xfe 0x98 0x37 0xf4
DEBUG   2025-09-02 11:30:12,287  pymodbus.logging:base.py:92 Processing: 0x1 0x3 0x4 0x3f 0x78 0xfe 0x98 0x37 0xf4
DEBUG   2025-09-02 11:30:12,287  pymodbus.logging:decoders.py:103 decode PDU for 3
DEBUG   2025-09-02 11:30:12,287  pymodbus.logging:base.py:102 Frame advanced, resetting header!!
DEBUG   2025-09-02 11:30:12,287  pymodbus.logging:transaction.py:67 Adding transaction 0
DEBUG   2025-09-02 11:30:12,287  pymodbus.logging:transaction.py:78 Getting transaction 0
DEBUG   2025-09-02 11:30:12,287  pymodbus.logging:transaction.py:258 Changing transaction state from "PROCESSING REPLY" to "TRANSACTION_COMPLETE"
INFO    2025-09-02 11:30:12,287  root:modbus_rtu_tcp.py:44 read_measurement ret is:ReadHoldingRegistersResponse (2)
INFO    2025-09-02 11:30:12,287  root:acudc260_modbus_get.py:173 read i_sum_current ret is:[16248, 65176]
DEBUG   2025-09-02 11:30:12,287  pymodbus.logging:transaction.py:184 Current transaction state - TRANSACTION_COMPLETE
DEBUG   2025-09-02 11:30:12,287  pymodbus.logging:transaction.py:193 Running transaction 0
DEBUG   2025-09-02 11:30:12,287  pymodbus.logging:transaction.py:293 SEND: 0x1 0x3 0x30 0x8 0x0 0x2 0x4a 0xc9
DEBUG   2025-09-02 11:30:12,287  pymodbus.logging:serial.py:271 Changing state to IDLE - Last Frame End - 1756783812.287984 Current Time stamp - 1756783812.287984
DEBUG   2025-09-02 11:30:12,287  pymodbus.logging:serial.py:279 Waiting for 3.5 char before next send - 1.823 ms
DEBUG   2025-09-02 11:30:12,291  pymodbus.logging:base.py:250 New Transaction state "SENDING"
DEBUG   2025-09-02 11:30:12,291  pymodbus.logging:transaction.py:317 Changing transaction state from "SENDING" to "WAITING FOR REPLY"
DEBUG   2025-09-02 11:30:12,315  pymodbus.logging:transaction.py:419 Changing transaction state from "WAITING FOR REPLY" to "PROCESSING REPLY"
DEBUG   2025-09-02 11:30:12,315  pymodbus.logging:transaction.py:324 RECV: 0x1 0x3 0x4 0x3c 0xf6 0x8a 0x68 0x70 0xdf
DEBUG   2025-09-02 11:30:12,315  pymodbus.logging:base.py:92 Processing: 0x1 0x3 0x4 0x3c 0xf6 0x8a 0x68 0x70 0xdf
DEBUG   2025-09-02 11:30:12,315  pymodbus.logging:decoders.py:103 decode PDU for 3
DEBUG   2025-09-02 11:30:12,315  pymodbus.logging:base.py:102 Frame advanced, resetting header!!
DEBUG   2025-09-02 11:30:12,315  pymodbus.logging:transaction.py:67 Adding transaction 0
DEBUG   2025-09-02 11:30:12,315  pymodbus.logging:transaction.py:78 Getting transaction 0
DEBUG   2025-09-02 11:30:12,315  pymodbus.logging:transaction.py:258 Changing transaction state from "PROCESSING REPLY" to "TRANSACTION_COMPLETE"
INFO    2025-09-02 11:30:12,315  root:modbus_rtu_tcp.py:44 read_measurement ret is:ReadHoldingRegistersResponse (2)
INFO    2025-09-02 11:30:12,315  root:acudc260_modbus_get.py:187 read p1_power ret is:[15606, 35432]
DEBUG   2025-09-02 11:30:12,315  pymodbus.logging:transaction.py:184 Current transaction state - TRANSACTION_COMPLETE
DEBUG   2025-09-02 11:30:12,315  pymodbus.logging:transaction.py:193 Running transaction 0
DEBUG   2025-09-02 11:30:12,315  pymodbus.logging:transaction.py:293 SEND: 0x1 0x3 0x30 0xa 0x0 0x2 0xeb 0x9
DEBUG   2025-09-02 11:30:12,316  pymodbus.logging:serial.py:271 Changing state to IDLE - Last Frame End - 1756783812.315464 Current Time stamp - 1756783812.316456
DEBUG   2025-09-02 11:30:12,316  pymodbus.logging:serial.py:279 Waiting for 3.5 char before next send - 1.823 ms
DEBUG   2025-09-02 11:30:12,318  pymodbus.logging:base.py:250 New Transaction state "SENDING"
DEBUG   2025-09-02 11:30:12,318  pymodbus.logging:transaction.py:317 Changing transaction state from "SENDING" to "WAITING FOR REPLY"
DEBUG   2025-09-02 11:30:12,347  pymodbus.logging:transaction.py:419 Changing transaction state from "WAITING FOR REPLY" to "PROCESSING REPLY"
DEBUG   2025-09-02 11:30:12,347  pymodbus.logging:transaction.py:324 RECV: 0x1 0x3 0x4 0x3c 0xe8 0x1 0x4b 0x37 0xf0
DEBUG   2025-09-02 11:30:12,347  pymodbus.logging:base.py:92 Processing: 0x1 0x3 0x4 0x3c 0xe8 0x1 0x4b 0x37 0xf0
DEBUG   2025-09-02 11:30:12,347  pymodbus.logging:decoders.py:103 decode PDU for 3
DEBUG   2025-09-02 11:30:12,347  pymodbus.logging:base.py:102 Frame advanced, resetting header!!
DEBUG   2025-09-02 11:30:12,347  pymodbus.logging:transaction.py:67 Adding transaction 0
DEBUG   2025-09-02 11:30:12,347  pymodbus.logging:transaction.py:78 Getting transaction 0
DEBUG   2025-09-02 11:30:12,347  pymodbus.logging:transaction.py:258 Changing transaction state from "PROCESSING REPLY" to "TRANSACTION_COMPLETE"
INFO    2025-09-02 11:30:12,348  root:modbus_rtu_tcp.py:44 read_measurement ret is:ReadHoldingRegistersResponse (2)
INFO    2025-09-02 11:30:12,348  root:acudc260_modbus_get.py:201 read p2_power ret is:[15592, 331]
DEBUG   2025-09-02 11:30:12,348  pymodbus.logging:transaction.py:184 Current transaction state - TRANSACTION_COMPLETE
DEBUG   2025-09-02 11:30:12,348  pymodbus.logging:transaction.py:193 Running transaction 0
DEBUG   2025-09-02 11:30:12,348  pymodbus.logging:transaction.py:293 SEND: 0x1 0x3 0x30 0xc 0x0 0x2 0xb 0x8
DEBUG   2025-09-02 11:30:12,348  pymodbus.logging:serial.py:271 Changing state to IDLE - Last Frame End - 1756783812.347183 Current Time stamp - 1756783812.348162
DEBUG   2025-09-02 11:30:12,348  pymodbus.logging:serial.py:279 Waiting for 3.5 char before next send - 1.823 ms
DEBUG   2025-09-02 11:30:12,350  pymodbus.logging:base.py:250 New Transaction state "SENDING"
DEBUG   2025-09-02 11:30:12,350  pymodbus.logging:transaction.py:317 Changing transaction state from "SENDING" to "WAITING FOR REPLY"
DEBUG   2025-09-02 11:30:12,383  pymodbus.logging:transaction.py:419 Changing transaction state from "WAITING FOR REPLY" to "PROCESSING REPLY"
DEBUG   2025-09-02 11:30:12,383  pymodbus.logging:transaction.py:324 RECV: 0x1 0x3 0x4 0x3d 0x6f 0x45 0xd9 0x34 0x88
DEBUG   2025-09-02 11:30:12,383  pymodbus.logging:base.py:92 Processing: 0x1 0x3 0x4 0x3d 0x6f 0x45 0xd9 0x34 0x88
DEBUG   2025-09-02 11:30:12,383  pymodbus.logging:decoders.py:103 decode PDU for 3
DEBUG   2025-09-02 11:30:12,383  pymodbus.logging:base.py:102 Frame advanced, resetting header!!
DEBUG   2025-09-02 11:30:12,383  pymodbus.logging:transaction.py:67 Adding transaction 0
DEBUG   2025-09-02 11:30:12,383  pymodbus.logging:transaction.py:78 Getting transaction 0
DEBUG   2025-09-02 11:30:12,383  pymodbus.logging:transaction.py:258 Changing transaction state from "PROCESSING REPLY" to "TRANSACTION_COMPLETE"
INFO    2025-09-02 11:30:12,383  root:modbus_rtu_tcp.py:44 read_measurement ret is:ReadHoldingRegistersResponse (2)
INFO    2025-09-02 11:30:12,383  root:acudc260_modbus_get.py:215 read p_sum_power ret is:[15727, 17881]
DEBUG   2025-09-02 11:30:12,484  pymodbus.logging:transaction.py:184 Current transaction state - TRANSACTION_COMPLETE
DEBUG   2025-09-02 11:30:12,484  pymodbus.logging:transaction.py:193 Running transaction 0
DEBUG   2025-09-02 11:30:12,484  pymodbus.logging:transaction.py:293 SEND: 0x1 0x3 0x30 0x0 0x0 0x2 0xcb 0xb
DEBUG   2025-09-02 11:30:12,485  pymodbus.logging:serial.py:271 Changing state to IDLE - Last Frame End - 1756783812.383675 Current Time stamp - 1756783812.485346
DEBUG   2025-09-02 11:30:12,485  pymodbus.logging:base.py:250 New Transaction state "SENDING"
DEBUG   2025-09-02 11:30:12,485  pymodbus.logging:transaction.py:317 Changing transaction state from "SENDING" to "WAITING FOR REPLY"
DEBUG   2025-09-02 11:30:12,510  pymodbus.logging:transaction.py:419 Changing transaction state from "WAITING FOR REPLY" to "PROCESSING REPLY"
DEBUG   2025-09-02 11:30:12,510  pymodbus.logging:transaction.py:324 RECV: 0x1 0x3 0x4 0x42 0x6f 0xfa 0x3d 0x5d 0x27
DEBUG   2025-09-02 11:30:12,510  pymodbus.logging:base.py:92 Processing: 0x1 0x3 0x4 0x42 0x6f 0xfa 0x3d 0x5d 0x27
DEBUG   2025-09-02 11:30:12,510  pymodbus.logging:decoders.py:103 decode PDU for 3
DEBUG   2025-09-02 11:30:12,510  pymodbus.logging:base.py:102 Frame advanced, resetting header!!
DEBUG   2025-09-02 11:30:12,510  pymodbus.logging:transaction.py:67 Adding transaction 0
DEBUG   2025-09-02 11:30:12,510  pymodbus.logging:transaction.py:78 Getting transaction 0
DEBUG   2025-09-02 11:30:12,510  pymodbus.logging:transaction.py:258 Changing transaction state from "PROCESSING REPLY" to "TRANSACTION_COMPLETE"
INFO    2025-09-02 11:30:12,510  root:modbus_rtu_tcp.py:44 read_measurement ret is:ReadHoldingRegistersResponse (2)
INFO    2025-09-02 11:30:12,510  root:acudc260_modbus_get.py:131 read u_voltage ret is:[17007, 64061]
DEBUG   2025-09-02 11:30:12,510  pymodbus.logging:transaction.py:184 Current transaction state - TRANSACTION_COMPLETE
DEBUG   2025-09-02 11:30:12,510  pymodbus.logging:transaction.py:193 Running transaction 0
DEBUG   2025-09-02 11:30:12,510  pymodbus.logging:transaction.py:293 SEND: 0x1 0x3 0x30 0x2 0x0 0x2 0x6a 0xcb
DEBUG   2025-09-02 11:30:12,511  pymodbus.logging:serial.py:271 Changing state to IDLE - Last Frame End - 1756783812.510666 Current Time stamp - 1756783812.510666
DEBUG   2025-09-02 11:30:12,511  pymodbus.logging:serial.py:279 Waiting for 3.5 char before next send - 1.823 ms
DEBUG   2025-09-02 11:30:12,513  pymodbus.logging:base.py:250 New Transaction state "SENDING"
DEBUG   2025-09-02 11:30:12,513  pymodbus.logging:transaction.py:317 Changing transaction state from "SENDING" to "WAITING FOR REPLY"
DEBUG   2025-09-02 11:30:12,543  pymodbus.logging:transaction.py:419 Changing transaction state from "WAITING FOR REPLY" to "PROCESSING REPLY"
DEBUG   2025-09-02 11:30:12,543  pymodbus.logging:transaction.py:324 RECV: 0x1 0x3 0x4 0x3e 0xf6 0x6b 0x5d 0xf9 0x20
DEBUG   2025-09-02 11:30:12,543  pymodbus.logging:base.py:92 Processing: 0x1 0x3 0x4 0x3e 0xf6 0x6b 0x5d 0xf9 0x20
DEBUG   2025-09-02 11:30:12,543  pymodbus.logging:decoders.py:103 decode PDU for 3
DEBUG   2025-09-02 11:30:12,543  pymodbus.logging:base.py:102 Frame advanced, resetting header!!
DEBUG   2025-09-02 11:30:12,543  pymodbus.logging:transaction.py:67 Adding transaction 0
DEBUG   2025-09-02 11:30:12,543  pymodbus.logging:transaction.py:78 Getting transaction 0
DEBUG   2025-09-02 11:30:12,543  pymodbus.logging:transaction.py:258 Changing transaction state from "PROCESSING REPLY" to "TRANSACTION_COMPLETE"
INFO    2025-09-02 11:30:12,543  root:modbus_rtu_tcp.py:44 read_measurement ret is:ReadHoldingRegistersResponse (2)
INFO    2025-09-02 11:30:12,543  root:acudc260_modbus_get.py:145 read i1_current ret is:[16118, 27485]
DEBUG   2025-09-02 11:30:12,543  pymodbus.logging:transaction.py:184 Current transaction state - TRANSACTION_COMPLETE
DEBUG   2025-09-02 11:30:12,543  pymodbus.logging:transaction.py:193 Running transaction 0
DEBUG   2025-09-02 11:30:12,543  pymodbus.logging:transaction.py:293 SEND: 0x1 0x3 0x30 0x4 0x0 0x2 0x8a 0xca
DEBUG   2025-09-02 11:30:12,543  pymodbus.logging:serial.py:271 Changing state to IDLE - Last Frame End - 1756783812.543616 Current Time stamp - 1756783812.543616
DEBUG   2025-09-02 11:30:12,544  pymodbus.logging:serial.py:279 Waiting for 3.5 char before next send - 1.823 ms
DEBUG   2025-09-02 11:30:12,546  pymodbus.logging:base.py:250 New Transaction state "SENDING"
DEBUG   2025-09-02 11:30:12,546  pymodbus.logging:transaction.py:317 Changing transaction state from "SENDING" to "WAITING FOR REPLY"
DEBUG   2025-09-02 11:30:12,576  pymodbus.logging:transaction.py:419 Changing transaction state from "WAITING FOR REPLY" to "PROCESSING REPLY"
DEBUG   2025-09-02 11:30:12,576  pymodbus.logging:transaction.py:324 RECV: 0x1 0x3 0x4 0x3e 0xe8 0x73 0x4a 0xd3 0x28
DEBUG   2025-09-02 11:30:12,576  pymodbus.logging:base.py:92 Processing: 0x1 0x3 0x4 0x3e 0xe8 0x73 0x4a 0xd3 0x28
DEBUG   2025-09-02 11:30:12,576  pymodbus.logging:decoders.py:103 decode PDU for 3
DEBUG   2025-09-02 11:30:12,576  pymodbus.logging:base.py:102 Frame advanced, resetting header!!
DEBUG   2025-09-02 11:30:12,576  pymodbus.logging:transaction.py:67 Adding transaction 0
DEBUG   2025-09-02 11:30:12,576  pymodbus.logging:transaction.py:78 Getting transaction 0
DEBUG   2025-09-02 11:30:12,576  pymodbus.logging:transaction.py:258 Changing transaction state from "PROCESSING REPLY" to "TRANSACTION_COMPLETE"
INFO    2025-09-02 11:30:12,576  root:modbus_rtu_tcp.py:44 read_measurement ret is:ReadHoldingRegistersResponse (2)
INFO    2025-09-02 11:30:12,576  root:acudc260_modbus_get.py:159 read i2_current ret is:[16104, 29514]
DEBUG   2025-09-02 11:30:12,576  pymodbus.logging:transaction.py:184 Current transaction state - TRANSACTION_COMPLETE
DEBUG   2025-09-02 11:30:12,577  pymodbus.logging:transaction.py:193 Running transaction 0
DEBUG   2025-09-02 11:30:12,577  pymodbus.logging:transaction.py:293 SEND: 0x1 0x3 0x30 0x6 0x0 0x2 0x2b 0xa
DEBUG   2025-09-02 11:30:12,577  pymodbus.logging:serial.py:271 Changing state to IDLE - Last Frame End - 1756783812.576286 Current Time stamp - 1756783812.577409
DEBUG   2025-09-02 11:30:12,577  pymodbus.logging:serial.py:279 Waiting for 3.5 char before next send - 1.823 ms
DEBUG   2025-09-02 11:30:12,579  pymodbus.logging:base.py:250 New Transaction state "SENDING"
DEBUG   2025-09-02 11:30:12,579  pymodbus.logging:transaction.py:317 Changing transaction state from "SENDING" to "WAITING FOR REPLY"
DEBUG   2025-09-02 11:30:12,608  pymodbus.logging:transaction.py:419 Changing transaction state from "WAITING FOR REPLY" to "PROCESSING REPLY"
DEBUG   2025-09-02 11:30:12,608  pymodbus.logging:transaction.py:324 RECV: 0x1 0x3 0x4 0x3f 0x7e 0xcb 0x5a 0x41 0x34
DEBUG   2025-09-02 11:30:12,608  pymodbus.logging:base.py:92 Processing: 0x1 0x3 0x4 0x3f 0x7e 0xcb 0x5a 0x41 0x34
DEBUG   2025-09-02 11:30:12,608  pymodbus.logging:decoders.py:103 decode PDU for 3
DEBUG   2025-09-02 11:30:12,608  pymodbus.logging:base.py:102 Frame advanced, resetting header!!
DEBUG   2025-09-02 11:30:12,608  pymodbus.logging:transaction.py:67 Adding transaction 0
DEBUG   2025-09-02 11:30:12,608  pymodbus.logging:transaction.py:78 Getting transaction 0
DEBUG   2025-09-02 11:30:12,608  pymodbus.logging:transaction.py:258 Changing transaction state from "PROCESSING REPLY" to "TRANSACTION_COMPLETE"
INFO    2025-09-02 11:30:12,608  root:modbus_rtu_tcp.py:44 read_measurement ret is:ReadHoldingRegistersResponse (2)
INFO    2025-09-02 11:30:12,608  root:acudc260_modbus_get.py:173 read i_sum_current ret is:[16254, 52058]
DEBUG   2025-09-02 11:30:12,608  pymodbus.logging:transaction.py:184 Current transaction state - TRANSACTION_COMPLETE
DEBUG   2025-09-02 11:30:12,608  pymodbus.logging:transaction.py:193 Running transaction 0
DEBUG   2025-09-02 11:30:12,608  pymodbus.logging:transaction.py:293 SEND: 0x1 0x3 0x30 0x8 0x0 0x2 0x4a 0xc9
DEBUG   2025-09-02 11:30:12,608  pymodbus.logging:serial.py:271 Changing state to IDLE - Last Frame End - 1756783812.608545 Current Time stamp - 1756783812.608545
DEBUG   2025-09-02 11:30:12,608  pymodbus.logging:serial.py:279 Waiting for 3.5 char before next send - 1.823 ms
DEBUG   2025-09-02 11:30:12,611  pymodbus.logging:base.py:250 New Transaction state "SENDING"
DEBUG   2025-09-02 11:30:12,611  pymodbus.logging:transaction.py:317 Changing transaction state from "SENDING" to "WAITING FOR REPLY"
DEBUG   2025-09-02 11:30:12,638  pymodbus.logging:transaction.py:419 Changing transaction state from "WAITING FOR REPLY" to "PROCESSING REPLY"
DEBUG   2025-09-02 11:30:12,638  pymodbus.logging:transaction.py:324 RECV: 0x1 0x3 0x4 0x3c 0xeb 0x21 0x65 0x5e 0x2c
DEBUG   2025-09-02 11:30:12,638  pymodbus.logging:base.py:92 Processing: 0x1 0x3 0x4 0x3c 0xeb 0x21 0x65 0x5e 0x2c
DEBUG   2025-09-02 11:30:12,638  pymodbus.logging:decoders.py:103 decode PDU for 3
DEBUG   2025-09-02 11:30:12,638  pymodbus.logging:base.py:102 Frame advanced, resetting header!!
DEBUG   2025-09-02 11:30:12,638  pymodbus.logging:transaction.py:67 Adding transaction 0
DEBUG   2025-09-02 11:30:12,638  pymodbus.logging:transaction.py:78 Getting transaction 0
DEBUG   2025-09-02 11:30:12,638  pymodbus.logging:transaction.py:258 Changing transaction state from "PROCESSING REPLY" to "TRANSACTION_COMPLETE"
INFO    2025-09-02 11:30:12,639  root:modbus_rtu_tcp.py:44 read_measurement ret is:ReadHoldingRegistersResponse (2)
INFO    2025-09-02 11:30:12,639  root:acudc260_modbus_get.py:187 read p1_power ret is:[15595, 8549]
DEBUG   2025-09-02 11:30:12,639  pymodbus.logging:transaction.py:184 Current transaction state - TRANSACTION_COMPLETE
DEBUG   2025-09-02 11:30:12,639  pymodbus.logging:transaction.py:193 Running transaction 0
DEBUG   2025-09-02 11:30:12,639  pymodbus.logging:transaction.py:293 SEND: 0x1 0x3 0x30 0xa 0x0 0x2 0xeb 0x9
DEBUG   2025-09-02 11:30:12,639  pymodbus.logging:serial.py:271 Changing state to IDLE - Last Frame End - 1756783812.638001 Current Time stamp - 1756783812.639014
DEBUG   2025-09-02 11:30:12,639  pymodbus.logging:serial.py:279 Waiting for 3.5 char before next send - 1.823 ms
DEBUG   2025-09-02 11:30:12,642  pymodbus.logging:base.py:250 New Transaction state "SENDING"
DEBUG   2025-09-02 11:30:12,642  pymodbus.logging:transaction.py:317 Changing transaction state from "SENDING" to "WAITING FOR REPLY"
DEBUG   2025-09-02 11:30:12,666  pymodbus.logging:transaction.py:419 Changing transaction state from "WAITING FOR REPLY" to "PROCESSING REPLY"
DEBUG   2025-09-02 11:30:12,666  pymodbus.logging:transaction.py:324 RECV: 0x1 0x3 0x4 0x3c 0xfe 0xe 0x4d 0x53 0xc6
DEBUG   2025-09-02 11:30:12,667  pymodbus.logging:base.py:92 Processing: 0x1 0x3 0x4 0x3c 0xfe 0xe 0x4d 0x53 0xc6
DEBUG   2025-09-02 11:30:12,667  pymodbus.logging:decoders.py:103 decode PDU for 3
DEBUG   2025-09-02 11:30:12,667  pymodbus.logging:base.py:102 Frame advanced, resetting header!!
DEBUG   2025-09-02 11:30:12,667  pymodbus.logging:transaction.py:67 Adding transaction 0
DEBUG   2025-09-02 11:30:12,667  pymodbus.logging:transaction.py:78 Getting transaction 0
DEBUG   2025-09-02 11:30:12,667  pymodbus.logging:transaction.py:258 Changing transaction state from "PROCESSING REPLY" to "TRANSACTION_COMPLETE"
INFO    2025-09-02 11:30:12,667  root:modbus_rtu_tcp.py:44 read_measurement ret is:ReadHoldingRegistersResponse (2)
INFO    2025-09-02 11:30:12,667  root:acudc260_modbus_get.py:201 read p2_power ret is:[15614, 3661]
DEBUG   2025-09-02 11:30:12,667  pymodbus.logging:transaction.py:184 Current transaction state - TRANSACTION_COMPLETE
DEBUG   2025-09-02 11:30:12,667  pymodbus.logging:transaction.py:193 Running transaction 0
DEBUG   2025-09-02 11:30:12,667  pymodbus.logging:transaction.py:293 SEND: 0x1 0x3 0x30 0xc 0x0 0x2 0xb 0x8
DEBUG   2025-09-02 11:30:12,667  pymodbus.logging:serial.py:271 Changing state to IDLE - Last Frame End - 1756783812.666961 Current Time stamp - 1756783812.667962
DEBUG   2025-09-02 11:30:12,668  pymodbus.logging:serial.py:279 Waiting for 3.5 char before next send - 1.823 ms
DEBUG   2025-09-02 11:30:12,670  pymodbus.logging:base.py:250 New Transaction state "SENDING"
DEBUG   2025-09-02 11:30:12,671  pymodbus.logging:transaction.py:317 Changing transaction state from "SENDING" to "WAITING FOR REPLY"
DEBUG   2025-09-02 11:30:12,703  pymodbus.logging:transaction.py:419 Changing transaction state from "WAITING FOR REPLY" to "PROCESSING REPLY"
DEBUG   2025-09-02 11:30:12,703  pymodbus.logging:transaction.py:324 RECV: 0x1 0x3 0x4 0x3d 0x5e 0x73 0x12 0x33 0x70
DEBUG   2025-09-02 11:30:12,703  pymodbus.logging:base.py:92 Processing: 0x1 0x3 0x4 0x3d 0x5e 0x73 0x12 0x33 0x70
DEBUG   2025-09-02 11:30:12,703  pymodbus.logging:decoders.py:103 decode PDU for 3
DEBUG   2025-09-02 11:30:12,703  pymodbus.logging:base.py:102 Frame advanced, resetting header!!
DEBUG   2025-09-02 11:30:12,703  pymodbus.logging:transaction.py:67 Adding transaction 0
DEBUG   2025-09-02 11:30:12,703  pymodbus.logging:transaction.py:78 Getting transaction 0
DEBUG   2025-09-02 11:30:12,703  pymodbus.logging:transaction.py:258 Changing transaction state from "PROCESSING REPLY" to "TRANSACTION_COMPLETE"
INFO    2025-09-02 11:30:12,703  root:modbus_rtu_tcp.py:44 read_measurement ret is:ReadHoldingRegistersResponse (2)
INFO    2025-09-02 11:30:12,703  root:acudc260_modbus_get.py:215 read p_sum_power ret is:[15710, 29458]
DEBUG   2025-09-02 11:30:12,804  pymodbus.logging:transaction.py:184 Current transaction state - TRANSACTION_COMPLETE
DEBUG   2025-09-02 11:30:12,804  pymodbus.logging:transaction.py:193 Running transaction 0
DEBUG   2025-09-02 11:30:12,804  pymodbus.logging:transaction.py:293 SEND: 0x1 0x3 0x30 0x0 0x0 0x2 0xcb 0xb
DEBUG   2025-09-02 11:30:12,805  pymodbus.logging:serial.py:271 Changing state to IDLE - Last Frame End - 1756783812.703355 Current Time stamp - 1756783812.805212
DEBUG   2025-09-02 11:30:12,805  pymodbus.logging:base.py:250 New Transaction state "SENDING"
DEBUG   2025-09-02 11:30:12,805  pymodbus.logging:transaction.py:317 Changing transaction state from "SENDING" to "WAITING FOR REPLY"
DEBUG   2025-09-02 11:30:12,830  pymodbus.logging:transaction.py:419 Changing transaction state from "WAITING FOR REPLY" to "PROCESSING REPLY"
DEBUG   2025-09-02 11:30:12,830  pymodbus.logging:transaction.py:324 RECV: 0x1 0x3 0x4 0x42 0x6f 0xf8 0x5f 0xdd 0xae
DEBUG   2025-09-02 11:30:12,830  pymodbus.logging:base.py:92 Processing: 0x1 0x3 0x4 0x42 0x6f 0xf8 0x5f 0xdd 0xae
DEBUG   2025-09-02 11:30:12,830  pymodbus.logging:decoders.py:103 decode PDU for 3
DEBUG   2025-09-02 11:30:12,830  pymodbus.logging:base.py:102 Frame advanced, resetting header!!
DEBUG   2025-09-02 11:30:12,830  pymodbus.logging:transaction.py:67 Adding transaction 0
DEBUG   2025-09-02 11:30:12,830  pymodbus.logging:transaction.py:78 Getting transaction 0
DEBUG   2025-09-02 11:30:12,830  pymodbus.logging:transaction.py:258 Changing transaction state from "PROCESSING REPLY" to "TRANSACTION_COMPLETE"
INFO    2025-09-02 11:30:12,830  root:modbus_rtu_tcp.py:44 read_measurement ret is:ReadHoldingRegistersResponse (2)
INFO    2025-09-02 11:30:12,830  root:acudc260_modbus_get.py:131 read u_voltage ret is:[17007, 63583]
DEBUG   2025-09-02 11:30:12,830  pymodbus.logging:transaction.py:184 Current transaction state - TRANSACTION_COMPLETE
DEBUG   2025-09-02 11:30:12,830  pymodbus.logging:transaction.py:193 Running transaction 0
DEBUG   2025-09-02 11:30:12,830  pymodbus.logging:transaction.py:293 SEND: 0x1 0x3 0x30 0x2 0x0 0x2 0x6a 0xcb
DEBUG   2025-09-02 11:30:12,830  pymodbus.logging:serial.py:271 Changing state to IDLE - Last Frame End - 1756783812.830297 Current Time stamp - 1756783812.830297
DEBUG   2025-09-02 11:30:12,830  pymodbus.logging:serial.py:279 Waiting for 3.5 char before next send - 1.823 ms
DEBUG   2025-09-02 11:30:12,832  pymodbus.logging:base.py:250 New Transaction state "SENDING"
DEBUG   2025-09-02 11:30:12,833  pymodbus.logging:transaction.py:317 Changing transaction state from "SENDING" to "WAITING FOR REPLY"
DEBUG   2025-09-02 11:30:12,862  pymodbus.logging:transaction.py:419 Changing transaction state from "WAITING FOR REPLY" to "PROCESSING REPLY"
DEBUG   2025-09-02 11:30:12,862  pymodbus.logging:transaction.py:324 RECV: 0x1 0x3 0x4 0x3e 0xfe 0x8 0x3d 0x50 0x3a
DEBUG   2025-09-02 11:30:12,862  pymodbus.logging:base.py:92 Processing: 0x1 0x3 0x4 0x3e 0xfe 0x8 0x3d 0x50 0x3a
DEBUG   2025-09-02 11:30:12,862  pymodbus.logging:decoders.py:103 decode PDU for 3
DEBUG   2025-09-02 11:30:12,862  pymodbus.logging:base.py:102 Frame advanced, resetting header!!
DEBUG   2025-09-02 11:30:12,862  pymodbus.logging:transaction.py:67 Adding transaction 0
DEBUG   2025-09-02 11:30:12,862  pymodbus.logging:transaction.py:78 Getting transaction 0
DEBUG   2025-09-02 11:30:12,862  pymodbus.logging:transaction.py:258 Changing transaction state from "PROCESSING REPLY" to "TRANSACTION_COMPLETE"
INFO    2025-09-02 11:30:12,862  root:modbus_rtu_tcp.py:44 read_measurement ret is:ReadHoldingRegistersResponse (2)
INFO    2025-09-02 11:30:12,862  root:acudc260_modbus_get.py:145 read i1_current ret is:[16126, 2109]
DEBUG   2025-09-02 11:30:12,862  pymodbus.logging:transaction.py:184 Current transaction state - TRANSACTION_COMPLETE
DEBUG   2025-09-02 11:30:12,862  pymodbus.logging:transaction.py:193 Running transaction 0
DEBUG   2025-09-02 11:30:12,862  pymodbus.logging:transaction.py:293 SEND: 0x1 0x3 0x30 0x4 0x0 0x2 0x8a 0xca
DEBUG   2025-09-02 11:30:12,862  pymodbus.logging:serial.py:271 Changing state to IDLE - Last Frame End - 1756783812.862377 Current Time stamp - 1756783812.862989
DEBUG   2025-09-02 11:30:12,862  pymodbus.logging:serial.py:279 Waiting for 3.5 char before next send - 1.823 ms
DEBUG   2025-09-02 11:30:12,865  pymodbus.logging:base.py:250 New Transaction state "SENDING"
DEBUG   2025-09-02 11:30:12,865  pymodbus.logging:transaction.py:317 Changing transaction state from "SENDING" to "WAITING FOR REPLY"
DEBUG   2025-09-02 11:30:12,894  pymodbus.logging:transaction.py:419 Changing transaction state from "WAITING FOR REPLY" to "PROCESSING REPLY"
DEBUG   2025-09-02 11:30:12,894  pymodbus.logging:transaction.py:324 RECV: 0x1 0x3 0x4 0x3e 0xf3 0x67 0x2a 0xac 0x7
DEBUG   2025-09-02 11:30:12,894  pymodbus.logging:base.py:92 Processing: 0x1 0x3 0x4 0x3e 0xf3 0x67 0x2a 0xac 0x7
DEBUG   2025-09-02 11:30:12,894  pymodbus.logging:decoders.py:103 decode PDU for 3
DEBUG   2025-09-02 11:30:12,894  pymodbus.logging:base.py:102 Frame advanced, resetting header!!
DEBUG   2025-09-02 11:30:12,894  pymodbus.logging:transaction.py:67 Adding transaction 0
DEBUG   2025-09-02 11:30:12,894  pymodbus.logging:transaction.py:78 Getting transaction 0
DEBUG   2025-09-02 11:30:12,894  pymodbus.logging:transaction.py:258 Changing transaction state from "PROCESSING REPLY" to "TRANSACTION_COMPLETE"
INFO    2025-09-02 11:30:12,894  root:modbus_rtu_tcp.py:44 read_measurement ret is:ReadHoldingRegistersResponse (2)
INFO    2025-09-02 11:30:12,894  root:acudc260_modbus_get.py:159 read i2_current ret is:[16115, 26410]
DEBUG   2025-09-02 11:30:12,894  pymodbus.logging:transaction.py:184 Current transaction state - TRANSACTION_COMPLETE
DEBUG   2025-09-02 11:30:12,894  pymodbus.logging:transaction.py:193 Running transaction 0
DEBUG   2025-09-02 11:30:12,895  pymodbus.logging:transaction.py:293 SEND: 0x1 0x3 0x30 0x6 0x0 0x2 0x2b 0xa
DEBUG   2025-09-02 11:30:12,895  pymodbus.logging:serial.py:271 Changing state to IDLE - Last Frame End - 1756783812.894196 Current Time stamp - 1756783812.895305
DEBUG   2025-09-02 11:30:12,895  pymodbus.logging:serial.py:279 Waiting for 3.5 char before next send - 1.823 ms
DEBUG   2025-09-02 11:30:12,897  pymodbus.logging:base.py:250 New Transaction state "SENDING"
DEBUG   2025-09-02 11:30:12,897  pymodbus.logging:transaction.py:317 Changing transaction state from "SENDING" to "WAITING FOR REPLY"
DEBUG   2025-09-02 11:30:12,927  pymodbus.logging:transaction.py:419 Changing transaction state from "WAITING FOR REPLY" to "PROCESSING REPLY"
DEBUG   2025-09-02 11:30:12,927  pymodbus.logging:transaction.py:324 RECV: 0x1 0x3 0x4 0x3f 0x7e 0xdd 0x8a 0x4e 0xc8
DEBUG   2025-09-02 11:30:12,927  pymodbus.logging:base.py:92 Processing: 0x1 0x3 0x4 0x3f 0x7e 0xdd 0x8a 0x4e 0xc8
DEBUG   2025-09-02 11:30:12,927  pymodbus.logging:decoders.py:103 decode PDU for 3
DEBUG   2025-09-02 11:30:12,927  pymodbus.logging:base.py:102 Frame advanced, resetting header!!
DEBUG   2025-09-02 11:30:12,927  pymodbus.logging:transaction.py:67 Adding transaction 0
DEBUG   2025-09-02 11:30:12,927  pymodbus.logging:transaction.py:78 Getting transaction 0
DEBUG   2025-09-02 11:30:12,927  pymodbus.logging:transaction.py:258 Changing transaction state from "PROCESSING REPLY" to "TRANSACTION_COMPLETE"
INFO    2025-09-02 11:30:12,927  root:modbus_rtu_tcp.py:44 read_measurement ret is:ReadHoldingRegistersResponse (2)
INFO    2025-09-02 11:30:12,927  root:acudc260_modbus_get.py:173 read i_sum_current ret is:[16254, 56714]
DEBUG   2025-09-02 11:30:12,927  pymodbus.logging:transaction.py:184 Current transaction state - TRANSACTION_COMPLETE
DEBUG   2025-09-02 11:30:12,927  pymodbus.logging:transaction.py:193 Running transaction 0
DEBUG   2025-09-02 11:30:12,927  pymodbus.logging:transaction.py:293 SEND: 0x1 0x3 0x30 0x8 0x0 0x2 0x4a 0xc9
DEBUG   2025-09-02 11:30:12,927  pymodbus.logging:serial.py:271 Changing state to IDLE - Last Frame End - 1756783812.927307 Current Time stamp - 1756783812.927307
DEBUG   2025-09-02 11:30:12,927  pymodbus.logging:serial.py:279 Waiting for 3.5 char before next send - 1.823 ms
DEBUG   2025-09-02 11:30:12,930  pymodbus.logging:base.py:250 New Transaction state "SENDING"
DEBUG   2025-09-02 11:30:12,930  pymodbus.logging:transaction.py:317 Changing transaction state from "SENDING" to "WAITING FOR REPLY"
DEBUG   2025-09-02 11:30:12,959  pymodbus.logging:transaction.py:419 Changing transaction state from "WAITING FOR REPLY" to "PROCESSING REPLY"
DEBUG   2025-09-02 11:30:12,959  pymodbus.logging:transaction.py:324 RECV: 0x1 0x3 0x4 0x3c 0xff 0x9d 0x61 0x6f 0x2b
DEBUG   2025-09-02 11:30:12,959  pymodbus.logging:base.py:92 Processing: 0x1 0x3 0x4 0x3c 0xff 0x9d 0x61 0x6f 0x2b
DEBUG   2025-09-02 11:30:12,959  pymodbus.logging:decoders.py:103 decode PDU for 3
DEBUG   2025-09-02 11:30:12,959  pymodbus.logging:base.py:102 Frame advanced, resetting header!!
DEBUG   2025-09-02 11:30:12,959  pymodbus.logging:transaction.py:67 Adding transaction 0
DEBUG   2025-09-02 11:30:12,959  pymodbus.logging:transaction.py:78 Getting transaction 0
DEBUG   2025-09-02 11:30:12,959  pymodbus.logging:transaction.py:258 Changing transaction state from "PROCESSING REPLY" to "TRANSACTION_COMPLETE"
INFO    2025-09-02 11:30:12,959  root:modbus_rtu_tcp.py:44 read_measurement ret is:ReadHoldingRegistersResponse (2)
INFO    2025-09-02 11:30:12,959  root:acudc260_modbus_get.py:187 read p1_power ret is:[15615, 40289]
DEBUG   2025-09-02 11:30:12,959  pymodbus.logging:transaction.py:184 Current transaction state - TRANSACTION_COMPLETE
DEBUG   2025-09-02 11:30:12,959  pymodbus.logging:transaction.py:193 Running transaction 0
DEBUG   2025-09-02 11:30:12,959  pymodbus.logging:transaction.py:293 SEND: 0x1 0x3 0x30 0xa 0x0 0x2 0xeb 0x9
DEBUG   2025-09-02 11:30:12,959  pymodbus.logging:serial.py:271 Changing state to IDLE - Last Frame End - 1756783812.959946 Current Time stamp - 1756783812.959946
DEBUG   2025-09-02 11:30:12,959  pymodbus.logging:serial.py:279 Waiting for 3.5 char before next send - 1.823 ms
DEBUG   2025-09-02 11:30:12,962  pymodbus.logging:base.py:250 New Transaction state "SENDING"
DEBUG   2025-09-02 11:30:12,962  pymodbus.logging:transaction.py:317 Changing transaction state from "SENDING" to "WAITING FOR REPLY"
DEBUG   2025-09-02 11:30:12,986  pymodbus.logging:transaction.py:419 Changing transaction state from "WAITING FOR REPLY" to "PROCESSING REPLY"
DEBUG   2025-09-02 11:30:12,986  pymodbus.logging:transaction.py:324 RECV: 0x1 0x3 0x4 0x3c 0xe9 0xa2 0x85 0x9f 0x54
DEBUG   2025-09-02 11:30:12,986  pymodbus.logging:base.py:92 Processing: 0x1 0x3 0x4 0x3c 0xe9 0xa2 0x85 0x9f 0x54
DEBUG   2025-09-02 11:30:12,987  pymodbus.logging:decoders.py:103 decode PDU for 3
DEBUG   2025-09-02 11:30:12,987  pymodbus.logging:base.py:102 Frame advanced, resetting header!!
DEBUG   2025-09-02 11:30:12,987  pymodbus.logging:transaction.py:67 Adding transaction 0
DEBUG   2025-09-02 11:30:12,987  pymodbus.logging:transaction.py:78 Getting transaction 0
DEBUG   2025-09-02 11:30:12,987  pymodbus.logging:transaction.py:258 Changing transaction state from "PROCESSING REPLY" to "TRANSACTION_COMPLETE"
INFO    2025-09-02 11:30:12,987  root:modbus_rtu_tcp.py:44 read_measurement ret is:ReadHoldingRegistersResponse (2)
INFO    2025-09-02 11:30:12,987  root:acudc260_modbus_get.py:201 read p2_power ret is:[15593, 41605]
DEBUG   2025-09-02 11:30:12,987  pymodbus.logging:transaction.py:184 Current transaction state - TRANSACTION_COMPLETE
DEBUG   2025-09-02 11:30:12,987  pymodbus.logging:transaction.py:193 Running transaction 0
DEBUG   2025-09-02 11:30:12,987  pymodbus.logging:transaction.py:293 SEND: 0x1 0x3 0x30 0xc 0x0 0x2 0xb 0x8
DEBUG   2025-09-02 11:30:12,987  pymodbus.logging:serial.py:271 Changing state to IDLE - Last Frame End - 1756783812.986625 Current Time stamp - 1756783812.987617
DEBUG   2025-09-02 11:30:12,987  pymodbus.logging:serial.py:279 Waiting for 3.5 char before next send - 1.823 ms
DEBUG   2025-09-02 11:30:12,990  pymodbus.logging:base.py:250 New Transaction state "SENDING"
DEBUG   2025-09-02 11:30:12,990  pymodbus.logging:transaction.py:317 Changing transaction state from "SENDING" to "WAITING FOR REPLY"
DEBUG   2025-09-02 11:30:13,022  pymodbus.logging:transaction.py:419 Changing transaction state from "WAITING FOR REPLY" to "PROCESSING REPLY"
DEBUG   2025-09-02 11:30:13,022  pymodbus.logging:transaction.py:324 RECV: 0x1 0x3 0x4 0x3d 0x6f 0xfe 0x76 0x6 0x4
DEBUG   2025-09-02 11:30:13,022  pymodbus.logging:base.py:92 Processing: 0x1 0x3 0x4 0x3d 0x6f 0xfe 0x76 0x6 0x4
DEBUG   2025-09-02 11:30:13,022  pymodbus.logging:decoders.py:103 decode PDU for 3
DEBUG   2025-09-02 11:30:13,022  pymodbus.logging:base.py:102 Frame advanced, resetting header!!
DEBUG   2025-09-02 11:30:13,022  pymodbus.logging:transaction.py:67 Adding transaction 0
DEBUG   2025-09-02 11:30:13,022  pymodbus.logging:transaction.py:78 Getting transaction 0
DEBUG   2025-09-02 11:30:13,022  pymodbus.logging:transaction.py:258 Changing transaction state from "PROCESSING REPLY" to "TRANSACTION_COMPLETE"
INFO    2025-09-02 11:30:13,022  root:modbus_rtu_tcp.py:44 read_measurement ret is:ReadHoldingRegistersResponse (2)
INFO    2025-09-02 11:30:13,022  root:acudc260_modbus_get.py:215 read p_sum_power ret is:[15727, 65142]
DEBUG   2025-09-02 11:30:13,124  pymodbus.logging:transaction.py:184 Current transaction state - TRANSACTION_COMPLETE
DEBUG   2025-09-02 11:30:13,124  pymodbus.logging:transaction.py:193 Running transaction 0
DEBUG   2025-09-02 11:30:13,124  pymodbus.logging:transaction.py:293 SEND: 0x1 0x3 0x30 0x0 0x0 0x2 0xcb 0xb
DEBUG   2025-09-02 11:30:13,124  pymodbus.logging:serial.py:271 Changing state to IDLE - Last Frame End - 1756783813.022891 Current Time stamp - 1756783813.124767
DEBUG   2025-09-02 11:30:13,124  pymodbus.logging:base.py:250 New Transaction state "SENDING"
DEBUG   2025-09-02 11:30:13,124  pymodbus.logging:transaction.py:317 Changing transaction state from "SENDING" to "WAITING FOR REPLY"
DEBUG   2025-09-02 11:30:13,151  pymodbus.logging:transaction.py:419 Changing transaction state from "WAITING FOR REPLY" to "PROCESSING REPLY"
DEBUG   2025-09-02 11:30:13,151  pymodbus.logging:transaction.py:324 RECV: 0x1 0x3 0x4 0x42 0x6f 0xf9 0xb2 0x1c 0x73
DEBUG   2025-09-02 11:30:13,151  pymodbus.logging:base.py:92 Processing: 0x1 0x3 0x4 0x42 0x6f 0xf9 0xb2 0x1c 0x73
DEBUG   2025-09-02 11:30:13,151  pymodbus.logging:decoders.py:103 decode PDU for 3
DEBUG   2025-09-02 11:30:13,151  pymodbus.logging:base.py:102 Frame advanced, resetting header!!
DEBUG   2025-09-02 11:30:13,151  pymodbus.logging:transaction.py:67 Adding transaction 0
DEBUG   2025-09-02 11:30:13,151  pymodbus.logging:transaction.py:78 Getting transaction 0
DEBUG   2025-09-02 11:30:13,151  pymodbus.logging:transaction.py:258 Changing transaction state from "PROCESSING REPLY" to "TRANSACTION_COMPLETE"
INFO    2025-09-02 11:30:13,151  root:modbus_rtu_tcp.py:44 read_measurement ret is:ReadHoldingRegistersResponse (2)
INFO    2025-09-02 11:30:13,151  root:acudc260_modbus_get.py:131 read u_voltage ret is:[17007, 63922]
DEBUG   2025-09-02 11:30:13,151  pymodbus.logging:transaction.py:184 Current transaction state - TRANSACTION_COMPLETE
DEBUG   2025-09-02 11:30:13,151  pymodbus.logging:transaction.py:193 Running transaction 0
DEBUG   2025-09-02 11:30:13,151  pymodbus.logging:transaction.py:293 SEND: 0x1 0x3 0x30 0x2 0x0 0x2 0x6a 0xcb
DEBUG   2025-09-02 11:30:13,151  pymodbus.logging:serial.py:271 Changing state to IDLE - Last Frame End - 1756783813.151892 Current Time stamp - 1756783813.151892
DEBUG   2025-09-02 11:30:13,151  pymodbus.logging:serial.py:279 Waiting for 3.5 char before next send - 1.823 ms
DEBUG   2025-09-02 11:30:13,155  pymodbus.logging:base.py:250 New Transaction state "SENDING"
DEBUG   2025-09-02 11:30:13,155  pymodbus.logging:transaction.py:317 Changing transaction state from "SENDING" to "WAITING FOR REPLY"
DEBUG   2025-09-02 11:30:13,182  pymodbus.logging:transaction.py:419 Changing transaction state from "WAITING FOR REPLY" to "PROCESSING REPLY"
DEBUG   2025-09-02 11:30:13,182  pymodbus.logging:transaction.py:324 RECV: 0x1 0x3 0x4 0x3e 0xf2 0xed 0x70 0x1a 0x9c
DEBUG   2025-09-02 11:30:13,182  pymodbus.logging:base.py:92 Processing: 0x1 0x3 0x4 0x3e 0xf2 0xed 0x70 0x1a 0x9c
DEBUG   2025-09-02 11:30:13,182  pymodbus.logging:decoders.py:103 decode PDU for 3
DEBUG   2025-09-02 11:30:13,182  pymodbus.logging:base.py:102 Frame advanced, resetting header!!
DEBUG   2025-09-02 11:30:13,182  pymodbus.logging:transaction.py:67 Adding transaction 0
DEBUG   2025-09-02 11:30:13,182  pymodbus.logging:transaction.py:78 Getting transaction 0
DEBUG   2025-09-02 11:30:13,182  pymodbus.logging:transaction.py:258 Changing transaction state from "PROCESSING REPLY" to "TRANSACTION_COMPLETE"
INFO    2025-09-02 11:30:13,182  root:modbus_rtu_tcp.py:44 read_measurement ret is:ReadHoldingRegistersResponse (2)
INFO    2025-09-02 11:30:13,182  root:acudc260_modbus_get.py:145 read i1_current ret is:[16114, 60784]
DEBUG   2025-09-02 11:30:13,182  pymodbus.logging:transaction.py:184 Current transaction state - TRANSACTION_COMPLETE
DEBUG   2025-09-02 11:30:13,182  pymodbus.logging:transaction.py:193 Running transaction 0
DEBUG   2025-09-02 11:30:13,182  pymodbus.logging:transaction.py:293 SEND: 0x1 0x3 0x30 0x4 0x0 0x2 0x8a 0xca
DEBUG   2025-09-02 11:30:13,182  pymodbus.logging:serial.py:271 Changing state to IDLE - Last Frame End - 1756783813.182529 Current Time stamp - 1756783813.182529
DEBUG   2025-09-02 11:30:13,183  pymodbus.logging:serial.py:279 Waiting for 3.5 char before next send - 1.823 ms
DEBUG   2025-09-02 11:30:13,185  pymodbus.logging:base.py:250 New Transaction state "SENDING"
DEBUG   2025-09-02 11:30:13,185  pymodbus.logging:transaction.py:317 Changing transaction state from "SENDING" to "WAITING FOR REPLY"
DEBUG   2025-09-02 11:30:13,213  pymodbus.logging:transaction.py:419 Changing transaction state from "WAITING FOR REPLY" to "PROCESSING REPLY"
DEBUG   2025-09-02 11:30:13,213  pymodbus.logging:transaction.py:324 RECV: 0x1 0x3 0x4 0x3e 0xf7 0xa6 0x5d 0xfc 0x70
DEBUG   2025-09-02 11:30:13,213  pymodbus.logging:base.py:92 Processing: 0x1 0x3 0x4 0x3e 0xf7 0xa6 0x5d 0xfc 0x70
DEBUG   2025-09-02 11:30:13,213  pymodbus.logging:decoders.py:103 decode PDU for 3
DEBUG   2025-09-02 11:30:13,213  pymodbus.logging:base.py:102 Frame advanced, resetting header!!
DEBUG   2025-09-02 11:30:13,213  pymodbus.logging:transaction.py:67 Adding transaction 0
DEBUG   2025-09-02 11:30:13,213  pymodbus.logging:transaction.py:78 Getting transaction 0
DEBUG   2025-09-02 11:30:13,213  pymodbus.logging:transaction.py:258 Changing transaction state from "PROCESSING REPLY" to "TRANSACTION_COMPLETE"
INFO    2025-09-02 11:30:13,213  root:modbus_rtu_tcp.py:44 read_measurement ret is:ReadHoldingRegistersResponse (2)
INFO    2025-09-02 11:30:13,213  root:acudc260_modbus_get.py:159 read i2_current ret is:[16119, 42589]
DEBUG   2025-09-02 11:30:13,213  pymodbus.logging:transaction.py:184 Current transaction state - TRANSACTION_COMPLETE
DEBUG   2025-09-02 11:30:13,213  pymodbus.logging:transaction.py:193 Running transaction 0
DEBUG   2025-09-02 11:30:13,213  pymodbus.logging:transaction.py:293 SEND: 0x1 0x3 0x30 0x6 0x0 0x2 0x2b 0xa
DEBUG   2025-09-02 11:30:13,213  pymodbus.logging:serial.py:271 Changing state to IDLE - Last Frame End - 1756783813.213408 Current Time stamp - 1756783813.213408
DEBUG   2025-09-02 11:30:13,213  pymodbus.logging:serial.py:279 Waiting for 3.5 char before next send - 1.823 ms
DEBUG   2025-09-02 11:30:13,216  pymodbus.logging:base.py:250 New Transaction state "SENDING"
DEBUG   2025-09-02 11:30:13,216  pymodbus.logging:transaction.py:317 Changing transaction state from "SENDING" to "WAITING FOR REPLY"
DEBUG   2025-09-02 11:30:13,247  pymodbus.logging:transaction.py:419 Changing transaction state from "WAITING FOR REPLY" to "PROCESSING REPLY"
DEBUG   2025-09-02 11:30:13,247  pymodbus.logging:transaction.py:324 RECV: 0x1 0x3 0x4 0x3f 0x7a 0x17 0xbc 0xd9 0xbf
DEBUG   2025-09-02 11:30:13,247  pymodbus.logging:base.py:92 Processing: 0x1 0x3 0x4 0x3f 0x7a 0x17 0xbc 0xd9 0xbf
DEBUG   2025-09-02 11:30:13,247  pymodbus.logging:decoders.py:103 decode PDU for 3
DEBUG   2025-09-02 11:30:13,247  pymodbus.logging:base.py:102 Frame advanced, resetting header!!
DEBUG   2025-09-02 11:30:13,247  pymodbus.logging:transaction.py:67 Adding transaction 0
DEBUG   2025-09-02 11:30:13,247  pymodbus.logging:transaction.py:78 Getting transaction 0
DEBUG   2025-09-02 11:30:13,247  pymodbus.logging:transaction.py:258 Changing transaction state from "PROCESSING REPLY" to "TRANSACTION_COMPLETE"
INFO    2025-09-02 11:30:13,247  root:modbus_rtu_tcp.py:44 read_measurement ret is:ReadHoldingRegistersResponse (2)
INFO    2025-09-02 11:30:13,247  root:acudc260_modbus_get.py:173 read i_sum_current ret is:[16250, 6076]
DEBUG   2025-09-02 11:30:13,247  pymodbus.logging:transaction.py:184 Current transaction state - TRANSACTION_COMPLETE
DEBUG   2025-09-02 11:30:13,247  pymodbus.logging:transaction.py:193 Running transaction 0
DEBUG   2025-09-02 11:30:13,247  pymodbus.logging:transaction.py:293 SEND: 0x1 0x3 0x30 0x8 0x0 0x2 0x4a 0xc9
DEBUG   2025-09-02 11:30:13,247  pymodbus.logging:serial.py:271 Changing state to IDLE - Last Frame End - 1756783813.247042 Current Time stamp - 1756783813.247042
DEBUG   2025-09-02 11:30:13,247  pymodbus.logging:serial.py:279 Waiting for 3.5 char before next send - 1.823 ms
DEBUG   2025-09-02 11:30:13,249  pymodbus.logging:base.py:250 New Transaction state "SENDING"
DEBUG   2025-09-02 11:30:13,249  pymodbus.logging:transaction.py:317 Changing transaction state from "SENDING" to "WAITING FOR REPLY"
DEBUG   2025-09-02 11:30:13,280  pymodbus.logging:transaction.py:419 Changing transaction state from "WAITING FOR REPLY" to "PROCESSING REPLY"
DEBUG   2025-09-02 11:30:13,280  pymodbus.logging:transaction.py:324 RECV: 0x1 0x3 0x4 0x3c 0xf2 0x7e 0xeb 0x36 0x7f
DEBUG   2025-09-02 11:30:13,280  pymodbus.logging:base.py:92 Processing: 0x1 0x3 0x4 0x3c 0xf2 0x7e 0xeb 0x36 0x7f
DEBUG   2025-09-02 11:30:13,280  pymodbus.logging:decoders.py:103 decode PDU for 3
DEBUG   2025-09-02 11:30:13,280  pymodbus.logging:base.py:102 Frame advanced, resetting header!!
DEBUG   2025-09-02 11:30:13,280  pymodbus.logging:transaction.py:67 Adding transaction 0
DEBUG   2025-09-02 11:30:13,280  pymodbus.logging:transaction.py:78 Getting transaction 0
DEBUG   2025-09-02 11:30:13,280  pymodbus.logging:transaction.py:258 Changing transaction state from "PROCESSING REPLY" to "TRANSACTION_COMPLETE"
INFO    2025-09-02 11:30:13,280  root:modbus_rtu_tcp.py:44 read_measurement ret is:ReadHoldingRegistersResponse (2)
INFO    2025-09-02 11:30:13,280  root:acudc260_modbus_get.py:187 read p1_power ret is:[15602, 32491]
DEBUG   2025-09-02 11:30:13,280  pymodbus.logging:transaction.py:184 Current transaction state - TRANSACTION_COMPLETE
DEBUG   2025-09-02 11:30:13,280  pymodbus.logging:transaction.py:193 Running transaction 0
DEBUG   2025-09-02 11:30:13,280  pymodbus.logging:transaction.py:293 SEND: 0x1 0x3 0x30 0xa 0x0 0x2 0xeb 0x9
DEBUG   2025-09-02 11:30:13,280  pymodbus.logging:serial.py:271 Changing state to IDLE - Last Frame End - 1756783813.28006 Current Time stamp - 1756783813.28006
DEBUG   2025-09-02 11:30:13,280  pymodbus.logging:serial.py:279 Waiting for 3.5 char before next send - 1.823 ms
DEBUG   2025-09-02 11:30:13,282  pymodbus.logging:base.py:250 New Transaction state "SENDING"
DEBUG   2025-09-02 11:30:13,282  pymodbus.logging:transaction.py:317 Changing transaction state from "SENDING" to "WAITING FOR REPLY"
DEBUG   2025-09-02 11:30:13,310  pymodbus.logging:transaction.py:419 Changing transaction state from "WAITING FOR REPLY" to "PROCESSING REPLY"
DEBUG   2025-09-02 11:30:13,310  pymodbus.logging:transaction.py:324 RECV: 0x1 0x3 0x4 0x3c 0xe8 0x82 0x38 0x17 0x25
DEBUG   2025-09-02 11:30:13,310  pymodbus.logging:base.py:92 Processing: 0x1 0x3 0x4 0x3c 0xe8 0x82 0x38 0x17 0x25
DEBUG   2025-09-02 11:30:13,310  pymodbus.logging:decoders.py:103 decode PDU for 3
DEBUG   2025-09-02 11:30:13,310  pymodbus.logging:base.py:102 Frame advanced, resetting header!!
DEBUG   2025-09-02 11:30:13,310  pymodbus.logging:transaction.py:67 Adding transaction 0
DEBUG   2025-09-02 11:30:13,310  pymodbus.logging:transaction.py:78 Getting transaction 0
DEBUG   2025-09-02 11:30:13,310  pymodbus.logging:transaction.py:258 Changing transaction state from "PROCESSING REPLY" to "TRANSACTION_COMPLETE"
INFO    2025-09-02 11:30:13,310  root:modbus_rtu_tcp.py:44 read_measurement ret is:ReadHoldingRegistersResponse (2)
INFO    2025-09-02 11:30:13,310  root:acudc260_modbus_get.py:201 read p2_power ret is:[15592, 33336]
DEBUG   2025-09-02 11:30:13,310  pymodbus.logging:transaction.py:184 Current transaction state - TRANSACTION_COMPLETE
DEBUG   2025-09-02 11:30:13,310  pymodbus.logging:transaction.py:193 Running transaction 0
DEBUG   2025-09-02 11:30:13,310  pymodbus.logging:transaction.py:293 SEND: 0x1 0x3 0x30 0xc 0x0 0x2 0xb 0x8
DEBUG   2025-09-02 11:30:13,310  pymodbus.logging:serial.py:271 Changing state to IDLE - Last Frame End - 1756783813.31048 Current Time stamp - 1756783813.31048
DEBUG   2025-09-02 11:30:13,310  pymodbus.logging:serial.py:279 Waiting for 3.5 char before next send - 1.823 ms
DEBUG   2025-09-02 11:30:13,313  pymodbus.logging:base.py:250 New Transaction state "SENDING"
DEBUG   2025-09-02 11:30:13,313  pymodbus.logging:transaction.py:317 Changing transaction state from "SENDING" to "WAITING FOR REPLY"
DEBUG   2025-09-02 11:30:13,341  pymodbus.logging:transaction.py:419 Changing transaction state from "WAITING FOR REPLY" to "PROCESSING REPLY"
DEBUG   2025-09-02 11:30:13,341  pymodbus.logging:transaction.py:324 RECV: 0x1 0x3 0x4 0x3d 0x66 0x12 0x61 0xda 0xc8
DEBUG   2025-09-02 11:30:13,341  pymodbus.logging:base.py:92 Processing: 0x1 0x3 0x4 0x3d 0x66 0x12 0x61 0xda 0xc8
DEBUG   2025-09-02 11:30:13,341  pymodbus.logging:decoders.py:103 decode PDU for 3
DEBUG   2025-09-02 11:30:13,341  pymodbus.logging:base.py:102 Frame advanced, resetting header!!
DEBUG   2025-09-02 11:30:13,341  pymodbus.logging:transaction.py:67 Adding transaction 0
DEBUG   2025-09-02 11:30:13,341  pymodbus.logging:transaction.py:78 Getting transaction 0
DEBUG   2025-09-02 11:30:13,341  pymodbus.logging:transaction.py:258 Changing transaction state from "PROCESSING REPLY" to "TRANSACTION_COMPLETE"
INFO    2025-09-02 11:30:13,341  root:modbus_rtu_tcp.py:44 read_measurement ret is:ReadHoldingRegistersResponse (2)
INFO    2025-09-02 11:30:13,341  root:acudc260_modbus_get.py:215 read p_sum_power ret is:[15718, 4705]
DEBUG   2025-09-02 11:30:13,442  pymodbus.logging:transaction.py:184 Current transaction state - TRANSACTION_COMPLETE
DEBUG   2025-09-02 11:30:13,442  pymodbus.logging:transaction.py:193 Running transaction 0
DEBUG   2025-09-02 11:30:13,442  pymodbus.logging:transaction.py:293 SEND: 0x1 0x3 0x30 0x0 0x0 0x2 0xcb 0xb
DEBUG   2025-09-02 11:30:13,442  pymodbus.logging:serial.py:271 Changing state to IDLE - Last Frame End - 1756783813.341686 Current Time stamp - 1756783813.442772
DEBUG   2025-09-02 11:30:13,442  pymodbus.logging:base.py:250 New Transaction state "SENDING"
DEBUG   2025-09-02 11:30:13,442  pymodbus.logging:transaction.py:317 Changing transaction state from "SENDING" to "WAITING FOR REPLY"
DEBUG   2025-09-02 11:30:13,471  pymodbus.logging:transaction.py:419 Changing transaction state from "WAITING FOR REPLY" to "PROCESSING REPLY"
DEBUG   2025-09-02 11:30:13,471  pymodbus.logging:transaction.py:324 RECV: 0x1 0x3 0x4 0x42 0x6f 0xfa 0x53 0xdc 0xcb
DEBUG   2025-09-02 11:30:13,471  pymodbus.logging:base.py:92 Processing: 0x1 0x3 0x4 0x42 0x6f 0xfa 0x53 0xdc 0xcb
DEBUG   2025-09-02 11:30:13,471  pymodbus.logging:decoders.py:103 decode PDU for 3
DEBUG   2025-09-02 11:30:13,471  pymodbus.logging:base.py:102 Frame advanced, resetting header!!
DEBUG   2025-09-02 11:30:13,471  pymodbus.logging:transaction.py:67 Adding transaction 0
DEBUG   2025-09-02 11:30:13,471  pymodbus.logging:transaction.py:78 Getting transaction 0
DEBUG   2025-09-02 11:30:13,471  pymodbus.logging:transaction.py:258 Changing transaction state from "PROCESSING REPLY" to "TRANSACTION_COMPLETE"
INFO    2025-09-02 11:30:13,471  root:modbus_rtu_tcp.py:44 read_measurement ret is:ReadHoldingRegistersResponse (2)
INFO    2025-09-02 11:30:13,471  root:acudc260_modbus_get.py:131 read u_voltage ret is:[17007, 64083]
DEBUG   2025-09-02 11:30:13,471  pymodbus.logging:transaction.py:184 Current transaction state - TRANSACTION_COMPLETE
DEBUG   2025-09-02 11:30:13,471  pymodbus.logging:transaction.py:193 Running transaction 0
DEBUG   2025-09-02 11:30:13,471  pymodbus.logging:transaction.py:293 SEND: 0x1 0x3 0x30 0x2 0x0 0x2 0x6a 0xcb
DEBUG   2025-09-02 11:30:13,471  pymodbus.logging:serial.py:271 Changing state to IDLE - Last Frame End - 1756783813.471366 Current Time stamp - 1756783813.471366
DEBUG   2025-09-02 11:30:13,471  pymodbus.logging:serial.py:279 Waiting for 3.5 char before next send - 1.823 ms
DEBUG   2025-09-02 11:30:13,474  pymodbus.logging:base.py:250 New Transaction state "SENDING"
DEBUG   2025-09-02 11:30:13,474  pymodbus.logging:transaction.py:317 Changing transaction state from "SENDING" to "WAITING FOR REPLY"
DEBUG   2025-09-02 11:30:13,497  pymodbus.logging:transaction.py:419 Changing transaction state from "WAITING FOR REPLY" to "PROCESSING REPLY"
DEBUG   2025-09-02 11:30:13,497  pymodbus.logging:transaction.py:324 RECV: 0x1 0x3 0x4 0x3e 0xf3 0x53 0xda 0xba 0x83
DEBUG   2025-09-02 11:30:13,498  pymodbus.logging:base.py:92 Processing: 0x1 0x3 0x4 0x3e 0xf3 0x53 0xda 0xba 0x83
DEBUG   2025-09-02 11:30:13,498  pymodbus.logging:decoders.py:103 decode PDU for 3
DEBUG   2025-09-02 11:30:13,498  pymodbus.logging:base.py:102 Frame advanced, resetting header!!
DEBUG   2025-09-02 11:30:13,498  pymodbus.logging:transaction.py:67 Adding transaction 0
DEBUG   2025-09-02 11:30:13,498  pymodbus.logging:transaction.py:78 Getting transaction 0
DEBUG   2025-09-02 11:30:13,498  pymodbus.logging:transaction.py:258 Changing transaction state from "PROCESSING REPLY" to "TRANSACTION_COMPLETE"
INFO    2025-09-02 11:30:13,498  root:modbus_rtu_tcp.py:44 read_measurement ret is:ReadHoldingRegistersResponse (2)
INFO    2025-09-02 11:30:13,498  root:acudc260_modbus_get.py:145 read i1_current ret is:[16115, 21466]
DEBUG   2025-09-02 11:30:13,498  pymodbus.logging:transaction.py:184 Current transaction state - TRANSACTION_COMPLETE
DEBUG   2025-09-02 11:30:13,498  pymodbus.logging:transaction.py:193 Running transaction 0
DEBUG   2025-09-02 11:30:13,498  pymodbus.logging:transaction.py:293 SEND: 0x1 0x3 0x30 0x4 0x0 0x2 0x8a 0xca
DEBUG   2025-09-02 11:30:13,498  pymodbus.logging:serial.py:271 Changing state to IDLE - Last Frame End - 1756783813.497494 Current Time stamp - 1756783813.498751
DEBUG   2025-09-02 11:30:13,498  pymodbus.logging:serial.py:279 Waiting for 3.5 char before next send - 1.823 ms
DEBUG   2025-09-02 11:30:13,501  pymodbus.logging:base.py:250 New Transaction state "SENDING"
DEBUG   2025-09-02 11:30:13,501  pymodbus.logging:transaction.py:317 Changing transaction state from "SENDING" to "WAITING FOR REPLY"
DEBUG   2025-09-02 11:30:13,533  pymodbus.logging:transaction.py:419 Changing transaction state from "WAITING FOR REPLY" to "PROCESSING REPLY"
DEBUG   2025-09-02 11:30:13,533  pymodbus.logging:transaction.py:324 RECV: 0x1 0x3 0x4 0x3e 0xf2 0xfe 0x76 0x97 0xae
DEBUG   2025-09-02 11:30:13,533  pymodbus.logging:base.py:92 Processing: 0x1 0x3 0x4 0x3e 0xf2 0xfe 0x76 0x97 0xae
DEBUG   2025-09-02 11:30:13,533  pymodbus.logging:decoders.py:103 decode PDU for 3
DEBUG   2025-09-02 11:30:13,533  pymodbus.logging:base.py:102 Frame advanced, resetting header!!
DEBUG   2025-09-02 11:30:13,533  pymodbus.logging:transaction.py:67 Adding transaction 0
DEBUG   2025-09-02 11:30:13,533  pymodbus.logging:transaction.py:78 Getting transaction 0
DEBUG   2025-09-02 11:30:13,533  pymodbus.logging:transaction.py:258 Changing transaction state from "PROCESSING REPLY" to "TRANSACTION_COMPLETE"
INFO    2025-09-02 11:30:13,533  root:modbus_rtu_tcp.py:44 read_measurement ret is:ReadHoldingRegistersResponse (2)
INFO    2025-09-02 11:30:13,533  root:acudc260_modbus_get.py:159 read i2_current ret is:[16114, 65142]
DEBUG   2025-09-02 11:30:13,533  pymodbus.logging:transaction.py:184 Current transaction state - TRANSACTION_COMPLETE
DEBUG   2025-09-02 11:30:13,533  pymodbus.logging:transaction.py:193 Running transaction 0
DEBUG   2025-09-02 11:30:13,533  pymodbus.logging:transaction.py:293 SEND: 0x1 0x3 0x30 0x6 0x0 0x2 0x2b 0xa
DEBUG   2025-09-02 11:30:13,533  pymodbus.logging:serial.py:271 Changing state to IDLE - Last Frame End - 1756783813.53371 Current Time stamp - 1756783813.53371
DEBUG   2025-09-02 11:30:13,533  pymodbus.logging:serial.py:279 Waiting for 3.5 char before next send - 1.823 ms
DEBUG   2025-09-02 11:30:13,537  pymodbus.logging:base.py:250 New Transaction state "SENDING"
DEBUG   2025-09-02 11:30:13,537  pymodbus.logging:transaction.py:317 Changing transaction state from "SENDING" to "WAITING FOR REPLY"
DEBUG   2025-09-02 11:30:13,566  pymodbus.logging:transaction.py:419 Changing transaction state from "WAITING FOR REPLY" to "PROCESSING REPLY"
DEBUG   2025-09-02 11:30:13,566  pymodbus.logging:transaction.py:324 RECV: 0x1 0x3 0x4 0x3f 0x73 0x29 0x28 0x18 0x72
DEBUG   2025-09-02 11:30:13,566  pymodbus.logging:base.py:92 Processing: 0x1 0x3 0x4 0x3f 0x73 0x29 0x28 0x18 0x72
DEBUG   2025-09-02 11:30:13,566  pymodbus.logging:decoders.py:103 decode PDU for 3
DEBUG   2025-09-02 11:30:13,566  pymodbus.logging:base.py:102 Frame advanced, resetting header!!
DEBUG   2025-09-02 11:30:13,567  pymodbus.logging:transaction.py:67 Adding transaction 0
DEBUG   2025-09-02 11:30:13,567  pymodbus.logging:transaction.py:78 Getting transaction 0
DEBUG   2025-09-02 11:30:13,567  pymodbus.logging:transaction.py:258 Changing transaction state from "PROCESSING REPLY" to "TRANSACTION_COMPLETE"
INFO    2025-09-02 11:30:13,567  root:modbus_rtu_tcp.py:44 read_measurement ret is:ReadHoldingRegistersResponse (2)
INFO    2025-09-02 11:30:13,567  root:acudc260_modbus_get.py:173 read i_sum_current ret is:[16243, 10536]
DEBUG   2025-09-02 11:30:13,567  pymodbus.logging:transaction.py:184 Current transaction state - TRANSACTION_COMPLETE
DEBUG   2025-09-02 11:30:13,567  pymodbus.logging:transaction.py:193 Running transaction 0
DEBUG   2025-09-02 11:30:13,567  pymodbus.logging:transaction.py:293 SEND: 0x1 0x3 0x30 0x8 0x0 0x2 0x4a 0xc9
DEBUG   2025-09-02 11:30:13,567  pymodbus.logging:serial.py:271 Changing state to IDLE - Last Frame End - 1756783813.566689 Current Time stamp - 1756783813.567211
DEBUG   2025-09-02 11:30:13,567  pymodbus.logging:serial.py:279 Waiting for 3.5 char before next send - 1.823 ms
DEBUG   2025-09-02 11:30:13,569  pymodbus.logging:base.py:250 New Transaction state "SENDING"
DEBUG   2025-09-02 11:30:13,570  pymodbus.logging:transaction.py:317 Changing transaction state from "SENDING" to "WAITING FOR REPLY"
DEBUG   2025-09-02 11:30:13,598  pymodbus.logging:transaction.py:419 Changing transaction state from "WAITING FOR REPLY" to "PROCESSING REPLY"
DEBUG   2025-09-02 11:30:13,598  pymodbus.logging:transaction.py:324 RECV: 0x1 0x3 0x4 0x3c 0xed 0x20 0x76 0xfe 0x70
DEBUG   2025-09-02 11:30:13,598  pymodbus.logging:base.py:92 Processing: 0x1 0x3 0x4 0x3c 0xed 0x20 0x76 0xfe 0x70
DEBUG   2025-09-02 11:30:13,598  pymodbus.logging:decoders.py:103 decode PDU for 3
DEBUG   2025-09-02 11:30:13,598  pymodbus.logging:base.py:102 Frame advanced, resetting header!!
DEBUG   2025-09-02 11:30:13,598  pymodbus.logging:transaction.py:67 Adding transaction 0
DEBUG   2025-09-02 11:30:13,598  pymodbus.logging:transaction.py:78 Getting transaction 0
DEBUG   2025-09-02 11:30:13,598  pymodbus.logging:transaction.py:258 Changing transaction state from "PROCESSING REPLY" to "TRANSACTION_COMPLETE"
INFO    2025-09-02 11:30:13,598  root:modbus_rtu_tcp.py:44 read_measurement ret is:ReadHoldingRegistersResponse (2)
INFO    2025-09-02 11:30:13,598  root:acudc260_modbus_get.py:187 read p1_power ret is:[15597, 8310]
DEBUG   2025-09-02 11:30:13,598  pymodbus.logging:transaction.py:184 Current transaction state - TRANSACTION_COMPLETE
DEBUG   2025-09-02 11:30:13,598  pymodbus.logging:transaction.py:193 Running transaction 0
DEBUG   2025-09-02 11:30:13,598  pymodbus.logging:transaction.py:293 SEND: 0x1 0x3 0x30 0xa 0x0 0x2 0xeb 0x9
DEBUG   2025-09-02 11:30:13,598  pymodbus.logging:serial.py:271 Changing state to IDLE - Last Frame End - 1756783813.59892 Current Time stamp - 1756783813.59892
DEBUG   2025-09-02 11:30:13,598  pymodbus.logging:serial.py:279 Waiting for 3.5 char before next send - 1.823 ms
DEBUG   2025-09-02 11:30:13,602  pymodbus.logging:base.py:250 New Transaction state "SENDING"
DEBUG   2025-09-02 11:30:13,602  pymodbus.logging:transaction.py:317 Changing transaction state from "SENDING" to "WAITING FOR REPLY"
DEBUG   2025-09-02 11:30:13,630  pymodbus.logging:transaction.py:419 Changing transaction state from "WAITING FOR REPLY" to "PROCESSING REPLY"
DEBUG   2025-09-02 11:30:13,630  pymodbus.logging:transaction.py:324 RECV: 0x1 0x3 0x4 0x3c 0xea 0x1d 0x51 0x1f 0x3b
DEBUG   2025-09-02 11:30:13,630  pymodbus.logging:base.py:92 Processing: 0x1 0x3 0x4 0x3c 0xea 0x1d 0x51 0x1f 0x3b
DEBUG   2025-09-02 11:30:13,630  pymodbus.logging:decoders.py:103 decode PDU for 3
DEBUG   2025-09-02 11:30:13,630  pymodbus.logging:base.py:102 Frame advanced, resetting header!!
DEBUG   2025-09-02 11:30:13,630  pymodbus.logging:transaction.py:67 Adding transaction 0
DEBUG   2025-09-02 11:30:13,630  pymodbus.logging:transaction.py:78 Getting transaction 0
DEBUG   2025-09-02 11:30:13,630  pymodbus.logging:transaction.py:258 Changing transaction state from "PROCESSING REPLY" to "TRANSACTION_COMPLETE"
INFO    2025-09-02 11:30:13,630  root:modbus_rtu_tcp.py:44 read_measurement ret is:ReadHoldingRegistersResponse (2)
INFO    2025-09-02 11:30:13,630  root:acudc260_modbus_get.py:201 read p2_power ret is:[15594, 7505]
DEBUG   2025-09-02 11:30:13,630  pymodbus.logging:transaction.py:184 Current transaction state - TRANSACTION_COMPLETE
DEBUG   2025-09-02 11:30:13,630  pymodbus.logging:transaction.py:193 Running transaction 0
DEBUG   2025-09-02 11:30:13,630  pymodbus.logging:transaction.py:293 SEND: 0x1 0x3 0x30 0xc 0x0 0x2 0xb 0x8
DEBUG   2025-09-02 11:30:13,631  pymodbus.logging:serial.py:271 Changing state to IDLE - Last Frame End - 1756783813.630674 Current Time stamp - 1756783813.631781
DEBUG   2025-09-02 11:30:13,631  pymodbus.logging:serial.py:279 Waiting for 3.5 char before next send - 1.823 ms
DEBUG   2025-09-02 11:30:13,633  pymodbus.logging:base.py:250 New Transaction state "SENDING"
DEBUG   2025-09-02 11:30:13,633  pymodbus.logging:transaction.py:317 Changing transaction state from "SENDING" to "WAITING FOR REPLY"
DEBUG   2025-09-02 11:30:13,663  pymodbus.logging:transaction.py:419 Changing transaction state from "WAITING FOR REPLY" to "PROCESSING REPLY"
DEBUG   2025-09-02 11:30:13,663  pymodbus.logging:transaction.py:324 RECV: 0x1 0x3 0x4 0x3d 0x6b 0x9e 0xe4 0xee 0x68
DEBUG   2025-09-02 11:30:13,663  pymodbus.logging:base.py:92 Processing: 0x1 0x3 0x4 0x3d 0x6b 0x9e 0xe4 0xee 0x68
DEBUG   2025-09-02 11:30:13,663  pymodbus.logging:decoders.py:103 decode PDU for 3
DEBUG   2025-09-02 11:30:13,663  pymodbus.logging:base.py:102 Frame advanced, resetting header!!
DEBUG   2025-09-02 11:30:13,663  pymodbus.logging:transaction.py:67 Adding transaction 0
DEBUG   2025-09-02 11:30:13,663  pymodbus.logging:transaction.py:78 Getting transaction 0
DEBUG   2025-09-02 11:30:13,663  pymodbus.logging:transaction.py:258 Changing transaction state from "PROCESSING REPLY" to "TRANSACTION_COMPLETE"
INFO    2025-09-02 11:30:13,663  root:modbus_rtu_tcp.py:44 read_measurement ret is:ReadHoldingRegistersResponse (2)
INFO    2025-09-02 11:30:13,663  root:acudc260_modbus_get.py:215 read p_sum_power ret is:[15723, 40676]
DEBUG   2025-09-02 11:30:13,764  pymodbus.logging:transaction.py:184 Current transaction state - TRANSACTION_COMPLETE
DEBUG   2025-09-02 11:30:13,764  pymodbus.logging:transaction.py:193 Running transaction 0
DEBUG   2025-09-02 11:30:13,764  pymodbus.logging:transaction.py:293 SEND: 0x1 0x3 0x30 0x0 0x0 0x2 0xcb 0xb
DEBUG   2025-09-02 11:30:13,764  pymodbus.logging:serial.py:271 Changing state to IDLE - Last Frame End - 1756783813.663295 Current Time stamp - 1756783813.764284
DEBUG   2025-09-02 11:30:13,764  pymodbus.logging:base.py:250 New Transaction state "SENDING"
DEBUG   2025-09-02 11:30:13,764  pymodbus.logging:transaction.py:317 Changing transaction state from "SENDING" to "WAITING FOR REPLY"
DEBUG   2025-09-02 11:30:13,790  pymodbus.logging:transaction.py:419 Changing transaction state from "WAITING FOR REPLY" to "PROCESSING REPLY"
DEBUG   2025-09-02 11:30:13,790  pymodbus.logging:transaction.py:324 RECV: 0x1 0x3 0x4 0x42 0x6f 0xf7 0xd1 0x58 0x3a
DEBUG   2025-09-02 11:30:13,790  pymodbus.logging:base.py:92 Processing: 0x1 0x3 0x4 0x42 0x6f 0xf7 0xd1 0x58 0x3a
DEBUG   2025-09-02 11:30:13,790  pymodbus.logging:decoders.py:103 decode PDU for 3
DEBUG   2025-09-02 11:30:13,790  pymodbus.logging:base.py:102 Frame advanced, resetting header!!
DEBUG   2025-09-02 11:30:13,790  pymodbus.logging:transaction.py:67 Adding transaction 0
DEBUG   2025-09-02 11:30:13,790  pymodbus.logging:transaction.py:78 Getting transaction 0
DEBUG   2025-09-02 11:30:13,790  pymodbus.logging:transaction.py:258 Changing transaction state from "PROCESSING REPLY" to "TRANSACTION_COMPLETE"
INFO    2025-09-02 11:30:13,790  root:modbus_rtu_tcp.py:44 read_measurement ret is:ReadHoldingRegistersResponse (2)
INFO    2025-09-02 11:30:13,790  root:acudc260_modbus_get.py:131 read u_voltage ret is:[17007, 63441]
DEBUG   2025-09-02 11:30:13,790  pymodbus.logging:transaction.py:184 Current transaction state - TRANSACTION_COMPLETE
DEBUG   2025-09-02 11:30:13,790  pymodbus.logging:transaction.py:193 Running transaction 0
DEBUG   2025-09-02 11:30:13,790  pymodbus.logging:transaction.py:293 SEND: 0x1 0x3 0x30 0x2 0x0 0x2 0x6a 0xcb
DEBUG   2025-09-02 11:30:13,790  pymodbus.logging:serial.py:271 Changing state to IDLE - Last Frame End - 1756783813.790269 Current Time stamp - 1756783813.790269
DEBUG   2025-09-02 11:30:13,790  pymodbus.logging:serial.py:279 Waiting for 3.5 char before next send - 1.823 ms
DEBUG   2025-09-02 11:30:13,793  pymodbus.logging:base.py:250 New Transaction state "SENDING"
DEBUG   2025-09-02 11:30:13,793  pymodbus.logging:transaction.py:317 Changing transaction state from "SENDING" to "WAITING FOR REPLY"
DEBUG   2025-09-02 11:30:13,817  pymodbus.logging:transaction.py:419 Changing transaction state from "WAITING FOR REPLY" to "PROCESSING REPLY"
DEBUG   2025-09-02 11:30:13,817  pymodbus.logging:transaction.py:324 RECV: 0x1 0x3 0x4 0x3e 0xf8 0xcd 0xb6 0xa3 0xc
DEBUG   2025-09-02 11:30:13,817  pymodbus.logging:base.py:92 Processing: 0x1 0x3 0x4 0x3e 0xf8 0xcd 0xb6 0xa3 0xc
DEBUG   2025-09-02 11:30:13,817  pymodbus.logging:decoders.py:103 decode PDU for 3
DEBUG   2025-09-02 11:30:13,817  pymodbus.logging:base.py:102 Frame advanced, resetting header!!
DEBUG   2025-09-02 11:30:13,817  pymodbus.logging:transaction.py:67 Adding transaction 0
DEBUG   2025-09-02 11:30:13,818  pymodbus.logging:transaction.py:78 Getting transaction 0
DEBUG   2025-09-02 11:30:13,818  pymodbus.logging:transaction.py:258 Changing transaction state from "PROCESSING REPLY" to "TRANSACTION_COMPLETE"
INFO    2025-09-02 11:30:13,818  root:modbus_rtu_tcp.py:44 read_measurement ret is:ReadHoldingRegistersResponse (2)
INFO    2025-09-02 11:30:13,818  root:acudc260_modbus_get.py:145 read i1_current ret is:[16120, 52662]
DEBUG   2025-09-02 11:30:13,818  pymodbus.logging:transaction.py:184 Current transaction state - TRANSACTION_COMPLETE
DEBUG   2025-09-02 11:30:13,818  pymodbus.logging:transaction.py:193 Running transaction 0
DEBUG   2025-09-02 11:30:13,818  pymodbus.logging:transaction.py:293 SEND: 0x1 0x3 0x30 0x4 0x0 0x2 0x8a 0xca
DEBUG   2025-09-02 11:30:13,818  pymodbus.logging:serial.py:271 Changing state to IDLE - Last Frame End - 1756783813.817942 Current Time stamp - 1756783813.818956
DEBUG   2025-09-02 11:30:13,818  pymodbus.logging:serial.py:279 Waiting for 3.5 char before next send - 1.823 ms
DEBUG   2025-09-02 11:30:13,821  pymodbus.logging:base.py:250 New Transaction state "SENDING"
DEBUG   2025-09-02 11:30:13,821  pymodbus.logging:transaction.py:317 Changing transaction state from "SENDING" to "WAITING FOR REPLY"
DEBUG   2025-09-02 11:30:13,853  pymodbus.logging:transaction.py:419 Changing transaction state from "WAITING FOR REPLY" to "PROCESSING REPLY"
DEBUG   2025-09-02 11:30:13,853  pymodbus.logging:transaction.py:324 RECV: 0x1 0x3 0x4 0x3e 0xfe 0x73 0x73 0xf2 0xfe
DEBUG   2025-09-02 11:30:13,853  pymodbus.logging:base.py:92 Processing: 0x1 0x3 0x4 0x3e 0xfe 0x73 0x73 0xf2 0xfe
DEBUG   2025-09-02 11:30:13,853  pymodbus.logging:decoders.py:103 decode PDU for 3
DEBUG   2025-09-02 11:30:13,853  pymodbus.logging:base.py:102 Frame advanced, resetting header!!
DEBUG   2025-09-02 11:30:13,853  pymodbus.logging:transaction.py:67 Adding transaction 0
DEBUG   2025-09-02 11:30:13,853  pymodbus.logging:transaction.py:78 Getting transaction 0
DEBUG   2025-09-02 11:30:13,854  pymodbus.logging:transaction.py:258 Changing transaction state from "PROCESSING REPLY" to "TRANSACTION_COMPLETE"
INFO    2025-09-02 11:30:13,854  root:modbus_rtu_tcp.py:44 read_measurement ret is:ReadHoldingRegistersResponse (2)
INFO    2025-09-02 11:30:13,854  root:acudc260_modbus_get.py:159 read i2_current ret is:[16126, 29555]
DEBUG   2025-09-02 11:30:13,854  pymodbus.logging:transaction.py:184 Current transaction state - TRANSACTION_COMPLETE
DEBUG   2025-09-02 11:30:13,854  pymodbus.logging:transaction.py:193 Running transaction 0
DEBUG   2025-09-02 11:30:13,854  pymodbus.logging:transaction.py:293 SEND: 0x1 0x3 0x30 0x6 0x0 0x2 0x2b 0xa
DEBUG   2025-09-02 11:30:13,854  pymodbus.logging:serial.py:271 Changing state to IDLE - Last Frame End - 1756783813.853586 Current Time stamp - 1756783813.8547
DEBUG   2025-09-02 11:30:13,854  pymodbus.logging:serial.py:279 Waiting for 3.5 char before next send - 1.823 ms
DEBUG   2025-09-02 11:30:13,857  pymodbus.logging:base.py:250 New Transaction state "SENDING"
DEBUG   2025-09-02 11:30:13,857  pymodbus.logging:transaction.py:317 Changing transaction state from "SENDING" to "WAITING FOR REPLY"
DEBUG   2025-09-02 11:30:13,886  pymodbus.logging:transaction.py:419 Changing transaction state from "WAITING FOR REPLY" to "PROCESSING REPLY"
DEBUG   2025-09-02 11:30:13,886  pymodbus.logging:transaction.py:324 RECV: 0x1 0x3 0x4 0x3f 0x7b 0xa0 0x94 0xff 0x91
DEBUG   2025-09-02 11:30:13,886  pymodbus.logging:base.py:92 Processing: 0x1 0x3 0x4 0x3f 0x7b 0xa0 0x94 0xff 0x91
DEBUG   2025-09-02 11:30:13,886  pymodbus.logging:decoders.py:103 decode PDU for 3
DEBUG   2025-09-02 11:30:13,886  pymodbus.logging:base.py:102 Frame advanced, resetting header!!
DEBUG   2025-09-02 11:30:13,886  pymodbus.logging:transaction.py:67 Adding transaction 0
DEBUG   2025-09-02 11:30:13,886  pymodbus.logging:transaction.py:78 Getting transaction 0
DEBUG   2025-09-02 11:30:13,886  pymodbus.logging:transaction.py:258 Changing transaction state from "PROCESSING REPLY" to "TRANSACTION_COMPLETE"
INFO    2025-09-02 11:30:13,886  root:modbus_rtu_tcp.py:44 read_measurement ret is:ReadHoldingRegistersResponse (2)
INFO    2025-09-02 11:30:13,886  root:acudc260_modbus_get.py:173 read i_sum_current ret is:[16251, 41108]
DEBUG   2025-09-02 11:30:13,886  pymodbus.logging:transaction.py:184 Current transaction state - TRANSACTION_COMPLETE
DEBUG   2025-09-02 11:30:13,886  pymodbus.logging:transaction.py:193 Running transaction 0
DEBUG   2025-09-02 11:30:13,886  pymodbus.logging:transaction.py:293 SEND: 0x1 0x3 0x30 0x8 0x0 0x2 0x4a 0xc9
DEBUG   2025-09-02 11:30:13,886  pymodbus.logging:serial.py:271 Changing state to IDLE - Last Frame End - 1756783813.88635 Current Time stamp - 1756783813.88635
DEBUG   2025-09-02 11:30:13,886  pymodbus.logging:serial.py:279 Waiting for 3.5 char before next send - 1.823 ms
DEBUG   2025-09-02 11:30:13,889  pymodbus.logging:base.py:250 New Transaction state "SENDING"
DEBUG   2025-09-02 11:30:13,889  pymodbus.logging:transaction.py:317 Changing transaction state from "SENDING" to "WAITING FOR REPLY"
DEBUG   2025-09-02 11:30:13,917  pymodbus.logging:transaction.py:419 Changing transaction state from "WAITING FOR REPLY" to "PROCESSING REPLY"
DEBUG   2025-09-02 11:30:13,917  pymodbus.logging:transaction.py:324 RECV: 0x1 0x3 0x4 0x3c 0xe7 0xe0 0x9b 0x4e 0x3f
DEBUG   2025-09-02 11:30:13,917  pymodbus.logging:base.py:92 Processing: 0x1 0x3 0x4 0x3c 0xe7 0xe0 0x9b 0x4e 0x3f
DEBUG   2025-09-02 11:30:13,918  pymodbus.logging:decoders.py:103 decode PDU for 3
DEBUG   2025-09-02 11:30:13,918  pymodbus.logging:base.py:102 Frame advanced, resetting header!!
DEBUG   2025-09-02 11:30:13,918  pymodbus.logging:transaction.py:67 Adding transaction 0
DEBUG   2025-09-02 11:30:13,918  pymodbus.logging:transaction.py:78 Getting transaction 0
DEBUG   2025-09-02 11:30:13,918  pymodbus.logging:transaction.py:258 Changing transaction state from "PROCESSING REPLY" to "TRANSACTION_COMPLETE"
INFO    2025-09-02 11:30:13,918  root:modbus_rtu_tcp.py:44 read_measurement ret is:ReadHoldingRegistersResponse (2)
INFO    2025-09-02 11:30:13,918  root:acudc260_modbus_get.py:187 read p1_power ret is:[15591, 57499]
DEBUG   2025-09-02 11:30:13,918  pymodbus.logging:transaction.py:184 Current transaction state - TRANSACTION_COMPLETE
DEBUG   2025-09-02 11:30:13,918  pymodbus.logging:transaction.py:193 Running transaction 0
DEBUG   2025-09-02 11:30:13,918  pymodbus.logging:transaction.py:293 SEND: 0x1 0x3 0x30 0xa 0x0 0x2 0xeb 0x9
DEBUG   2025-09-02 11:30:13,918  pymodbus.logging:serial.py:271 Changing state to IDLE - Last Frame End - 1756783813.917621 Current Time stamp - 1756783813.918131
DEBUG   2025-09-02 11:30:13,918  pymodbus.logging:serial.py:279 Waiting for 3.5 char before next send - 1.823 ms
DEBUG   2025-09-02 11:30:13,921  pymodbus.logging:base.py:250 New Transaction state "SENDING"
DEBUG   2025-09-02 11:30:13,921  pymodbus.logging:transaction.py:317 Changing transaction state from "SENDING" to "WAITING FOR REPLY"
DEBUG   2025-09-02 11:30:13,949  pymodbus.logging:transaction.py:419 Changing transaction state from "WAITING FOR REPLY" to "PROCESSING REPLY"
DEBUG   2025-09-02 11:30:13,949  pymodbus.logging:transaction.py:324 RECV: 0x1 0x3 0x4 0x3c 0xe6 0x52 0xcc 0x2a 0xa1
DEBUG   2025-09-02 11:30:13,949  pymodbus.logging:base.py:92 Processing: 0x1 0x3 0x4 0x3c 0xe6 0x52 0xcc 0x2a 0xa1
DEBUG   2025-09-02 11:30:13,949  pymodbus.logging:decoders.py:103 decode PDU for 3
DEBUG   2025-09-02 11:30:13,949  pymodbus.logging:base.py:102 Frame advanced, resetting header!!
DEBUG   2025-09-02 11:30:13,949  pymodbus.logging:transaction.py:67 Adding transaction 0
DEBUG   2025-09-02 11:30:13,949  pymodbus.logging:transaction.py:78 Getting transaction 0
DEBUG   2025-09-02 11:30:13,949  pymodbus.logging:transaction.py:258 Changing transaction state from "PROCESSING REPLY" to "TRANSACTION_COMPLETE"
INFO    2025-09-02 11:30:13,949  root:modbus_rtu_tcp.py:44 read_measurement ret is:ReadHoldingRegistersResponse (2)
INFO    2025-09-02 11:30:13,949  root:acudc260_modbus_get.py:201 read p2_power ret is:[15590, 21196]
DEBUG   2025-09-02 11:30:13,949  pymodbus.logging:transaction.py:184 Current transaction state - TRANSACTION_COMPLETE
DEBUG   2025-09-02 11:30:13,949  pymodbus.logging:transaction.py:193 Running transaction 0
DEBUG   2025-09-02 11:30:13,949  pymodbus.logging:transaction.py:293 SEND: 0x1 0x3 0x30 0xc 0x0 0x2 0xb 0x8
DEBUG   2025-09-02 11:30:13,949  pymodbus.logging:serial.py:271 Changing state to IDLE - Last Frame End - 1756783813.949344 Current Time stamp - 1756783813.949344
DEBUG   2025-09-02 11:30:13,949  pymodbus.logging:serial.py:279 Waiting for 3.5 char before next send - 1.823 ms
DEBUG   2025-09-02 11:30:13,952  pymodbus.logging:base.py:250 New Transaction state "SENDING"
DEBUG   2025-09-02 11:30:13,952  pymodbus.logging:transaction.py:317 Changing transaction state from "SENDING" to "WAITING FOR REPLY"
DEBUG   2025-09-02 11:30:13,981  pymodbus.logging:transaction.py:419 Changing transaction state from "WAITING FOR REPLY" to "PROCESSING REPLY"
DEBUG   2025-09-02 11:30:13,981  pymodbus.logging:transaction.py:324 RECV: 0x1 0x3 0x4 0x3d 0x67 0x19 0xb3 0xc 0x65
DEBUG   2025-09-02 11:30:13,981  pymodbus.logging:base.py:92 Processing: 0x1 0x3 0x4 0x3d 0x67 0x19 0xb3 0xc 0x65
DEBUG   2025-09-02 11:30:13,981  pymodbus.logging:decoders.py:103 decode PDU for 3
DEBUG   2025-09-02 11:30:13,981  pymodbus.logging:base.py:102 Frame advanced, resetting header!!
DEBUG   2025-09-02 11:30:13,981  pymodbus.logging:transaction.py:67 Adding transaction 0
DEBUG   2025-09-02 11:30:13,981  pymodbus.logging:transaction.py:78 Getting transaction 0
DEBUG   2025-09-02 11:30:13,981  pymodbus.logging:transaction.py:258 Changing transaction state from "PROCESSING REPLY" to "TRANSACTION_COMPLETE"
INFO    2025-09-02 11:30:13,981  root:modbus_rtu_tcp.py:44 read_measurement ret is:ReadHoldingRegistersResponse (2)
INFO    2025-09-02 11:30:13,981  root:acudc260_modbus_get.py:215 read p_sum_power ret is:[15719, 6579]
DEBUG   2025-09-02 11:30:14,082  pymodbus.logging:transaction.py:184 Current transaction state - TRANSACTION_COMPLETE
DEBUG   2025-09-02 11:30:14,082  pymodbus.logging:transaction.py:193 Running transaction 0
DEBUG   2025-09-02 11:30:14,082  pymodbus.logging:transaction.py:293 SEND: 0x1 0x3 0x30 0x0 0x0 0x2 0xcb 0xb
DEBUG   2025-09-02 11:30:14,082  pymodbus.logging:serial.py:271 Changing state to IDLE - Last Frame End - 1756783813.981617 Current Time stamp - 1756783814.082688
DEBUG   2025-09-02 11:30:14,082  pymodbus.logging:base.py:250 New Transaction state "SENDING"
DEBUG   2025-09-02 11:30:14,083  pymodbus.logging:transaction.py:317 Changing transaction state from "SENDING" to "WAITING FOR REPLY"
DEBUG   2025-09-02 11:30:14,109  pymodbus.logging:transaction.py:419 Changing transaction state from "WAITING FOR REPLY" to "PROCESSING REPLY"
DEBUG   2025-09-02 11:30:14,109  pymodbus.logging:transaction.py:324 RECV: 0x1 0x3 0x4 0x42 0x6f 0xf5 0xa4 0x98 0xbd
DEBUG   2025-09-02 11:30:14,109  pymodbus.logging:base.py:92 Processing: 0x1 0x3 0x4 0x42 0x6f 0xf5 0xa4 0x98 0xbd
DEBUG   2025-09-02 11:30:14,109  pymodbus.logging:decoders.py:103 decode PDU for 3
DEBUG   2025-09-02 11:30:14,109  pymodbus.logging:base.py:102 Frame advanced, resetting header!!
DEBUG   2025-09-02 11:30:14,109  pymodbus.logging:transaction.py:67 Adding transaction 0
DEBUG   2025-09-02 11:30:14,109  pymodbus.logging:transaction.py:78 Getting transaction 0
DEBUG   2025-09-02 11:30:14,109  pymodbus.logging:transaction.py:258 Changing transaction state from "PROCESSING REPLY" to "TRANSACTION_COMPLETE"
INFO    2025-09-02 11:30:14,109  root:modbus_rtu_tcp.py:44 read_measurement ret is:ReadHoldingRegistersResponse (2)
INFO    2025-09-02 11:30:14,109  root:acudc260_modbus_get.py:131 read u_voltage ret is:[17007, 62884]
DEBUG   2025-09-02 11:30:14,109  pymodbus.logging:transaction.py:184 Current transaction state - TRANSACTION_COMPLETE
DEBUG   2025-09-02 11:30:14,109  pymodbus.logging:transaction.py:193 Running transaction 0
DEBUG   2025-09-02 11:30:14,109  pymodbus.logging:transaction.py:293 SEND: 0x1 0x3 0x30 0x2 0x0 0x2 0x6a 0xcb
DEBUG   2025-09-02 11:30:14,109  pymodbus.logging:serial.py:271 Changing state to IDLE - Last Frame End - 1756783814.109518 Current Time stamp - 1756783814.109518
DEBUG   2025-09-02 11:30:14,109  pymodbus.logging:serial.py:279 Waiting for 3.5 char before next send - 1.823 ms
DEBUG   2025-09-02 11:30:14,112  pymodbus.logging:base.py:250 New Transaction state "SENDING"
DEBUG   2025-09-02 11:30:14,112  pymodbus.logging:transaction.py:317 Changing transaction state from "SENDING" to "WAITING FOR REPLY"
DEBUG   2025-09-02 11:30:14,137  pymodbus.logging:transaction.py:419 Changing transaction state from "WAITING FOR REPLY" to "PROCESSING REPLY"
DEBUG   2025-09-02 11:30:14,137  pymodbus.logging:transaction.py:324 RECV: 0x1 0x3 0x4 0x3e 0xf7 0x90 0xfd 0xeb 0xa8
DEBUG   2025-09-02 11:30:14,137  pymodbus.logging:base.py:92 Processing: 0x1 0x3 0x4 0x3e 0xf7 0x90 0xfd 0xeb 0xa8
DEBUG   2025-09-02 11:30:14,137  pymodbus.logging:decoders.py:103 decode PDU for 3
DEBUG   2025-09-02 11:30:14,137  pymodbus.logging:base.py:102 Frame advanced, resetting header!!
DEBUG   2025-09-02 11:30:14,137  pymodbus.logging:transaction.py:67 Adding transaction 0
DEBUG   2025-09-02 11:30:14,137  pymodbus.logging:transaction.py:78 Getting transaction 0
DEBUG   2025-09-02 11:30:14,137  pymodbus.logging:transaction.py:258 Changing transaction state from "PROCESSING REPLY" to "TRANSACTION_COMPLETE"
INFO    2025-09-02 11:30:14,137  root:modbus_rtu_tcp.py:44 read_measurement ret is:ReadHoldingRegistersResponse (2)
INFO    2025-09-02 11:30:14,137  root:acudc260_modbus_get.py:145 read i1_current ret is:[16119, 37117]
DEBUG   2025-09-02 11:30:14,137  pymodbus.logging:transaction.py:184 Current transaction state - TRANSACTION_COMPLETE
DEBUG   2025-09-02 11:30:14,137  pymodbus.logging:transaction.py:193 Running transaction 0
DEBUG   2025-09-02 11:30:14,138  pymodbus.logging:transaction.py:293 SEND: 0x1 0x3 0x30 0x4 0x0 0x2 0x8a 0xca
DEBUG   2025-09-02 11:30:14,138  pymodbus.logging:serial.py:271 Changing state to IDLE - Last Frame End - 1756783814.137519 Current Time stamp - 1756783814.138504
DEBUG   2025-09-02 11:30:14,138  pymodbus.logging:serial.py:279 Waiting for 3.5 char before next send - 1.823 ms
DEBUG   2025-09-02 11:30:14,140  pymodbus.logging:base.py:250 New Transaction state "SENDING"
DEBUG   2025-09-02 11:30:14,140  pymodbus.logging:transaction.py:317 Changing transaction state from "SENDING" to "WAITING FOR REPLY"
DEBUG   2025-09-02 11:30:14,169  pymodbus.logging:transaction.py:419 Changing transaction state from "WAITING FOR REPLY" to "PROCESSING REPLY"
DEBUG   2025-09-02 11:30:14,169  pymodbus.logging:transaction.py:324 RECV: 0x1 0x3 0x4 0x3e 0xf7 0x9a 0x1a 0xad 0x42
DEBUG   2025-09-02 11:30:14,169  pymodbus.logging:base.py:92 Processing: 0x1 0x3 0x4 0x3e 0xf7 0x9a 0x1a 0xad 0x42
DEBUG   2025-09-02 11:30:14,169  pymodbus.logging:decoders.py:103 decode PDU for 3
DEBUG   2025-09-02 11:30:14,169  pymodbus.logging:base.py:102 Frame advanced, resetting header!!
DEBUG   2025-09-02 11:30:14,169  pymodbus.logging:transaction.py:67 Adding transaction 0
DEBUG   2025-09-02 11:30:14,169  pymodbus.logging:transaction.py:78 Getting transaction 0
DEBUG   2025-09-02 11:30:14,169  pymodbus.logging:transaction.py:258 Changing transaction state from "PROCESSING REPLY" to "TRANSACTION_COMPLETE"
INFO    2025-09-02 11:30:14,169  root:modbus_rtu_tcp.py:44 read_measurement ret is:ReadHoldingRegistersResponse (2)
INFO    2025-09-02 11:30:14,169  root:acudc260_modbus_get.py:159 read i2_current ret is:[16119, 39450]
DEBUG   2025-09-02 11:30:14,169  pymodbus.logging:transaction.py:184 Current transaction state - TRANSACTION_COMPLETE
DEBUG   2025-09-02 11:30:14,169  pymodbus.logging:transaction.py:193 Running transaction 0
DEBUG   2025-09-02 11:30:14,169  pymodbus.logging:transaction.py:293 SEND: 0x1 0x3 0x30 0x6 0x0 0x2 0x2b 0xa
DEBUG   2025-09-02 11:30:14,169  pymodbus.logging:serial.py:271 Changing state to IDLE - Last Frame End - 1756783814.169692 Current Time stamp - 1756783814.169692
