INFO    2025-09-02 11:54:40,998  root:acudc260_fast_test.py:363 测试进度:['test_case', 'Voltage', 'Current_1', 'Current_2', '等待时间(h)', 'voltage_accuracy', 'current_accuracy', 'power_accuracy', '采样次数', '采样间隔'],执行时间:2025_09_02 11:54:40
INFO    2025-09-02 11:54:40,999  root:source_control.py:26 <源输出>
    电压检定点:6.0%;
    电流检定点:0.06666666666666668%;
    电压纹波比例:0%;
    电流纹波比例:0%;
    电压纹波相位:0度;
    电流纹波相位:0度;
    纹波频率:300Hz;
    电能方向:正向;
    <End>
INFO    2025-09-02 11:54:42,609  root:source_control.py:30 recv_data ret is:<源输出应答>
电压总值:60.000000V;
电流总值:0.400000A;
功率总值:24.000013W;
电压直流:60.000000V;
电流直流:0.400000A;
功率直流:24.000013W;
电压纹波:0.000000V;
电流纹波:0.000000A;
功率纹波:0.000000W;
<End>
DEBUG   2025-09-02 11:54:52,710  pymodbus.logging:transaction.py:184 Current transaction state - IDLE
DEBUG   2025-09-02 11:54:52,710  pymodbus.logging:transaction.py:193 Running transaction 0
DEBUG   2025-09-02 11:54:52,710  pymodbus.logging:transaction.py:293 SEND: 0x1 0x3 0x30 0x0 0x0 0x2 0xcb 0xb
DEBUG   2025-09-02 11:54:52,710  pymodbus.logging:base.py:250 New Transaction state "SENDING"
DEBUG   2025-09-02 11:54:52,710  pymodbus.logging:transaction.py:317 Changing transaction state from "SENDING" to "WAITING FOR REPLY"
DEBUG   2025-09-02 11:54:52,740  pymodbus.logging:transaction.py:419 Changing transaction state from "WAITING FOR REPLY" to "PROCESSING REPLY"
DEBUG   2025-09-02 11:54:52,740  pymodbus.logging:transaction.py:324 RECV: 0x1 0x3 0x4 0x42 0x6f 0xfd 0xe6 0x1f 0x4c
DEBUG   2025-09-02 11:54:52,740  pymodbus.logging:base.py:92 Processing: 0x1 0x3 0x4 0x42 0x6f 0xfd 0xe6 0x1f 0x4c
DEBUG   2025-09-02 11:54:52,740  pymodbus.logging:decoders.py:103 decode PDU for 3
DEBUG   2025-09-02 11:54:52,740  pymodbus.logging:base.py:102 Frame advanced, resetting header!!
DEBUG   2025-09-02 11:54:52,740  pymodbus.logging:transaction.py:67 Adding transaction 0
DEBUG   2025-09-02 11:54:52,740  pymodbus.logging:transaction.py:78 Getting transaction 0
DEBUG   2025-09-02 11:54:52,740  pymodbus.logging:transaction.py:258 Changing transaction state from "PROCESSING REPLY" to "TRANSACTION_COMPLETE"
INFO    2025-09-02 11:54:52,740  root:modbus_rtu_tcp.py:44 read_measurement ret is:ReadHoldingRegistersResponse (2)
INFO    2025-09-02 11:54:52,740  root:acudc260_modbus_get.py:131 read u_voltage ret is:[17007, 64998]
DEBUG   2025-09-02 11:54:52,740  pymodbus.logging:transaction.py:184 Current transaction state - TRANSACTION_COMPLETE
DEBUG   2025-09-02 11:54:52,740  pymodbus.logging:transaction.py:193 Running transaction 0
DEBUG   2025-09-02 11:54:52,740  pymodbus.logging:transaction.py:293 SEND: 0x1 0x3 0x30 0x2 0x0 0x2 0x6a 0xcb
DEBUG   2025-09-02 11:54:52,740  pymodbus.logging:serial.py:271 Changing state to IDLE - Last Frame End - 1756785292.740319 Current Time stamp - 1756785292.740319
DEBUG   2025-09-02 11:54:52,740  pymodbus.logging:serial.py:279 Waiting for 3.5 char before next send - 1.823 ms
DEBUG   2025-09-02 11:54:52,743  pymodbus.logging:base.py:250 New Transaction state "SENDING"
DEBUG   2025-09-02 11:54:52,743  pymodbus.logging:transaction.py:317 Changing transaction state from "SENDING" to "WAITING FOR REPLY"
DEBUG   2025-09-02 11:54:52,773  pymodbus.logging:transaction.py:419 Changing transaction state from "WAITING FOR REPLY" to "PROCESSING REPLY"
DEBUG   2025-09-02 11:54:52,773  pymodbus.logging:transaction.py:324 RECV: 0x1 0x3 0x4 0x3e 0xd0 0xa2 0x20 0x8e 0x9a
DEBUG   2025-09-02 11:54:52,773  pymodbus.logging:base.py:92 Processing: 0x1 0x3 0x4 0x3e 0xd0 0xa2 0x20 0x8e 0x9a
DEBUG   2025-09-02 11:54:52,773  pymodbus.logging:decoders.py:103 decode PDU for 3
DEBUG   2025-09-02 11:54:52,773  pymodbus.logging:base.py:102 Frame advanced, resetting header!!
DEBUG   2025-09-02 11:54:52,773  pymodbus.logging:transaction.py:67 Adding transaction 0
DEBUG   2025-09-02 11:54:52,773  pymodbus.logging:transaction.py:78 Getting transaction 0
DEBUG   2025-09-02 11:54:52,773  pymodbus.logging:transaction.py:258 Changing transaction state from "PROCESSING REPLY" to "TRANSACTION_COMPLETE"
INFO    2025-09-02 11:54:52,773  root:modbus_rtu_tcp.py:44 read_measurement ret is:ReadHoldingRegistersResponse (2)
INFO    2025-09-02 11:54:52,773  root:acudc260_modbus_get.py:145 read i1_current ret is:[16080, 41504]
DEBUG   2025-09-02 11:54:52,773  pymodbus.logging:transaction.py:184 Current transaction state - TRANSACTION_COMPLETE
DEBUG   2025-09-02 11:54:52,773  pymodbus.logging:transaction.py:193 Running transaction 0
DEBUG   2025-09-02 11:54:52,773  pymodbus.logging:transaction.py:293 SEND: 0x1 0x3 0x30 0x4 0x0 0x2 0x8a 0xca
DEBUG   2025-09-02 11:54:52,773  pymodbus.logging:serial.py:271 Changing state to IDLE - Last Frame End - 1756785292.773076 Current Time stamp - 1756785292.773076
DEBUG   2025-09-02 11:54:52,773  pymodbus.logging:serial.py:279 Waiting for 3.5 char before next send - 1.823 ms
DEBUG   2025-09-02 11:54:52,775  pymodbus.logging:base.py:250 New Transaction state "SENDING"
DEBUG   2025-09-02 11:54:52,775  pymodbus.logging:transaction.py:317 Changing transaction state from "SENDING" to "WAITING FOR REPLY"
DEBUG   2025-09-02 11:54:52,800  pymodbus.logging:transaction.py:419 Changing transaction state from "WAITING FOR REPLY" to "PROCESSING REPLY"
DEBUG   2025-09-02 11:54:52,800  pymodbus.logging:transaction.py:324 RECV: 0x1 0x3 0x4 0x3e 0xcc 0x28 0x50 0x29 0xd8
DEBUG   2025-09-02 11:54:52,800  pymodbus.logging:base.py:92 Processing: 0x1 0x3 0x4 0x3e 0xcc 0x28 0x50 0x29 0xd8
DEBUG   2025-09-02 11:54:52,800  pymodbus.logging:decoders.py:103 decode PDU for 3
DEBUG   2025-09-02 11:54:52,800  pymodbus.logging:base.py:102 Frame advanced, resetting header!!
DEBUG   2025-09-02 11:54:52,800  pymodbus.logging:transaction.py:67 Adding transaction 0
DEBUG   2025-09-02 11:54:52,800  pymodbus.logging:transaction.py:78 Getting transaction 0
DEBUG   2025-09-02 11:54:52,800  pymodbus.logging:transaction.py:258 Changing transaction state from "PROCESSING REPLY" to "TRANSACTION_COMPLETE"
INFO    2025-09-02 11:54:52,800  root:modbus_rtu_tcp.py:44 read_measurement ret is:ReadHoldingRegistersResponse (2)
INFO    2025-09-02 11:54:52,800  root:acudc260_modbus_get.py:159 read i2_current ret is:[16076, 10320]
DEBUG   2025-09-02 11:54:52,800  pymodbus.logging:transaction.py:184 Current transaction state - TRANSACTION_COMPLETE
DEBUG   2025-09-02 11:54:52,800  pymodbus.logging:transaction.py:193 Running transaction 0
DEBUG   2025-09-02 11:54:52,800  pymodbus.logging:transaction.py:293 SEND: 0x1 0x3 0x30 0x6 0x0 0x2 0x2b 0xa
DEBUG   2025-09-02 11:54:52,801  pymodbus.logging:serial.py:271 Changing state to IDLE - Last Frame End - 1756785292.80071 Current Time stamp - 1756785292.80071
DEBUG   2025-09-02 11:54:52,801  pymodbus.logging:serial.py:279 Waiting for 3.5 char before next send - 1.823 ms
DEBUG   2025-09-02 11:54:52,803  pymodbus.logging:base.py:250 New Transaction state "SENDING"
DEBUG   2025-09-02 11:54:52,803  pymodbus.logging:transaction.py:317 Changing transaction state from "SENDING" to "WAITING FOR REPLY"
DEBUG   2025-09-02 11:54:52,832  pymodbus.logging:transaction.py:419 Changing transaction state from "WAITING FOR REPLY" to "PROCESSING REPLY"
DEBUG   2025-09-02 11:54:52,833  pymodbus.logging:transaction.py:324 RECV: 0x1 0x3 0x4 0x3f 0x4a 0xf4 0x70 0x90 0xd5
DEBUG   2025-09-02 11:54:52,833  pymodbus.logging:base.py:92 Processing: 0x1 0x3 0x4 0x3f 0x4a 0xf4 0x70 0x90 0xd5
DEBUG   2025-09-02 11:54:52,833  pymodbus.logging:decoders.py:103 decode PDU for 3
DEBUG   2025-09-02 11:54:52,833  pymodbus.logging:base.py:102 Frame advanced, resetting header!!
DEBUG   2025-09-02 11:54:52,833  pymodbus.logging:transaction.py:67 Adding transaction 0
DEBUG   2025-09-02 11:54:52,833  pymodbus.logging:transaction.py:78 Getting transaction 0
DEBUG   2025-09-02 11:54:52,833  pymodbus.logging:transaction.py:258 Changing transaction state from "PROCESSING REPLY" to "TRANSACTION_COMPLETE"
INFO    2025-09-02 11:54:52,833  root:modbus_rtu_tcp.py:44 read_measurement ret is:ReadHoldingRegistersResponse (2)
INFO    2025-09-02 11:54:52,833  root:acudc260_modbus_get.py:173 read i_sum_current ret is:[16202, 62576]
DEBUG   2025-09-02 11:54:52,833  pymodbus.logging:transaction.py:184 Current transaction state - TRANSACTION_COMPLETE
DEBUG   2025-09-02 11:54:52,833  pymodbus.logging:transaction.py:193 Running transaction 0
DEBUG   2025-09-02 11:54:52,833  pymodbus.logging:transaction.py:293 SEND: 0x1 0x3 0x30 0x8 0x0 0x2 0x4a 0xc9
DEBUG   2025-09-02 11:54:52,833  pymodbus.logging:serial.py:271 Changing state to IDLE - Last Frame End - 1756785292.832223 Current Time stamp - 1756785292.833116
DEBUG   2025-09-02 11:54:52,833  pymodbus.logging:serial.py:279 Waiting for 3.5 char before next send - 1.823 ms
DEBUG   2025-09-02 11:54:52,836  pymodbus.logging:base.py:250 New Transaction state "SENDING"
DEBUG   2025-09-02 11:54:52,836  pymodbus.logging:transaction.py:317 Changing transaction state from "SENDING" to "WAITING FOR REPLY"
DEBUG   2025-09-02 11:54:52,868  pymodbus.logging:transaction.py:419 Changing transaction state from "WAITING FOR REPLY" to "PROCESSING REPLY"
DEBUG   2025-09-02 11:54:52,868  pymodbus.logging:transaction.py:324 RECV: 0x1 0x3 0x4 0x3c 0xc1 0xb3 0x94 0xd3 0x0
DEBUG   2025-09-02 11:54:52,868  pymodbus.logging:base.py:92 Processing: 0x1 0x3 0x4 0x3c 0xc1 0xb3 0x94 0xd3 0x0
DEBUG   2025-09-02 11:54:52,868  pymodbus.logging:decoders.py:103 decode PDU for 3
DEBUG   2025-09-02 11:54:52,868  pymodbus.logging:base.py:102 Frame advanced, resetting header!!
DEBUG   2025-09-02 11:54:52,868  pymodbus.logging:transaction.py:67 Adding transaction 0
DEBUG   2025-09-02 11:54:52,868  pymodbus.logging:transaction.py:78 Getting transaction 0
DEBUG   2025-09-02 11:54:52,868  pymodbus.logging:transaction.py:258 Changing transaction state from "PROCESSING REPLY" to "TRANSACTION_COMPLETE"
INFO    2025-09-02 11:54:52,868  root:modbus_rtu_tcp.py:44 read_measurement ret is:ReadHoldingRegistersResponse (2)
INFO    2025-09-02 11:54:52,868  root:acudc260_modbus_get.py:187 read p1_power ret is:[15553, 45972]
DEBUG   2025-09-02 11:54:52,868  pymodbus.logging:transaction.py:184 Current transaction state - TRANSACTION_COMPLETE
DEBUG   2025-09-02 11:54:52,868  pymodbus.logging:transaction.py:193 Running transaction 0
DEBUG   2025-09-02 11:54:52,868  pymodbus.logging:transaction.py:293 SEND: 0x1 0x3 0x30 0xa 0x0 0x2 0xeb 0x9
DEBUG   2025-09-02 11:54:52,869  pymodbus.logging:serial.py:271 Changing state to IDLE - Last Frame End - 1756785292.868634 Current Time stamp - 1756785292.869643
DEBUG   2025-09-02 11:54:52,869  pymodbus.logging:serial.py:279 Waiting for 3.5 char before next send - 1.823 ms
DEBUG   2025-09-02 11:54:52,871  pymodbus.logging:base.py:250 New Transaction state "SENDING"
DEBUG   2025-09-02 11:54:52,871  pymodbus.logging:transaction.py:317 Changing transaction state from "SENDING" to "WAITING FOR REPLY"
DEBUG   2025-09-02 11:54:52,900  pymodbus.logging:transaction.py:419 Changing transaction state from "WAITING FOR REPLY" to "PROCESSING REPLY"
DEBUG   2025-09-02 11:54:52,900  pymodbus.logging:transaction.py:324 RECV: 0x1 0x3 0x4 0x3c 0xca 0x75 0xa8 0xf1 0x73
DEBUG   2025-09-02 11:54:52,900  pymodbus.logging:base.py:92 Processing: 0x1 0x3 0x4 0x3c 0xca 0x75 0xa8 0xf1 0x73
DEBUG   2025-09-02 11:54:52,900  pymodbus.logging:decoders.py:103 decode PDU for 3
DEBUG   2025-09-02 11:54:52,900  pymodbus.logging:base.py:102 Frame advanced, resetting header!!
DEBUG   2025-09-02 11:54:52,901  pymodbus.logging:transaction.py:67 Adding transaction 0
DEBUG   2025-09-02 11:54:52,901  pymodbus.logging:transaction.py:78 Getting transaction 0
DEBUG   2025-09-02 11:54:52,901  pymodbus.logging:transaction.py:258 Changing transaction state from "PROCESSING REPLY" to "TRANSACTION_COMPLETE"
INFO    2025-09-02 11:54:52,901  root:modbus_rtu_tcp.py:44 read_measurement ret is:ReadHoldingRegistersResponse (2)
INFO    2025-09-02 11:54:52,901  root:acudc260_modbus_get.py:201 read p2_power ret is:[15562, 30120]
DEBUG   2025-09-02 11:54:52,901  pymodbus.logging:transaction.py:184 Current transaction state - TRANSACTION_COMPLETE
DEBUG   2025-09-02 11:54:52,901  pymodbus.logging:transaction.py:193 Running transaction 0
DEBUG   2025-09-02 11:54:52,901  pymodbus.logging:transaction.py:293 SEND: 0x1 0x3 0x30 0xc 0x0 0x2 0xb 0x8
DEBUG   2025-09-02 11:54:52,901  pymodbus.logging:serial.py:271 Changing state to IDLE - Last Frame End - 1756785292.900996 Current Time stamp - 1756785292.901504
DEBUG   2025-09-02 11:54:52,901  pymodbus.logging:serial.py:279 Waiting for 3.5 char before next send - 1.823 ms
DEBUG   2025-09-02 11:54:52,904  pymodbus.logging:base.py:250 New Transaction state "SENDING"
DEBUG   2025-09-02 11:54:52,904  pymodbus.logging:transaction.py:317 Changing transaction state from "SENDING" to "WAITING FOR REPLY"
DEBUG   2025-09-02 11:54:52,932  pymodbus.logging:transaction.py:419 Changing transaction state from "WAITING FOR REPLY" to "PROCESSING REPLY"
DEBUG   2025-09-02 11:54:52,932  pymodbus.logging:transaction.py:324 RECV: 0x1 0x3 0x4 0x3d 0x47 0x1 0x0 0x46 0x1a
DEBUG   2025-09-02 11:54:52,932  pymodbus.logging:base.py:92 Processing: 0x1 0x3 0x4 0x3d 0x47 0x1 0x0 0x46 0x1a
DEBUG   2025-09-02 11:54:52,932  pymodbus.logging:decoders.py:103 decode PDU for 3
DEBUG   2025-09-02 11:54:52,932  pymodbus.logging:base.py:102 Frame advanced, resetting header!!
DEBUG   2025-09-02 11:54:52,932  pymodbus.logging:transaction.py:67 Adding transaction 0
DEBUG   2025-09-02 11:54:52,932  pymodbus.logging:transaction.py:78 Getting transaction 0
DEBUG   2025-09-02 11:54:52,932  pymodbus.logging:transaction.py:258 Changing transaction state from "PROCESSING REPLY" to "TRANSACTION_COMPLETE"
INFO    2025-09-02 11:54:52,932  root:modbus_rtu_tcp.py:44 read_measurement ret is:ReadHoldingRegistersResponse (2)
INFO    2025-09-02 11:54:52,932  root:acudc260_modbus_get.py:215 read p_sum_power ret is:[15687, 256]
DEBUG   2025-09-02 11:54:53,033  pymodbus.logging:transaction.py:184 Current transaction state - TRANSACTION_COMPLETE
DEBUG   2025-09-02 11:54:53,033  pymodbus.logging:transaction.py:193 Running transaction 0
DEBUG   2025-09-02 11:54:53,033  pymodbus.logging:transaction.py:293 SEND: 0x1 0x3 0x30 0x0 0x0 0x2 0xcb 0xb
DEBUG   2025-09-02 11:54:53,033  pymodbus.logging:serial.py:271 Changing state to IDLE - Last Frame End - 1756785292.932807 Current Time stamp - 1756785293.03373
DEBUG   2025-09-02 11:54:53,033  pymodbus.logging:base.py:250 New Transaction state "SENDING"
DEBUG   2025-09-02 11:54:53,033  pymodbus.logging:transaction.py:317 Changing transaction state from "SENDING" to "WAITING FOR REPLY"
DEBUG   2025-09-02 11:54:53,061  pymodbus.logging:transaction.py:419 Changing transaction state from "WAITING FOR REPLY" to "PROCESSING REPLY"
DEBUG   2025-09-02 11:54:53,061  pymodbus.logging:transaction.py:324 RECV: 0x1 0x3 0x4 0x42 0x6f 0xff 0x7d 0x5f 0x87
DEBUG   2025-09-02 11:54:53,061  pymodbus.logging:base.py:92 Processing: 0x1 0x3 0x4 0x42 0x6f 0xff 0x7d 0x5f 0x87
DEBUG   2025-09-02 11:54:53,061  pymodbus.logging:decoders.py:103 decode PDU for 3
DEBUG   2025-09-02 11:54:53,061  pymodbus.logging:base.py:102 Frame advanced, resetting header!!
DEBUG   2025-09-02 11:54:53,061  pymodbus.logging:transaction.py:67 Adding transaction 0
DEBUG   2025-09-02 11:54:53,061  pymodbus.logging:transaction.py:78 Getting transaction 0
DEBUG   2025-09-02 11:54:53,061  pymodbus.logging:transaction.py:258 Changing transaction state from "PROCESSING REPLY" to "TRANSACTION_COMPLETE"
INFO    2025-09-02 11:54:53,061  root:modbus_rtu_tcp.py:44 read_measurement ret is:ReadHoldingRegistersResponse (2)
INFO    2025-09-02 11:54:53,061  root:acudc260_modbus_get.py:131 read u_voltage ret is:[17007, 65405]
DEBUG   2025-09-02 11:54:53,061  pymodbus.logging:transaction.py:184 Current transaction state - TRANSACTION_COMPLETE
DEBUG   2025-09-02 11:54:53,061  pymodbus.logging:transaction.py:193 Running transaction 0
DEBUG   2025-09-02 11:54:53,061  pymodbus.logging:transaction.py:293 SEND: 0x1 0x3 0x30 0x2 0x0 0x2 0x6a 0xcb
DEBUG   2025-09-02 11:54:53,061  pymodbus.logging:serial.py:271 Changing state to IDLE - Last Frame End - 1756785293.06152 Current Time stamp - 1756785293.06152
DEBUG   2025-09-02 11:54:53,061  pymodbus.logging:serial.py:279 Waiting for 3.5 char before next send - 1.823 ms
DEBUG   2025-09-02 11:54:53,064  pymodbus.logging:base.py:250 New Transaction state "SENDING"
DEBUG   2025-09-02 11:54:53,064  pymodbus.logging:transaction.py:317 Changing transaction state from "SENDING" to "WAITING FOR REPLY"
DEBUG   2025-09-02 11:54:53,092  pymodbus.logging:transaction.py:419 Changing transaction state from "WAITING FOR REPLY" to "PROCESSING REPLY"
DEBUG   2025-09-02 11:54:53,092  pymodbus.logging:transaction.py:324 RECV: 0x1 0x3 0x4 0x3e 0xd0 0x37 0xe3 0xa1 0x9b
DEBUG   2025-09-02 11:54:53,092  pymodbus.logging:base.py:92 Processing: 0x1 0x3 0x4 0x3e 0xd0 0x37 0xe3 0xa1 0x9b
DEBUG   2025-09-02 11:54:53,092  pymodbus.logging:decoders.py:103 decode PDU for 3
DEBUG   2025-09-02 11:54:53,092  pymodbus.logging:base.py:102 Frame advanced, resetting header!!
DEBUG   2025-09-02 11:54:53,092  pymodbus.logging:transaction.py:67 Adding transaction 0
DEBUG   2025-09-02 11:54:53,092  pymodbus.logging:transaction.py:78 Getting transaction 0
DEBUG   2025-09-02 11:54:53,092  pymodbus.logging:transaction.py:258 Changing transaction state from "PROCESSING REPLY" to "TRANSACTION_COMPLETE"
INFO    2025-09-02 11:54:53,092  root:modbus_rtu_tcp.py:44 read_measurement ret is:ReadHoldingRegistersResponse (2)
INFO    2025-09-02 11:54:53,092  root:acudc260_modbus_get.py:145 read i1_current ret is:[16080, 14307]
DEBUG   2025-09-02 11:54:53,092  pymodbus.logging:transaction.py:184 Current transaction state - TRANSACTION_COMPLETE
DEBUG   2025-09-02 11:54:53,092  pymodbus.logging:transaction.py:193 Running transaction 0
DEBUG   2025-09-02 11:54:53,092  pymodbus.logging:transaction.py:293 SEND: 0x1 0x3 0x30 0x4 0x0 0x2 0x8a 0xca
DEBUG   2025-09-02 11:54:53,092  pymodbus.logging:serial.py:271 Changing state to IDLE - Last Frame End - 1756785293.092101 Current Time stamp - 1756785293.092101
DEBUG   2025-09-02 11:54:53,092  pymodbus.logging:serial.py:279 Waiting for 3.5 char before next send - 1.823 ms
DEBUG   2025-09-02 11:54:53,095  pymodbus.logging:base.py:250 New Transaction state "SENDING"
DEBUG   2025-09-02 11:54:53,095  pymodbus.logging:transaction.py:317 Changing transaction state from "SENDING" to "WAITING FOR REPLY"
DEBUG   2025-09-02 11:54:53,125  pymodbus.logging:transaction.py:419 Changing transaction state from "WAITING FOR REPLY" to "PROCESSING REPLY"
DEBUG   2025-09-02 11:54:53,125  pymodbus.logging:transaction.py:324 RECV: 0x1 0x3 0x4 0x3e 0xcc 0xa6 0x8a 0xcd 0xe3
DEBUG   2025-09-02 11:54:53,125  pymodbus.logging:base.py:92 Processing: 0x1 0x3 0x4 0x3e 0xcc 0xa6 0x8a 0xcd 0xe3
DEBUG   2025-09-02 11:54:53,125  pymodbus.logging:decoders.py:103 decode PDU for 3
DEBUG   2025-09-02 11:54:53,125  pymodbus.logging:base.py:102 Frame advanced, resetting header!!
DEBUG   2025-09-02 11:54:53,125  pymodbus.logging:transaction.py:67 Adding transaction 0
DEBUG   2025-09-02 11:54:53,125  pymodbus.logging:transaction.py:78 Getting transaction 0
DEBUG   2025-09-02 11:54:53,125  pymodbus.logging:transaction.py:258 Changing transaction state from "PROCESSING REPLY" to "TRANSACTION_COMPLETE"
INFO    2025-09-02 11:54:53,125  root:modbus_rtu_tcp.py:44 read_measurement ret is:ReadHoldingRegistersResponse (2)
INFO    2025-09-02 11:54:53,125  root:acudc260_modbus_get.py:159 read i2_current ret is:[16076, 42634]
DEBUG   2025-09-02 11:54:53,125  pymodbus.logging:transaction.py:184 Current transaction state - TRANSACTION_COMPLETE
DEBUG   2025-09-02 11:54:53,125  pymodbus.logging:transaction.py:193 Running transaction 0
DEBUG   2025-09-02 11:54:53,125  pymodbus.logging:transaction.py:293 SEND: 0x1 0x3 0x30 0x6 0x0 0x2 0x2b 0xa
DEBUG   2025-09-02 11:54:53,125  pymodbus.logging:serial.py:271 Changing state to IDLE - Last Frame End - 1756785293.12521 Current Time stamp - 1756785293.12521
DEBUG   2025-09-02 11:54:53,125  pymodbus.logging:serial.py:279 Waiting for 3.5 char before next send - 1.823 ms
DEBUG   2025-09-02 11:54:53,128  pymodbus.logging:base.py:250 New Transaction state "SENDING"
DEBUG   2025-09-02 11:54:53,128  pymodbus.logging:transaction.py:317 Changing transaction state from "SENDING" to "WAITING FOR REPLY"
DEBUG   2025-09-02 11:54:53,151  pymodbus.logging:transaction.py:419 Changing transaction state from "WAITING FOR REPLY" to "PROCESSING REPLY"
DEBUG   2025-09-02 11:54:53,151  pymodbus.logging:transaction.py:324 RECV: 0x1 0x3 0x4 0x3f 0x4e 0x6f 0x36 0x3b 0xd6
DEBUG   2025-09-02 11:54:53,151  pymodbus.logging:base.py:92 Processing: 0x1 0x3 0x4 0x3f 0x4e 0x6f 0x36 0x3b 0xd6
DEBUG   2025-09-02 11:54:53,151  pymodbus.logging:decoders.py:103 decode PDU for 3
DEBUG   2025-09-02 11:54:53,151  pymodbus.logging:base.py:102 Frame advanced, resetting header!!
DEBUG   2025-09-02 11:54:53,151  pymodbus.logging:transaction.py:67 Adding transaction 0
DEBUG   2025-09-02 11:54:53,151  pymodbus.logging:transaction.py:78 Getting transaction 0
DEBUG   2025-09-02 11:54:53,151  pymodbus.logging:transaction.py:258 Changing transaction state from "PROCESSING REPLY" to "TRANSACTION_COMPLETE"
INFO    2025-09-02 11:54:53,151  root:modbus_rtu_tcp.py:44 read_measurement ret is:ReadHoldingRegistersResponse (2)
INFO    2025-09-02 11:54:53,151  root:acudc260_modbus_get.py:173 read i_sum_current ret is:[16206, 28470]
DEBUG   2025-09-02 11:54:53,151  pymodbus.logging:transaction.py:184 Current transaction state - TRANSACTION_COMPLETE
DEBUG   2025-09-02 11:54:53,151  pymodbus.logging:transaction.py:193 Running transaction 0
DEBUG   2025-09-02 11:54:53,151  pymodbus.logging:transaction.py:293 SEND: 0x1 0x3 0x30 0x8 0x0 0x2 0x4a 0xc9
DEBUG   2025-09-02 11:54:53,151  pymodbus.logging:serial.py:271 Changing state to IDLE - Last Frame End - 1756785293.151923 Current Time stamp - 1756785293.151923
DEBUG   2025-09-02 11:54:53,151  pymodbus.logging:serial.py:279 Waiting for 3.5 char before next send - 1.823 ms
DEBUG   2025-09-02 11:54:53,154  pymodbus.logging:base.py:250 New Transaction state "SENDING"
DEBUG   2025-09-02 11:54:53,154  pymodbus.logging:transaction.py:317 Changing transaction state from "SENDING" to "WAITING FOR REPLY"
DEBUG   2025-09-02 11:54:53,189  pymodbus.logging:transaction.py:419 Changing transaction state from "WAITING FOR REPLY" to "PROCESSING REPLY"
DEBUG   2025-09-02 11:54:53,189  pymodbus.logging:transaction.py:324 RECV: 0x1 0x3 0x4 0x3c 0xc7 0x82 0x9c 0x27 0x57
DEBUG   2025-09-02 11:54:53,189  pymodbus.logging:base.py:92 Processing: 0x1 0x3 0x4 0x3c 0xc7 0x82 0x9c 0x27 0x57
DEBUG   2025-09-02 11:54:53,189  pymodbus.logging:decoders.py:103 decode PDU for 3
DEBUG   2025-09-02 11:54:53,189  pymodbus.logging:base.py:102 Frame advanced, resetting header!!
DEBUG   2025-09-02 11:54:53,189  pymodbus.logging:transaction.py:67 Adding transaction 0
DEBUG   2025-09-02 11:54:53,189  pymodbus.logging:transaction.py:78 Getting transaction 0
DEBUG   2025-09-02 11:54:53,189  pymodbus.logging:transaction.py:258 Changing transaction state from "PROCESSING REPLY" to "TRANSACTION_COMPLETE"
INFO    2025-09-02 11:54:53,189  root:modbus_rtu_tcp.py:44 read_measurement ret is:ReadHoldingRegistersResponse (2)
INFO    2025-09-02 11:54:53,189  root:acudc260_modbus_get.py:187 read p1_power ret is:[15559, 33436]
DEBUG   2025-09-02 11:54:53,189  pymodbus.logging:transaction.py:184 Current transaction state - TRANSACTION_COMPLETE
DEBUG   2025-09-02 11:54:53,190  pymodbus.logging:transaction.py:193 Running transaction 0
DEBUG   2025-09-02 11:54:53,190  pymodbus.logging:transaction.py:293 SEND: 0x1 0x3 0x30 0xa 0x0 0x2 0xeb 0x9
DEBUG   2025-09-02 11:54:53,190  pymodbus.logging:serial.py:271 Changing state to IDLE - Last Frame End - 1756785293.189458 Current Time stamp - 1756785293.190571
DEBUG   2025-09-02 11:54:53,190  pymodbus.logging:serial.py:279 Waiting for 3.5 char before next send - 1.823 ms
DEBUG   2025-09-02 11:54:53,193  pymodbus.logging:base.py:250 New Transaction state "SENDING"
DEBUG   2025-09-02 11:54:53,193  pymodbus.logging:transaction.py:317 Changing transaction state from "SENDING" to "WAITING FOR REPLY"
DEBUG   2025-09-02 11:54:53,220  pymodbus.logging:transaction.py:419 Changing transaction state from "WAITING FOR REPLY" to "PROCESSING REPLY"
DEBUG   2025-09-02 11:54:53,220  pymodbus.logging:transaction.py:324 RECV: 0x1 0x3 0x4 0x3c 0xc6 0x55 0xe3 0x68 0x87
DEBUG   2025-09-02 11:54:53,220  pymodbus.logging:base.py:92 Processing: 0x1 0x3 0x4 0x3c 0xc6 0x55 0xe3 0x68 0x87
DEBUG   2025-09-02 11:54:53,220  pymodbus.logging:decoders.py:103 decode PDU for 3
DEBUG   2025-09-02 11:54:53,220  pymodbus.logging:base.py:102 Frame advanced, resetting header!!
DEBUG   2025-09-02 11:54:53,220  pymodbus.logging:transaction.py:67 Adding transaction 0
DEBUG   2025-09-02 11:54:53,220  pymodbus.logging:transaction.py:78 Getting transaction 0
DEBUG   2025-09-02 11:54:53,220  pymodbus.logging:transaction.py:258 Changing transaction state from "PROCESSING REPLY" to "TRANSACTION_COMPLETE"
INFO    2025-09-02 11:54:53,220  root:modbus_rtu_tcp.py:44 read_measurement ret is:ReadHoldingRegistersResponse (2)
INFO    2025-09-02 11:54:53,220  root:acudc260_modbus_get.py:201 read p2_power ret is:[15558, 21987]
DEBUG   2025-09-02 11:54:53,220  pymodbus.logging:transaction.py:184 Current transaction state - TRANSACTION_COMPLETE
DEBUG   2025-09-02 11:54:53,220  pymodbus.logging:transaction.py:193 Running transaction 0
DEBUG   2025-09-02 11:54:53,220  pymodbus.logging:transaction.py:293 SEND: 0x1 0x3 0x30 0xc 0x0 0x2 0xb 0x8
DEBUG   2025-09-02 11:54:53,221  pymodbus.logging:serial.py:271 Changing state to IDLE - Last Frame End - 1756785293.220104 Current Time stamp - 1756785293.221115
DEBUG   2025-09-02 11:54:53,221  pymodbus.logging:serial.py:279 Waiting for 3.5 char before next send - 1.823 ms
DEBUG   2025-09-02 11:54:53,223  pymodbus.logging:base.py:250 New Transaction state "SENDING"
DEBUG   2025-09-02 11:54:53,223  pymodbus.logging:transaction.py:317 Changing transaction state from "SENDING" to "WAITING FOR REPLY"
DEBUG   2025-09-02 11:54:53,253  pymodbus.logging:transaction.py:419 Changing transaction state from "WAITING FOR REPLY" to "PROCESSING REPLY"
DEBUG   2025-09-02 11:54:53,253  pymodbus.logging:transaction.py:324 RECV: 0x1 0x3 0x4 0x3d 0x46 0xec 0x40 0x5b 0x7a
DEBUG   2025-09-02 11:54:53,253  pymodbus.logging:base.py:92 Processing: 0x1 0x3 0x4 0x3d 0x46 0xec 0x40 0x5b 0x7a
DEBUG   2025-09-02 11:54:53,253  pymodbus.logging:decoders.py:103 decode PDU for 3
DEBUG   2025-09-02 11:54:53,253  pymodbus.logging:base.py:102 Frame advanced, resetting header!!
DEBUG   2025-09-02 11:54:53,253  pymodbus.logging:transaction.py:67 Adding transaction 0
DEBUG   2025-09-02 11:54:53,253  pymodbus.logging:transaction.py:78 Getting transaction 0
DEBUG   2025-09-02 11:54:53,253  pymodbus.logging:transaction.py:258 Changing transaction state from "PROCESSING REPLY" to "TRANSACTION_COMPLETE"
INFO    2025-09-02 11:54:53,253  root:modbus_rtu_tcp.py:44 read_measurement ret is:ReadHoldingRegistersResponse (2)
INFO    2025-09-02 11:54:53,253  root:acudc260_modbus_get.py:215 read p_sum_power ret is:[15686, 60480]
DEBUG   2025-09-02 11:54:53,354  pymodbus.logging:transaction.py:184 Current transaction state - TRANSACTION_COMPLETE
DEBUG   2025-09-02 11:54:53,354  pymodbus.logging:transaction.py:193 Running transaction 0
DEBUG   2025-09-02 11:54:53,354  pymodbus.logging:transaction.py:293 SEND: 0x1 0x3 0x30 0x0 0x0 0x2 0xcb 0xb
DEBUG   2025-09-02 11:54:53,354  pymodbus.logging:serial.py:271 Changing state to IDLE - Last Frame End - 1756785293.253239 Current Time stamp - 1756785293.354676
DEBUG   2025-09-02 11:54:53,354  pymodbus.logging:base.py:250 New Transaction state "SENDING"
DEBUG   2025-09-02 11:54:53,354  pymodbus.logging:transaction.py:317 Changing transaction state from "SENDING" to "WAITING FOR REPLY"
DEBUG   2025-09-02 11:54:53,380  pymodbus.logging:transaction.py:419 Changing transaction state from "WAITING FOR REPLY" to "PROCESSING REPLY"
DEBUG   2025-09-02 11:54:53,380  pymodbus.logging:transaction.py:324 RECV: 0x1 0x3 0x4 0x42 0x6f 0xfb 0x3e 0x1c 0xb6
DEBUG   2025-09-02 11:54:53,380  pymodbus.logging:base.py:92 Processing: 0x1 0x3 0x4 0x42 0x6f 0xfb 0x3e 0x1c 0xb6
DEBUG   2025-09-02 11:54:53,380  pymodbus.logging:decoders.py:103 decode PDU for 3
DEBUG   2025-09-02 11:54:53,380  pymodbus.logging:base.py:102 Frame advanced, resetting header!!
DEBUG   2025-09-02 11:54:53,380  pymodbus.logging:transaction.py:67 Adding transaction 0
DEBUG   2025-09-02 11:54:53,380  pymodbus.logging:transaction.py:78 Getting transaction 0
DEBUG   2025-09-02 11:54:53,380  pymodbus.logging:transaction.py:258 Changing transaction state from "PROCESSING REPLY" to "TRANSACTION_COMPLETE"
INFO    2025-09-02 11:54:53,380  root:modbus_rtu_tcp.py:44 read_measurement ret is:ReadHoldingRegistersResponse (2)
INFO    2025-09-02 11:54:53,380  root:acudc260_modbus_get.py:131 read u_voltage ret is:[17007, 64318]
DEBUG   2025-09-02 11:54:53,380  pymodbus.logging:transaction.py:184 Current transaction state - TRANSACTION_COMPLETE
DEBUG   2025-09-02 11:54:53,380  pymodbus.logging:transaction.py:193 Running transaction 0
DEBUG   2025-09-02 11:54:53,380  pymodbus.logging:transaction.py:293 SEND: 0x1 0x3 0x30 0x2 0x0 0x2 0x6a 0xcb
DEBUG   2025-09-02 11:54:53,380  pymodbus.logging:serial.py:271 Changing state to IDLE - Last Frame End - 1756785293.380676 Current Time stamp - 1756785293.380676
DEBUG   2025-09-02 11:54:53,381  pymodbus.logging:serial.py:279 Waiting for 3.5 char before next send - 1.823 ms
DEBUG   2025-09-02 11:54:53,383  pymodbus.logging:base.py:250 New Transaction state "SENDING"
DEBUG   2025-09-02 11:54:53,383  pymodbus.logging:transaction.py:317 Changing transaction state from "SENDING" to "WAITING FOR REPLY"
DEBUG   2025-09-02 11:54:53,411  pymodbus.logging:transaction.py:419 Changing transaction state from "WAITING FOR REPLY" to "PROCESSING REPLY"
DEBUG   2025-09-02 11:54:53,411  pymodbus.logging:transaction.py:324 RECV: 0x1 0x3 0x4 0x3e 0xd5 0xb5 0xe0 0x91 0x3b
DEBUG   2025-09-02 11:54:53,411  pymodbus.logging:base.py:92 Processing: 0x1 0x3 0x4 0x3e 0xd5 0xb5 0xe0 0x91 0x3b
DEBUG   2025-09-02 11:54:53,411  pymodbus.logging:decoders.py:103 decode PDU for 3
DEBUG   2025-09-02 11:54:53,411  pymodbus.logging:base.py:102 Frame advanced, resetting header!!
DEBUG   2025-09-02 11:54:53,411  pymodbus.logging:transaction.py:67 Adding transaction 0
DEBUG   2025-09-02 11:54:53,411  pymodbus.logging:transaction.py:78 Getting transaction 0
DEBUG   2025-09-02 11:54:53,411  pymodbus.logging:transaction.py:258 Changing transaction state from "PROCESSING REPLY" to "TRANSACTION_COMPLETE"
INFO    2025-09-02 11:54:53,411  root:modbus_rtu_tcp.py:44 read_measurement ret is:ReadHoldingRegistersResponse (2)
INFO    2025-09-02 11:54:53,411  root:acudc260_modbus_get.py:145 read i1_current ret is:[16085, 46560]
DEBUG   2025-09-02 11:54:53,411  pymodbus.logging:transaction.py:184 Current transaction state - TRANSACTION_COMPLETE
DEBUG   2025-09-02 11:54:53,411  pymodbus.logging:transaction.py:193 Running transaction 0
DEBUG   2025-09-02 11:54:53,411  pymodbus.logging:transaction.py:293 SEND: 0x1 0x3 0x30 0x4 0x0 0x2 0x8a 0xca
DEBUG   2025-09-02 11:54:53,411  pymodbus.logging:serial.py:271 Changing state to IDLE - Last Frame End - 1756785293.411741 Current Time stamp - 1756785293.411741
DEBUG   2025-09-02 11:54:53,411  pymodbus.logging:serial.py:279 Waiting for 3.5 char before next send - 1.823 ms
DEBUG   2025-09-02 11:54:53,414  pymodbus.logging:base.py:250 New Transaction state "SENDING"
DEBUG   2025-09-02 11:54:53,414  pymodbus.logging:transaction.py:317 Changing transaction state from "SENDING" to "WAITING FOR REPLY"
DEBUG   2025-09-02 11:54:53,443  pymodbus.logging:transaction.py:419 Changing transaction state from "WAITING FOR REPLY" to "PROCESSING REPLY"
DEBUG   2025-09-02 11:54:53,443  pymodbus.logging:transaction.py:324 RECV: 0x1 0x3 0x4 0x3e 0xd0 0x20 0x3a 0x6f 0xf1
DEBUG   2025-09-02 11:54:53,443  pymodbus.logging:base.py:92 Processing: 0x1 0x3 0x4 0x3e 0xd0 0x20 0x3a 0x6f 0xf1
DEBUG   2025-09-02 11:54:53,443  pymodbus.logging:decoders.py:103 decode PDU for 3
DEBUG   2025-09-02 11:54:53,443  pymodbus.logging:base.py:102 Frame advanced, resetting header!!
DEBUG   2025-09-02 11:54:53,443  pymodbus.logging:transaction.py:67 Adding transaction 0
DEBUG   2025-09-02 11:54:53,443  pymodbus.logging:transaction.py:78 Getting transaction 0
DEBUG   2025-09-02 11:54:53,444  pymodbus.logging:transaction.py:258 Changing transaction state from "PROCESSING REPLY" to "TRANSACTION_COMPLETE"
INFO    2025-09-02 11:54:53,444  root:modbus_rtu_tcp.py:44 read_measurement ret is:ReadHoldingRegistersResponse (2)
INFO    2025-09-02 11:54:53,444  root:acudc260_modbus_get.py:159 read i2_current ret is:[16080, 8250]
DEBUG   2025-09-02 11:54:53,444  pymodbus.logging:transaction.py:184 Current transaction state - TRANSACTION_COMPLETE
DEBUG   2025-09-02 11:54:53,444  pymodbus.logging:transaction.py:193 Running transaction 0
DEBUG   2025-09-02 11:54:53,444  pymodbus.logging:transaction.py:293 SEND: 0x1 0x3 0x30 0x6 0x0 0x2 0x2b 0xa
DEBUG   2025-09-02 11:54:53,444  pymodbus.logging:serial.py:271 Changing state to IDLE - Last Frame End - 1756785293.443465 Current Time stamp - 1756785293.44458
DEBUG   2025-09-02 11:54:53,444  pymodbus.logging:serial.py:279 Waiting for 3.5 char before next send - 1.823 ms
DEBUG   2025-09-02 11:54:53,447  pymodbus.logging:base.py:250 New Transaction state "SENDING"
DEBUG   2025-09-02 11:54:53,447  pymodbus.logging:transaction.py:317 Changing transaction state from "SENDING" to "WAITING FOR REPLY"
DEBUG   2025-09-02 11:54:53,471  pymodbus.logging:transaction.py:419 Changing transaction state from "WAITING FOR REPLY" to "PROCESSING REPLY"
DEBUG   2025-09-02 11:54:53,484  pymodbus.logging:transaction.py:324 RECV: 0x1 0x3 0x4 0x3f 0x52 0xeb 0xd 0xd8 0xc3
DEBUG   2025-09-02 11:54:53,485  pymodbus.logging:base.py:92 Processing: 0x1 0x3 0x4 0x3f 0x52 0xeb 0xd 0xd8 0xc3
DEBUG   2025-09-02 11:54:53,485  pymodbus.logging:decoders.py:103 decode PDU for 3
DEBUG   2025-09-02 11:54:53,485  pymodbus.logging:base.py:102 Frame advanced, resetting header!!
DEBUG   2025-09-02 11:54:53,485  pymodbus.logging:transaction.py:67 Adding transaction 0
DEBUG   2025-09-02 11:54:53,485  pymodbus.logging:transaction.py:78 Getting transaction 0
DEBUG   2025-09-02 11:54:53,485  pymodbus.logging:transaction.py:258 Changing transaction state from "PROCESSING REPLY" to "TRANSACTION_COMPLETE"
INFO    2025-09-02 11:54:53,485  root:modbus_rtu_tcp.py:44 read_measurement ret is:ReadHoldingRegistersResponse (2)
INFO    2025-09-02 11:54:53,485  root:acudc260_modbus_get.py:173 read i_sum_current ret is:[16210, 60173]
DEBUG   2025-09-02 11:54:53,485  pymodbus.logging:transaction.py:184 Current transaction state - TRANSACTION_COMPLETE
DEBUG   2025-09-02 11:54:53,485  pymodbus.logging:transaction.py:193 Running transaction 0
DEBUG   2025-09-02 11:54:53,485  pymodbus.logging:transaction.py:293 SEND: 0x1 0x3 0x30 0x8 0x0 0x2 0x4a 0xc9
DEBUG   2025-09-02 11:54:53,485  pymodbus.logging:serial.py:271 Changing state to IDLE - Last Frame End - 1756785293.471495 Current Time stamp - 1756785293.485244
DEBUG   2025-09-02 11:54:53,485  pymodbus.logging:base.py:250 New Transaction state "SENDING"
DEBUG   2025-09-02 11:54:53,486  pymodbus.logging:transaction.py:317 Changing transaction state from "SENDING" to "WAITING FOR REPLY"
DEBUG   2025-09-02 11:54:53,520  pymodbus.logging:transaction.py:419 Changing transaction state from "WAITING FOR REPLY" to "PROCESSING REPLY"
DEBUG   2025-09-02 11:54:53,520  pymodbus.logging:transaction.py:324 RECV: 0x1 0x3 0x4 0x3c 0xc9 0x74 0x28 0x1 0x43
DEBUG   2025-09-02 11:54:53,520  pymodbus.logging:base.py:92 Processing: 0x1 0x3 0x4 0x3c 0xc9 0x74 0x28 0x1 0x43
DEBUG   2025-09-02 11:54:53,520  pymodbus.logging:decoders.py:103 decode PDU for 3
DEBUG   2025-09-02 11:54:53,520  pymodbus.logging:base.py:102 Frame advanced, resetting header!!
DEBUG   2025-09-02 11:54:53,520  pymodbus.logging:transaction.py:67 Adding transaction 0
DEBUG   2025-09-02 11:54:53,520  pymodbus.logging:transaction.py:78 Getting transaction 0
DEBUG   2025-09-02 11:54:53,520  pymodbus.logging:transaction.py:258 Changing transaction state from "PROCESSING REPLY" to "TRANSACTION_COMPLETE"
INFO    2025-09-02 11:54:53,520  root:modbus_rtu_tcp.py:44 read_measurement ret is:ReadHoldingRegistersResponse (2)
INFO    2025-09-02 11:54:53,520  root:acudc260_modbus_get.py:187 read p1_power ret is:[15561, 29736]
DEBUG   2025-09-02 11:54:53,520  pymodbus.logging:transaction.py:184 Current transaction state - TRANSACTION_COMPLETE
DEBUG   2025-09-02 11:54:53,520  pymodbus.logging:transaction.py:193 Running transaction 0
DEBUG   2025-09-02 11:54:53,521  pymodbus.logging:transaction.py:293 SEND: 0x1 0x3 0x30 0xa 0x0 0x2 0xeb 0x9
DEBUG   2025-09-02 11:54:53,521  pymodbus.logging:serial.py:271 Changing state to IDLE - Last Frame End - 1756785293.520105 Current Time stamp - 1756785293.521075
DEBUG   2025-09-02 11:54:53,521  pymodbus.logging:serial.py:279 Waiting for 3.5 char before next send - 1.823 ms
DEBUG   2025-09-02 11:54:53,523  pymodbus.logging:base.py:250 New Transaction state "SENDING"
DEBUG   2025-09-02 11:54:53,523  pymodbus.logging:transaction.py:317 Changing transaction state from "SENDING" to "WAITING FOR REPLY"
DEBUG   2025-09-02 11:54:53,551  pymodbus.logging:transaction.py:419 Changing transaction state from "WAITING FOR REPLY" to "PROCESSING REPLY"
DEBUG   2025-09-02 11:54:53,551  pymodbus.logging:transaction.py:324 RECV: 0x1 0x3 0x4 0x3c 0xbe 0x10 0x41 0x5b 0xb7
DEBUG   2025-09-02 11:54:53,551  pymodbus.logging:base.py:92 Processing: 0x1 0x3 0x4 0x3c 0xbe 0x10 0x41 0x5b 0xb7
DEBUG   2025-09-02 11:54:53,552  pymodbus.logging:decoders.py:103 decode PDU for 3
DEBUG   2025-09-02 11:54:53,552  pymodbus.logging:base.py:102 Frame advanced, resetting header!!
DEBUG   2025-09-02 11:54:53,552  pymodbus.logging:transaction.py:67 Adding transaction 0
DEBUG   2025-09-02 11:54:53,552  pymodbus.logging:transaction.py:78 Getting transaction 0
DEBUG   2025-09-02 11:54:53,552  pymodbus.logging:transaction.py:258 Changing transaction state from "PROCESSING REPLY" to "TRANSACTION_COMPLETE"
INFO    2025-09-02 11:54:53,552  root:modbus_rtu_tcp.py:44 read_measurement ret is:ReadHoldingRegistersResponse (2)
INFO    2025-09-02 11:54:53,552  root:acudc260_modbus_get.py:201 read p2_power ret is:[15550, 4161]
DEBUG   2025-09-02 11:54:53,552  pymodbus.logging:transaction.py:184 Current transaction state - TRANSACTION_COMPLETE
DEBUG   2025-09-02 11:54:53,552  pymodbus.logging:transaction.py:193 Running transaction 0
DEBUG   2025-09-02 11:54:53,552  pymodbus.logging:transaction.py:293 SEND: 0x1 0x3 0x30 0xc 0x0 0x2 0xb 0x8
DEBUG   2025-09-02 11:54:53,552  pymodbus.logging:serial.py:271 Changing state to IDLE - Last Frame End - 1756785293.551729 Current Time stamp - 1756785293.552634
DEBUG   2025-09-02 11:54:53,552  pymodbus.logging:serial.py:279 Waiting for 3.5 char before next send - 1.823 ms
DEBUG   2025-09-02 11:54:53,555  pymodbus.logging:base.py:250 New Transaction state "SENDING"
DEBUG   2025-09-02 11:54:53,555  pymodbus.logging:transaction.py:317 Changing transaction state from "SENDING" to "WAITING FOR REPLY"
DEBUG   2025-09-02 11:54:53,588  pymodbus.logging:transaction.py:419 Changing transaction state from "WAITING FOR REPLY" to "PROCESSING REPLY"
DEBUG   2025-09-02 11:54:53,588  pymodbus.logging:transaction.py:324 RECV: 0x1 0x3 0x4 0x3d 0x44 0xb3 0xbe 0x42 0xca
DEBUG   2025-09-02 11:54:53,588  pymodbus.logging:base.py:92 Processing: 0x1 0x3 0x4 0x3d 0x44 0xb3 0xbe 0x42 0xca
DEBUG   2025-09-02 11:54:53,588  pymodbus.logging:decoders.py:103 decode PDU for 3
DEBUG   2025-09-02 11:54:53,588  pymodbus.logging:base.py:102 Frame advanced, resetting header!!
DEBUG   2025-09-02 11:54:53,588  pymodbus.logging:transaction.py:67 Adding transaction 0
DEBUG   2025-09-02 11:54:53,588  pymodbus.logging:transaction.py:78 Getting transaction 0
DEBUG   2025-09-02 11:54:53,588  pymodbus.logging:transaction.py:258 Changing transaction state from "PROCESSING REPLY" to "TRANSACTION_COMPLETE"
INFO    2025-09-02 11:54:53,588  root:modbus_rtu_tcp.py:44 read_measurement ret is:ReadHoldingRegistersResponse (2)
INFO    2025-09-02 11:54:53,588  root:acudc260_modbus_get.py:215 read p_sum_power ret is:[15684, 46014]
DEBUG   2025-09-02 11:54:53,689  pymodbus.logging:transaction.py:184 Current transaction state - TRANSACTION_COMPLETE
DEBUG   2025-09-02 11:54:53,689  pymodbus.logging:transaction.py:193 Running transaction 0
DEBUG   2025-09-02 11:54:53,689  pymodbus.logging:transaction.py:293 SEND: 0x1 0x3 0x30 0x0 0x0 0x2 0xcb 0xb
DEBUG   2025-09-02 11:54:53,689  pymodbus.logging:serial.py:271 Changing state to IDLE - Last Frame End - 1756785293.588531 Current Time stamp - 1756785293.68977
DEBUG   2025-09-02 11:54:53,689  pymodbus.logging:base.py:250 New Transaction state "SENDING"
DEBUG   2025-09-02 11:54:53,690  pymodbus.logging:transaction.py:317 Changing transaction state from "SENDING" to "WAITING FOR REPLY"
DEBUG   2025-09-02 11:54:53,715  pymodbus.logging:transaction.py:419 Changing transaction state from "WAITING FOR REPLY" to "PROCESSING REPLY"
DEBUG   2025-09-02 11:54:53,715  pymodbus.logging:transaction.py:324 RECV: 0x1 0x3 0x4 0x42 0x6f 0xfd 0x61 0x5f 0x2e
DEBUG   2025-09-02 11:54:53,715  pymodbus.logging:base.py:92 Processing: 0x1 0x3 0x4 0x42 0x6f 0xfd 0x61 0x5f 0x2e
DEBUG   2025-09-02 11:54:53,715  pymodbus.logging:decoders.py:103 decode PDU for 3
DEBUG   2025-09-02 11:54:53,715  pymodbus.logging:base.py:102 Frame advanced, resetting header!!
DEBUG   2025-09-02 11:54:53,715  pymodbus.logging:transaction.py:67 Adding transaction 0
DEBUG   2025-09-02 11:54:53,715  pymodbus.logging:transaction.py:78 Getting transaction 0
DEBUG   2025-09-02 11:54:53,716  pymodbus.logging:transaction.py:258 Changing transaction state from "PROCESSING REPLY" to "TRANSACTION_COMPLETE"
INFO    2025-09-02 11:54:53,716  root:modbus_rtu_tcp.py:44 read_measurement ret is:ReadHoldingRegistersResponse (2)
INFO    2025-09-02 11:54:53,716  root:acudc260_modbus_get.py:131 read u_voltage ret is:[17007, 64865]
DEBUG   2025-09-02 11:54:53,716  pymodbus.logging:transaction.py:184 Current transaction state - TRANSACTION_COMPLETE
DEBUG   2025-09-02 11:54:53,716  pymodbus.logging:transaction.py:193 Running transaction 0
DEBUG   2025-09-02 11:54:53,716  pymodbus.logging:transaction.py:293 SEND: 0x1 0x3 0x30 0x2 0x0 0x2 0x6a 0xcb
DEBUG   2025-09-02 11:54:53,716  pymodbus.logging:serial.py:271 Changing state to IDLE - Last Frame End - 1756785293.715318 Current Time stamp - 1756785293.716335
DEBUG   2025-09-02 11:54:53,716  pymodbus.logging:serial.py:279 Waiting for 3.5 char before next send - 1.823 ms
DEBUG   2025-09-02 11:54:53,719  pymodbus.logging:base.py:250 New Transaction state "SENDING"
DEBUG   2025-09-02 11:54:53,719  pymodbus.logging:transaction.py:317 Changing transaction state from "SENDING" to "WAITING FOR REPLY"
DEBUG   2025-09-02 11:54:53,743  pymodbus.logging:transaction.py:419 Changing transaction state from "WAITING FOR REPLY" to "PROCESSING REPLY"
DEBUG   2025-09-02 11:54:53,744  pymodbus.logging:transaction.py:324 RECV: 0x1 0x3 0x4 0x3e 0xd4 0x93 0xd0 0xda 0x8f
DEBUG   2025-09-02 11:54:53,744  pymodbus.logging:base.py:92 Processing: 0x1 0x3 0x4 0x3e 0xd4 0x93 0xd0 0xda 0x8f
DEBUG   2025-09-02 11:54:53,744  pymodbus.logging:decoders.py:103 decode PDU for 3
DEBUG   2025-09-02 11:54:53,744  pymodbus.logging:base.py:102 Frame advanced, resetting header!!
DEBUG   2025-09-02 11:54:53,744  pymodbus.logging:transaction.py:67 Adding transaction 0
DEBUG   2025-09-02 11:54:53,744  pymodbus.logging:transaction.py:78 Getting transaction 0
DEBUG   2025-09-02 11:54:53,744  pymodbus.logging:transaction.py:258 Changing transaction state from "PROCESSING REPLY" to "TRANSACTION_COMPLETE"
INFO    2025-09-02 11:54:53,744  root:modbus_rtu_tcp.py:44 read_measurement ret is:ReadHoldingRegistersResponse (2)
INFO    2025-09-02 11:54:53,744  root:acudc260_modbus_get.py:145 read i1_current ret is:[16084, 37840]
DEBUG   2025-09-02 11:54:53,744  pymodbus.logging:transaction.py:184 Current transaction state - TRANSACTION_COMPLETE
DEBUG   2025-09-02 11:54:53,744  pymodbus.logging:transaction.py:193 Running transaction 0
DEBUG   2025-09-02 11:54:53,745  pymodbus.logging:transaction.py:293 SEND: 0x1 0x3 0x30 0x4 0x0 0x2 0x8a 0xca
DEBUG   2025-09-02 11:54:53,745  pymodbus.logging:serial.py:271 Changing state to IDLE - Last Frame End - 1756785293.743444 Current Time stamp - 1756785293.745338
DEBUG   2025-09-02 11:54:53,745  pymodbus.logging:serial.py:279 Waiting for 3.5 char before next send - 1.823 ms
DEBUG   2025-09-02 11:54:53,748  pymodbus.logging:base.py:250 New Transaction state "SENDING"
DEBUG   2025-09-02 11:54:53,748  pymodbus.logging:transaction.py:317 Changing transaction state from "SENDING" to "WAITING FOR REPLY"
DEBUG   2025-09-02 11:54:53,778  pymodbus.logging:transaction.py:419 Changing transaction state from "WAITING FOR REPLY" to "PROCESSING REPLY"
DEBUG   2025-09-02 11:54:53,778  pymodbus.logging:transaction.py:324 RECV: 0x1 0x3 0x4 0x3e 0xd2 0xa2 0x30 0x2e 0x96
DEBUG   2025-09-02 11:54:53,778  pymodbus.logging:base.py:92 Processing: 0x1 0x3 0x4 0x3e 0xd2 0xa2 0x30 0x2e 0x96
DEBUG   2025-09-02 11:54:53,778  pymodbus.logging:decoders.py:103 decode PDU for 3
DEBUG   2025-09-02 11:54:53,778  pymodbus.logging:base.py:102 Frame advanced, resetting header!!
DEBUG   2025-09-02 11:54:53,778  pymodbus.logging:transaction.py:67 Adding transaction 0
DEBUG   2025-09-02 11:54:53,778  pymodbus.logging:transaction.py:78 Getting transaction 0
DEBUG   2025-09-02 11:54:53,778  pymodbus.logging:transaction.py:258 Changing transaction state from "PROCESSING REPLY" to "TRANSACTION_COMPLETE"
INFO    2025-09-02 11:54:53,778  root:modbus_rtu_tcp.py:44 read_measurement ret is:ReadHoldingRegistersResponse (2)
INFO    2025-09-02 11:54:53,778  root:acudc260_modbus_get.py:159 read i2_current ret is:[16082, 41520]
DEBUG   2025-09-02 11:54:53,778  pymodbus.logging:transaction.py:184 Current transaction state - TRANSACTION_COMPLETE
DEBUG   2025-09-02 11:54:53,778  pymodbus.logging:transaction.py:193 Running transaction 0
DEBUG   2025-09-02 11:54:53,778  pymodbus.logging:transaction.py:293 SEND: 0x1 0x3 0x30 0x6 0x0 0x2 0x2b 0xa
DEBUG   2025-09-02 11:54:53,778  pymodbus.logging:serial.py:271 Changing state to IDLE - Last Frame End - 1756785293.778822 Current Time stamp - 1756785293.778822
DEBUG   2025-09-02 11:54:53,778  pymodbus.logging:serial.py:279 Waiting for 3.5 char before next send - 1.823 ms
DEBUG   2025-09-02 11:54:53,781  pymodbus.logging:base.py:250 New Transaction state "SENDING"
DEBUG   2025-09-02 11:54:53,781  pymodbus.logging:transaction.py:317 Changing transaction state from "SENDING" to "WAITING FOR REPLY"
DEBUG   2025-09-02 11:54:53,811  pymodbus.logging:transaction.py:419 Changing transaction state from "WAITING FOR REPLY" to "PROCESSING REPLY"
DEBUG   2025-09-02 11:54:53,811  pymodbus.logging:transaction.py:324 RECV: 0x1 0x3 0x4 0x3f 0x4f 0x4a 0x70 0xf1 0x74
DEBUG   2025-09-02 11:54:53,811  pymodbus.logging:base.py:92 Processing: 0x1 0x3 0x4 0x3f 0x4f 0x4a 0x70 0xf1 0x74
DEBUG   2025-09-02 11:54:53,811  pymodbus.logging:decoders.py:103 decode PDU for 3
DEBUG   2025-09-02 11:54:53,811  pymodbus.logging:base.py:102 Frame advanced, resetting header!!
DEBUG   2025-09-02 11:54:53,811  pymodbus.logging:transaction.py:67 Adding transaction 0
DEBUG   2025-09-02 11:54:53,811  pymodbus.logging:transaction.py:78 Getting transaction 0
DEBUG   2025-09-02 11:54:53,811  pymodbus.logging:transaction.py:258 Changing transaction state from "PROCESSING REPLY" to "TRANSACTION_COMPLETE"
INFO    2025-09-02 11:54:53,811  root:modbus_rtu_tcp.py:44 read_measurement ret is:ReadHoldingRegistersResponse (2)
INFO    2025-09-02 11:54:53,811  root:acudc260_modbus_get.py:173 read i_sum_current ret is:[16207, 19056]
DEBUG   2025-09-02 11:54:53,811  pymodbus.logging:transaction.py:184 Current transaction state - TRANSACTION_COMPLETE
DEBUG   2025-09-02 11:54:53,811  pymodbus.logging:transaction.py:193 Running transaction 0
DEBUG   2025-09-02 11:54:53,812  pymodbus.logging:transaction.py:293 SEND: 0x1 0x3 0x30 0x8 0x0 0x2 0x4a 0xc9
DEBUG   2025-09-02 11:54:53,812  pymodbus.logging:serial.py:271 Changing state to IDLE - Last Frame End - 1756785293.811468 Current Time stamp - 1756785293.81248
DEBUG   2025-09-02 11:54:53,812  pymodbus.logging:serial.py:279 Waiting for 3.5 char before next send - 1.823 ms
DEBUG   2025-09-02 11:54:53,814  pymodbus.logging:base.py:250 New Transaction state "SENDING"
DEBUG   2025-09-02 11:54:53,814  pymodbus.logging:transaction.py:317 Changing transaction state from "SENDING" to "WAITING FOR REPLY"
DEBUG   2025-09-02 11:54:53,844  pymodbus.logging:transaction.py:419 Changing transaction state from "WAITING FOR REPLY" to "PROCESSING REPLY"
DEBUG   2025-09-02 11:54:53,844  pymodbus.logging:transaction.py:324 RECV: 0x1 0x3 0x4 0x3c 0xc3 0xcf 0x95 0x93 0xc0
DEBUG   2025-09-02 11:54:53,844  pymodbus.logging:base.py:92 Processing: 0x1 0x3 0x4 0x3c 0xc3 0xcf 0x95 0x93 0xc0
DEBUG   2025-09-02 11:54:53,844  pymodbus.logging:decoders.py:103 decode PDU for 3
DEBUG   2025-09-02 11:54:53,844  pymodbus.logging:base.py:102 Frame advanced, resetting header!!
DEBUG   2025-09-02 11:54:53,844  pymodbus.logging:transaction.py:67 Adding transaction 0
DEBUG   2025-09-02 11:54:53,844  pymodbus.logging:transaction.py:78 Getting transaction 0
DEBUG   2025-09-02 11:54:53,844  pymodbus.logging:transaction.py:258 Changing transaction state from "PROCESSING REPLY" to "TRANSACTION_COMPLETE"
INFO    2025-09-02 11:54:53,844  root:modbus_rtu_tcp.py:44 read_measurement ret is:ReadHoldingRegistersResponse (2)
INFO    2025-09-02 11:54:53,844  root:acudc260_modbus_get.py:187 read p1_power ret is:[15555, 53141]
DEBUG   2025-09-02 11:54:53,844  pymodbus.logging:transaction.py:184 Current transaction state - TRANSACTION_COMPLETE
DEBUG   2025-09-02 11:54:53,844  pymodbus.logging:transaction.py:193 Running transaction 0
DEBUG   2025-09-02 11:54:53,844  pymodbus.logging:transaction.py:293 SEND: 0x1 0x3 0x30 0xa 0x0 0x2 0xeb 0x9
DEBUG   2025-09-02 11:54:53,844  pymodbus.logging:serial.py:271 Changing state to IDLE - Last Frame End - 1756785293.844683 Current Time stamp - 1756785293.844683
DEBUG   2025-09-02 11:54:53,844  pymodbus.logging:serial.py:279 Waiting for 3.5 char before next send - 1.823 ms
DEBUG   2025-09-02 11:54:53,847  pymodbus.logging:base.py:250 New Transaction state "SENDING"
DEBUG   2025-09-02 11:54:53,847  pymodbus.logging:transaction.py:317 Changing transaction state from "SENDING" to "WAITING FOR REPLY"
DEBUG   2025-09-02 11:54:53,875  pymodbus.logging:transaction.py:419 Changing transaction state from "WAITING FOR REPLY" to "PROCESSING REPLY"
DEBUG   2025-09-02 11:54:53,875  pymodbus.logging:transaction.py:324 RECV: 0x1 0x3 0x4 0x3c 0xc4 0x20 0x84 0xae 0x3d
DEBUG   2025-09-02 11:54:53,875  pymodbus.logging:base.py:92 Processing: 0x1 0x3 0x4 0x3c 0xc4 0x20 0x84 0xae 0x3d
DEBUG   2025-09-02 11:54:53,875  pymodbus.logging:decoders.py:103 decode PDU for 3
DEBUG   2025-09-02 11:54:53,875  pymodbus.logging:base.py:102 Frame advanced, resetting header!!
DEBUG   2025-09-02 11:54:53,875  pymodbus.logging:transaction.py:67 Adding transaction 0
DEBUG   2025-09-02 11:54:53,875  pymodbus.logging:transaction.py:78 Getting transaction 0
DEBUG   2025-09-02 11:54:53,875  pymodbus.logging:transaction.py:258 Changing transaction state from "PROCESSING REPLY" to "TRANSACTION_COMPLETE"
INFO    2025-09-02 11:54:53,875  root:modbus_rtu_tcp.py:44 read_measurement ret is:ReadHoldingRegistersResponse (2)
INFO    2025-09-02 11:54:53,875  root:acudc260_modbus_get.py:201 read p2_power ret is:[15556, 8324]
DEBUG   2025-09-02 11:54:53,875  pymodbus.logging:transaction.py:184 Current transaction state - TRANSACTION_COMPLETE
DEBUG   2025-09-02 11:54:53,875  pymodbus.logging:transaction.py:193 Running transaction 0
DEBUG   2025-09-02 11:54:53,875  pymodbus.logging:transaction.py:293 SEND: 0x1 0x3 0x30 0xc 0x0 0x2 0xb 0x8
DEBUG   2025-09-02 11:54:53,875  pymodbus.logging:serial.py:271 Changing state to IDLE - Last Frame End - 1756785293.87552 Current Time stamp - 1756785293.87552
DEBUG   2025-09-02 11:54:53,876  pymodbus.logging:serial.py:279 Waiting for 3.5 char before next send - 1.823 ms
DEBUG   2025-09-02 11:54:53,878  pymodbus.logging:base.py:250 New Transaction state "SENDING"
DEBUG   2025-09-02 11:54:53,878  pymodbus.logging:transaction.py:317 Changing transaction state from "SENDING" to "WAITING FOR REPLY"
DEBUG   2025-09-02 11:54:53,908  pymodbus.logging:transaction.py:419 Changing transaction state from "WAITING FOR REPLY" to "PROCESSING REPLY"
DEBUG   2025-09-02 11:54:53,908  pymodbus.logging:transaction.py:324 RECV: 0x1 0x3 0x4 0x3d 0x49 0xe1 0x18 0x6e 0x13
DEBUG   2025-09-02 11:54:53,908  pymodbus.logging:base.py:92 Processing: 0x1 0x3 0x4 0x3d 0x49 0xe1 0x18 0x6e 0x13
DEBUG   2025-09-02 11:54:53,908  pymodbus.logging:decoders.py:103 decode PDU for 3
DEBUG   2025-09-02 11:54:53,908  pymodbus.logging:base.py:102 Frame advanced, resetting header!!
DEBUG   2025-09-02 11:54:53,908  pymodbus.logging:transaction.py:67 Adding transaction 0
DEBUG   2025-09-02 11:54:53,908  pymodbus.logging:transaction.py:78 Getting transaction 0
DEBUG   2025-09-02 11:54:53,908  pymodbus.logging:transaction.py:258 Changing transaction state from "PROCESSING REPLY" to "TRANSACTION_COMPLETE"
INFO    2025-09-02 11:54:53,908  root:modbus_rtu_tcp.py:44 read_measurement ret is:ReadHoldingRegistersResponse (2)
INFO    2025-09-02 11:54:53,908  root:acudc260_modbus_get.py:215 read p_sum_power ret is:[15689, 57624]
DEBUG   2025-09-02 11:54:54,009  pymodbus.logging:transaction.py:184 Current transaction state - TRANSACTION_COMPLETE
DEBUG   2025-09-02 11:54:54,009  pymodbus.logging:transaction.py:193 Running transaction 0
DEBUG   2025-09-02 11:54:54,009  pymodbus.logging:transaction.py:293 SEND: 0x1 0x3 0x30 0x0 0x0 0x2 0xcb 0xb
DEBUG   2025-09-02 11:54:54,009  pymodbus.logging:serial.py:271 Changing state to IDLE - Last Frame End - 1756785293.908594 Current Time stamp - 1756785294.009647
DEBUG   2025-09-02 11:54:54,009  pymodbus.logging:base.py:250 New Transaction state "SENDING"
DEBUG   2025-09-02 11:54:54,009  pymodbus.logging:transaction.py:317 Changing transaction state from "SENDING" to "WAITING FOR REPLY"
DEBUG   2025-09-02 11:54:54,037  pymodbus.logging:transaction.py:419 Changing transaction state from "WAITING FOR REPLY" to "PROCESSING REPLY"
DEBUG   2025-09-02 11:54:54,037  pymodbus.logging:transaction.py:324 RECV: 0x1 0x3 0x4 0x42 0x6f 0xfe 0x5a 0x1e 0xd
DEBUG   2025-09-02 11:54:54,037  pymodbus.logging:base.py:92 Processing: 0x1 0x3 0x4 0x42 0x6f 0xfe 0x5a 0x1e 0xd
DEBUG   2025-09-02 11:54:54,037  pymodbus.logging:decoders.py:103 decode PDU for 3
DEBUG   2025-09-02 11:54:54,037  pymodbus.logging:base.py:102 Frame advanced, resetting header!!
DEBUG   2025-09-02 11:54:54,037  pymodbus.logging:transaction.py:67 Adding transaction 0
DEBUG   2025-09-02 11:54:54,037  pymodbus.logging:transaction.py:78 Getting transaction 0
DEBUG   2025-09-02 11:54:54,037  pymodbus.logging:transaction.py:258 Changing transaction state from "PROCESSING REPLY" to "TRANSACTION_COMPLETE"
INFO    2025-09-02 11:54:54,037  root:modbus_rtu_tcp.py:44 read_measurement ret is:ReadHoldingRegistersResponse (2)
INFO    2025-09-02 11:54:54,037  root:acudc260_modbus_get.py:131 read u_voltage ret is:[17007, 65114]
DEBUG   2025-09-02 11:54:54,037  pymodbus.logging:transaction.py:184 Current transaction state - TRANSACTION_COMPLETE
DEBUG   2025-09-02 11:54:54,037  pymodbus.logging:transaction.py:193 Running transaction 0
DEBUG   2025-09-02 11:54:54,037  pymodbus.logging:transaction.py:293 SEND: 0x1 0x3 0x30 0x2 0x0 0x2 0x6a 0xcb
DEBUG   2025-09-02 11:54:54,037  pymodbus.logging:serial.py:271 Changing state to IDLE - Last Frame End - 1756785294.037069 Current Time stamp - 1756785294.037069
DEBUG   2025-09-02 11:54:54,037  pymodbus.logging:serial.py:279 Waiting for 3.5 char before next send - 1.823 ms
DEBUG   2025-09-02 11:54:54,040  pymodbus.logging:base.py:250 New Transaction state "SENDING"
DEBUG   2025-09-02 11:54:54,040  pymodbus.logging:transaction.py:317 Changing transaction state from "SENDING" to "WAITING FOR REPLY"
DEBUG   2025-09-02 11:54:54,067  pymodbus.logging:transaction.py:419 Changing transaction state from "WAITING FOR REPLY" to "PROCESSING REPLY"
DEBUG   2025-09-02 11:54:54,067  pymodbus.logging:transaction.py:324 RECV: 0x1 0x3 0x4 0x3e 0xd4 0x73 0x30 0x92 0xc7
DEBUG   2025-09-02 11:54:54,067  pymodbus.logging:base.py:92 Processing: 0x1 0x3 0x4 0x3e 0xd4 0x73 0x30 0x92 0xc7
DEBUG   2025-09-02 11:54:54,067  pymodbus.logging:decoders.py:103 decode PDU for 3
DEBUG   2025-09-02 11:54:54,067  pymodbus.logging:base.py:102 Frame advanced, resetting header!!
DEBUG   2025-09-02 11:54:54,067  pymodbus.logging:transaction.py:67 Adding transaction 0
DEBUG   2025-09-02 11:54:54,067  pymodbus.logging:transaction.py:78 Getting transaction 0
DEBUG   2025-09-02 11:54:54,067  pymodbus.logging:transaction.py:258 Changing transaction state from "PROCESSING REPLY" to "TRANSACTION_COMPLETE"
INFO    2025-09-02 11:54:54,067  root:modbus_rtu_tcp.py:44 read_measurement ret is:ReadHoldingRegistersResponse (2)
INFO    2025-09-02 11:54:54,067  root:acudc260_modbus_get.py:145 read i1_current ret is:[16084, 29488]
DEBUG   2025-09-02 11:54:54,067  pymodbus.logging:transaction.py:184 Current transaction state - TRANSACTION_COMPLETE
DEBUG   2025-09-02 11:54:54,067  pymodbus.logging:transaction.py:193 Running transaction 0
DEBUG   2025-09-02 11:54:54,067  pymodbus.logging:transaction.py:293 SEND: 0x1 0x3 0x30 0x4 0x0 0x2 0x8a 0xca
DEBUG   2025-09-02 11:54:54,067  pymodbus.logging:serial.py:271 Changing state to IDLE - Last Frame End - 1756785294.067962 Current Time stamp - 1756785294.067962
DEBUG   2025-09-02 11:54:54,067  pymodbus.logging:serial.py:279 Waiting for 3.5 char before next send - 1.823 ms
DEBUG   2025-09-02 11:54:54,070  pymodbus.logging:base.py:250 New Transaction state "SENDING"
DEBUG   2025-09-02 11:54:54,070  pymodbus.logging:transaction.py:317 Changing transaction state from "SENDING" to "WAITING FOR REPLY"
DEBUG   2025-09-02 11:54:54,099  pymodbus.logging:transaction.py:419 Changing transaction state from "WAITING FOR REPLY" to "PROCESSING REPLY"
DEBUG   2025-09-02 11:54:54,099  pymodbus.logging:transaction.py:324 RECV: 0x1 0x3 0x4 0x3e 0xc7 0xe7 0xba 0x8c 0x65
DEBUG   2025-09-02 11:54:54,099  pymodbus.logging:base.py:92 Processing: 0x1 0x3 0x4 0x3e 0xc7 0xe7 0xba 0x8c 0x65
DEBUG   2025-09-02 11:54:54,099  pymodbus.logging:decoders.py:103 decode PDU for 3
DEBUG   2025-09-02 11:54:54,099  pymodbus.logging:base.py:102 Frame advanced, resetting header!!
DEBUG   2025-09-02 11:54:54,099  pymodbus.logging:transaction.py:67 Adding transaction 0
DEBUG   2025-09-02 11:54:54,099  pymodbus.logging:transaction.py:78 Getting transaction 0
DEBUG   2025-09-02 11:54:54,099  pymodbus.logging:transaction.py:258 Changing transaction state from "PROCESSING REPLY" to "TRANSACTION_COMPLETE"
INFO    2025-09-02 11:54:54,099  root:modbus_rtu_tcp.py:44 read_measurement ret is:ReadHoldingRegistersResponse (2)
INFO    2025-09-02 11:54:54,099  root:acudc260_modbus_get.py:159 read i2_current ret is:[16071, 59322]
DEBUG   2025-09-02 11:54:54,099  pymodbus.logging:transaction.py:184 Current transaction state - TRANSACTION_COMPLETE
DEBUG   2025-09-02 11:54:54,099  pymodbus.logging:transaction.py:193 Running transaction 0
DEBUG   2025-09-02 11:54:54,099  pymodbus.logging:transaction.py:293 SEND: 0x1 0x3 0x30 0x6 0x0 0x2 0x2b 0xa
DEBUG   2025-09-02 11:54:54,099  pymodbus.logging:serial.py:271 Changing state to IDLE - Last Frame End - 1756785294.099675 Current Time stamp - 1756785294.099675
DEBUG   2025-09-02 11:54:54,099  pymodbus.logging:serial.py:279 Waiting for 3.5 char before next send - 1.823 ms
DEBUG   2025-09-02 11:54:54,102  pymodbus.logging:base.py:250 New Transaction state "SENDING"
DEBUG   2025-09-02 11:54:54,102  pymodbus.logging:transaction.py:317 Changing transaction state from "SENDING" to "WAITING FOR REPLY"
DEBUG   2025-09-02 11:54:54,132  pymodbus.logging:transaction.py:419 Changing transaction state from "WAITING FOR REPLY" to "PROCESSING REPLY"
DEBUG   2025-09-02 11:54:54,132  pymodbus.logging:transaction.py:324 RECV: 0x1 0x3 0x4 0x3f 0x47 0xca 0xe8 0x10 0xdc
DEBUG   2025-09-02 11:54:54,132  pymodbus.logging:base.py:92 Processing: 0x1 0x3 0x4 0x3f 0x47 0xca 0xe8 0x10 0xdc
DEBUG   2025-09-02 11:54:54,132  pymodbus.logging:decoders.py:103 decode PDU for 3
DEBUG   2025-09-02 11:54:54,132  pymodbus.logging:base.py:102 Frame advanced, resetting header!!
DEBUG   2025-09-02 11:54:54,132  pymodbus.logging:transaction.py:67 Adding transaction 0
DEBUG   2025-09-02 11:54:54,132  pymodbus.logging:transaction.py:78 Getting transaction 0
DEBUG   2025-09-02 11:54:54,132  pymodbus.logging:transaction.py:258 Changing transaction state from "PROCESSING REPLY" to "TRANSACTION_COMPLETE"
INFO    2025-09-02 11:54:54,132  root:modbus_rtu_tcp.py:44 read_measurement ret is:ReadHoldingRegistersResponse (2)
INFO    2025-09-02 11:54:54,132  root:acudc260_modbus_get.py:173 read i_sum_current ret is:[16199, 51944]
DEBUG   2025-09-02 11:54:54,132  pymodbus.logging:transaction.py:184 Current transaction state - TRANSACTION_COMPLETE
DEBUG   2025-09-02 11:54:54,132  pymodbus.logging:transaction.py:193 Running transaction 0
DEBUG   2025-09-02 11:54:54,132  pymodbus.logging:transaction.py:293 SEND: 0x1 0x3 0x30 0x8 0x0 0x2 0x4a 0xc9
DEBUG   2025-09-02 11:54:54,132  pymodbus.logging:serial.py:271 Changing state to IDLE - Last Frame End - 1756785294.132751 Current Time stamp - 1756785294.132751
DEBUG   2025-09-02 11:54:54,134  pymodbus.logging:serial.py:279 Waiting for 3.5 char before next send - 1.823 ms
DEBUG   2025-09-02 11:54:54,135  pymodbus.logging:base.py:250 New Transaction state "SENDING"
DEBUG   2025-09-02 11:54:54,135  pymodbus.logging:transaction.py:317 Changing transaction state from "SENDING" to "WAITING FOR REPLY"
DEBUG   2025-09-02 11:54:54,162  pymodbus.logging:transaction.py:419 Changing transaction state from "WAITING FOR REPLY" to "PROCESSING REPLY"
DEBUG   2025-09-02 11:54:54,162  pymodbus.logging:transaction.py:324 RECV: 0x1 0x3 0x4 0x3c 0xbf 0xaa 0x48 0xb9 0x11
DEBUG   2025-09-02 11:54:54,162  pymodbus.logging:base.py:92 Processing: 0x1 0x3 0x4 0x3c 0xbf 0xaa 0x48 0xb9 0x11
DEBUG   2025-09-02 11:54:54,162  pymodbus.logging:decoders.py:103 decode PDU for 3
DEBUG   2025-09-02 11:54:54,162  pymodbus.logging:base.py:102 Frame advanced, resetting header!!
DEBUG   2025-09-02 11:54:54,162  pymodbus.logging:transaction.py:67 Adding transaction 0
DEBUG   2025-09-02 11:54:54,162  pymodbus.logging:transaction.py:78 Getting transaction 0
DEBUG   2025-09-02 11:54:54,162  pymodbus.logging:transaction.py:258 Changing transaction state from "PROCESSING REPLY" to "TRANSACTION_COMPLETE"
INFO    2025-09-02 11:54:54,162  root:modbus_rtu_tcp.py:44 read_measurement ret is:ReadHoldingRegistersResponse (2)
INFO    2025-09-02 11:54:54,162  root:acudc260_modbus_get.py:187 read p1_power ret is:[15551, 43592]
DEBUG   2025-09-02 11:54:54,162  pymodbus.logging:transaction.py:184 Current transaction state - TRANSACTION_COMPLETE
DEBUG   2025-09-02 11:54:54,163  pymodbus.logging:transaction.py:193 Running transaction 0
DEBUG   2025-09-02 11:54:54,163  pymodbus.logging:transaction.py:293 SEND: 0x1 0x3 0x30 0xa 0x0 0x2 0xeb 0x9
DEBUG   2025-09-02 11:54:54,163  pymodbus.logging:serial.py:271 Changing state to IDLE - Last Frame End - 1756785294.162659 Current Time stamp - 1756785294.163672
DEBUG   2025-09-02 11:54:54,163  pymodbus.logging:serial.py:279 Waiting for 3.5 char before next send - 1.823 ms
DEBUG   2025-09-02 11:54:54,166  pymodbus.logging:base.py:250 New Transaction state "SENDING"
DEBUG   2025-09-02 11:54:54,166  pymodbus.logging:transaction.py:317 Changing transaction state from "SENDING" to "WAITING FOR REPLY"
DEBUG   2025-09-02 11:54:54,194  pymodbus.logging:transaction.py:419 Changing transaction state from "WAITING FOR REPLY" to "PROCESSING REPLY"
DEBUG   2025-09-02 11:54:54,194  pymodbus.logging:transaction.py:324 RECV: 0x1 0x3 0x4 0x3c 0xc0 0xc5 0x1 0x64 0xcf
DEBUG   2025-09-02 11:54:54,195  pymodbus.logging:base.py:92 Processing: 0x1 0x3 0x4 0x3c 0xc0 0xc5 0x1 0x64 0xcf
DEBUG   2025-09-02 11:54:54,195  pymodbus.logging:decoders.py:103 decode PDU for 3
DEBUG   2025-09-02 11:54:54,195  pymodbus.logging:base.py:102 Frame advanced, resetting header!!
DEBUG   2025-09-02 11:54:54,195  pymodbus.logging:transaction.py:67 Adding transaction 0
DEBUG   2025-09-02 11:54:54,195  pymodbus.logging:transaction.py:78 Getting transaction 0
DEBUG   2025-09-02 11:54:54,195  pymodbus.logging:transaction.py:258 Changing transaction state from "PROCESSING REPLY" to "TRANSACTION_COMPLETE"
INFO    2025-09-02 11:54:54,195  root:modbus_rtu_tcp.py:44 read_measurement ret is:ReadHoldingRegistersResponse (2)
INFO    2025-09-02 11:54:54,195  root:acudc260_modbus_get.py:201 read p2_power ret is:[15552, 50433]
DEBUG   2025-09-02 11:54:54,195  pymodbus.logging:transaction.py:184 Current transaction state - TRANSACTION_COMPLETE
DEBUG   2025-09-02 11:54:54,195  pymodbus.logging:transaction.py:193 Running transaction 0
DEBUG   2025-09-02 11:54:54,196  pymodbus.logging:transaction.py:293 SEND: 0x1 0x3 0x30 0xc 0x0 0x2 0xb 0x8
DEBUG   2025-09-02 11:54:54,196  pymodbus.logging:serial.py:271 Changing state to IDLE - Last Frame End - 1756785294.194525 Current Time stamp - 1756785294.196366
DEBUG   2025-09-02 11:54:54,196  pymodbus.logging:serial.py:279 Waiting for 3.5 char before next send - 1.823 ms
DEBUG   2025-09-02 11:54:54,198  pymodbus.logging:base.py:250 New Transaction state "SENDING"
DEBUG   2025-09-02 11:54:54,198  pymodbus.logging:transaction.py:317 Changing transaction state from "SENDING" to "WAITING FOR REPLY"
DEBUG   2025-09-02 11:54:54,228  pymodbus.logging:transaction.py:419 Changing transaction state from "WAITING FOR REPLY" to "PROCESSING REPLY"
DEBUG   2025-09-02 11:54:54,228  pymodbus.logging:transaction.py:324 RECV: 0x1 0x3 0x4 0x3d 0x42 0xec 0xfa 0x9b 0x8
DEBUG   2025-09-02 11:54:54,228  pymodbus.logging:base.py:92 Processing: 0x1 0x3 0x4 0x3d 0x42 0xec 0xfa 0x9b 0x8
DEBUG   2025-09-02 11:54:54,228  pymodbus.logging:decoders.py:103 decode PDU for 3
DEBUG   2025-09-02 11:54:54,228  pymodbus.logging:base.py:102 Frame advanced, resetting header!!
DEBUG   2025-09-02 11:54:54,228  pymodbus.logging:transaction.py:67 Adding transaction 0
DEBUG   2025-09-02 11:54:54,228  pymodbus.logging:transaction.py:78 Getting transaction 0
DEBUG   2025-09-02 11:54:54,228  pymodbus.logging:transaction.py:258 Changing transaction state from "PROCESSING REPLY" to "TRANSACTION_COMPLETE"
INFO    2025-09-02 11:54:54,228  root:modbus_rtu_tcp.py:44 read_measurement ret is:ReadHoldingRegistersResponse (2)
INFO    2025-09-02 11:54:54,228  root:acudc260_modbus_get.py:215 read p_sum_power ret is:[15682, 60666]
DEBUG   2025-09-02 11:54:54,329  pymodbus.logging:transaction.py:184 Current transaction state - TRANSACTION_COMPLETE
DEBUG   2025-09-02 11:54:54,329  pymodbus.logging:transaction.py:193 Running transaction 0
DEBUG   2025-09-02 11:54:54,329  pymodbus.logging:transaction.py:293 SEND: 0x1 0x3 0x30 0x0 0x0 0x2 0xcb 0xb
DEBUG   2025-09-02 11:54:54,329  pymodbus.logging:serial.py:271 Changing state to IDLE - Last Frame End - 1756785294.228138 Current Time stamp - 1756785294.329257
DEBUG   2025-09-02 11:54:54,329  pymodbus.logging:base.py:250 New Transaction state "SENDING"
DEBUG   2025-09-02 11:54:54,329  pymodbus.logging:transaction.py:317 Changing transaction state from "SENDING" to "WAITING FOR REPLY"
DEBUG   2025-09-02 11:54:54,355  pymodbus.logging:transaction.py:419 Changing transaction state from "WAITING FOR REPLY" to "PROCESSING REPLY"
DEBUG   2025-09-02 11:54:54,355  pymodbus.logging:transaction.py:324 RECV: 0x1 0x3 0x4 0x42 0x6f 0xfc 0x61 0x5e 0xbe
DEBUG   2025-09-02 11:54:54,355  pymodbus.logging:base.py:92 Processing: 0x1 0x3 0x4 0x42 0x6f 0xfc 0x61 0x5e 0xbe
DEBUG   2025-09-02 11:54:54,355  pymodbus.logging:decoders.py:103 decode PDU for 3
DEBUG   2025-09-02 11:54:54,355  pymodbus.logging:base.py:102 Frame advanced, resetting header!!
DEBUG   2025-09-02 11:54:54,355  pymodbus.logging:transaction.py:67 Adding transaction 0
DEBUG   2025-09-02 11:54:54,355  pymodbus.logging:transaction.py:78 Getting transaction 0
DEBUG   2025-09-02 11:54:54,355  pymodbus.logging:transaction.py:258 Changing transaction state from "PROCESSING REPLY" to "TRANSACTION_COMPLETE"
INFO    2025-09-02 11:54:54,355  root:modbus_rtu_tcp.py:44 read_measurement ret is:ReadHoldingRegistersResponse (2)
INFO    2025-09-02 11:54:54,355  root:acudc260_modbus_get.py:131 read u_voltage ret is:[17007, 64609]
DEBUG   2025-09-02 11:54:54,355  pymodbus.logging:transaction.py:184 Current transaction state - TRANSACTION_COMPLETE
DEBUG   2025-09-02 11:54:54,355  pymodbus.logging:transaction.py:193 Running transaction 0
DEBUG   2025-09-02 11:54:54,355  pymodbus.logging:transaction.py:293 SEND: 0x1 0x3 0x30 0x2 0x0 0x2 0x6a 0xcb
DEBUG   2025-09-02 11:54:54,355  pymodbus.logging:serial.py:271 Changing state to IDLE - Last Frame End - 1756785294.355221 Current Time stamp - 1756785294.355221
DEBUG   2025-09-02 11:54:54,355  pymodbus.logging:serial.py:279 Waiting for 3.5 char before next send - 1.823 ms
DEBUG   2025-09-02 11:54:54,357  pymodbus.logging:base.py:250 New Transaction state "SENDING"
DEBUG   2025-09-02 11:54:54,357  pymodbus.logging:transaction.py:317 Changing transaction state from "SENDING" to "WAITING FOR REPLY"
DEBUG   2025-09-02 11:54:54,386  pymodbus.logging:transaction.py:419 Changing transaction state from "WAITING FOR REPLY" to "PROCESSING REPLY"
DEBUG   2025-09-02 11:54:54,386  pymodbus.logging:transaction.py:324 RECV: 0x1 0x3 0x4 0x3e 0xd3 0x66 0xd 0xec 0x47
DEBUG   2025-09-02 11:54:54,386  pymodbus.logging:base.py:92 Processing: 0x1 0x3 0x4 0x3e 0xd3 0x66 0xd 0xec 0x47
DEBUG   2025-09-02 11:54:54,386  pymodbus.logging:decoders.py:103 decode PDU for 3
DEBUG   2025-09-02 11:54:54,386  pymodbus.logging:base.py:102 Frame advanced, resetting header!!
DEBUG   2025-09-02 11:54:54,386  pymodbus.logging:transaction.py:67 Adding transaction 0
DEBUG   2025-09-02 11:54:54,386  pymodbus.logging:transaction.py:78 Getting transaction 0
DEBUG   2025-09-02 11:54:54,386  pymodbus.logging:transaction.py:258 Changing transaction state from "PROCESSING REPLY" to "TRANSACTION_COMPLETE"
INFO    2025-09-02 11:54:54,386  root:modbus_rtu_tcp.py:44 read_measurement ret is:ReadHoldingRegistersResponse (2)
INFO    2025-09-02 11:54:54,386  root:acudc260_modbus_get.py:145 read i1_current ret is:[16083, 26125]
DEBUG   2025-09-02 11:54:54,386  pymodbus.logging:transaction.py:184 Current transaction state - TRANSACTION_COMPLETE
DEBUG   2025-09-02 11:54:54,386  pymodbus.logging:transaction.py:193 Running transaction 0
DEBUG   2025-09-02 11:54:54,386  pymodbus.logging:transaction.py:293 SEND: 0x1 0x3 0x30 0x4 0x0 0x2 0x8a 0xca
DEBUG   2025-09-02 11:54:54,386  pymodbus.logging:serial.py:271 Changing state to IDLE - Last Frame End - 1756785294.386984 Current Time stamp - 1756785294.386984
DEBUG   2025-09-02 11:54:54,386  pymodbus.logging:serial.py:279 Waiting for 3.5 char before next send - 1.823 ms
DEBUG   2025-09-02 11:54:54,390  pymodbus.logging:base.py:250 New Transaction state "SENDING"
DEBUG   2025-09-02 11:54:54,390  pymodbus.logging:transaction.py:317 Changing transaction state from "SENDING" to "WAITING FOR REPLY"
DEBUG   2025-09-02 11:54:54,415  pymodbus.logging:transaction.py:419 Changing transaction state from "WAITING FOR REPLY" to "PROCESSING REPLY"
DEBUG   2025-09-02 11:54:54,415  pymodbus.logging:transaction.py:324 RECV: 0x1 0x3 0x4 0x3e 0xcf 0xb6 0xb3 0xf0 0x31
DEBUG   2025-09-02 11:54:54,415  pymodbus.logging:base.py:92 Processing: 0x1 0x3 0x4 0x3e 0xcf 0xb6 0xb3 0xf0 0x31
DEBUG   2025-09-02 11:54:54,415  pymodbus.logging:decoders.py:103 decode PDU for 3
DEBUG   2025-09-02 11:54:54,415  pymodbus.logging:base.py:102 Frame advanced, resetting header!!
DEBUG   2025-09-02 11:54:54,415  pymodbus.logging:transaction.py:67 Adding transaction 0
DEBUG   2025-09-02 11:54:54,415  pymodbus.logging:transaction.py:78 Getting transaction 0
DEBUG   2025-09-02 11:54:54,415  pymodbus.logging:transaction.py:258 Changing transaction state from "PROCESSING REPLY" to "TRANSACTION_COMPLETE"
INFO    2025-09-02 11:54:54,415  root:modbus_rtu_tcp.py:44 read_measurement ret is:ReadHoldingRegistersResponse (2)
INFO    2025-09-02 11:54:54,415  root:acudc260_modbus_get.py:159 read i2_current ret is:[16079, 46771]
DEBUG   2025-09-02 11:54:54,415  pymodbus.logging:transaction.py:184 Current transaction state - TRANSACTION_COMPLETE
DEBUG   2025-09-02 11:54:54,415  pymodbus.logging:transaction.py:193 Running transaction 0
DEBUG   2025-09-02 11:54:54,415  pymodbus.logging:transaction.py:293 SEND: 0x1 0x3 0x30 0x6 0x0 0x2 0x2b 0xa
DEBUG   2025-09-02 11:54:54,415  pymodbus.logging:serial.py:271 Changing state to IDLE - Last Frame End - 1756785294.415196 Current Time stamp - 1756785294.415196
DEBUG   2025-09-02 11:54:54,416  pymodbus.logging:serial.py:279 Waiting for 3.5 char before next send - 1.823 ms
DEBUG   2025-09-02 11:54:54,418  pymodbus.logging:base.py:250 New Transaction state "SENDING"
DEBUG   2025-09-02 11:54:54,418  pymodbus.logging:transaction.py:317 Changing transaction state from "SENDING" to "WAITING FOR REPLY"
DEBUG   2025-09-02 11:54:54,451  pymodbus.logging:transaction.py:419 Changing transaction state from "WAITING FOR REPLY" to "PROCESSING REPLY"
DEBUG   2025-09-02 11:54:54,451  pymodbus.logging:transaction.py:324 RECV: 0x1 0x3 0x4 0x3f 0x51 0x8e 0x60 0xc2 0x7e
DEBUG   2025-09-02 11:54:54,451  pymodbus.logging:base.py:92 Processing: 0x1 0x3 0x4 0x3f 0x51 0x8e 0x60 0xc2 0x7e
DEBUG   2025-09-02 11:54:54,451  pymodbus.logging:decoders.py:103 decode PDU for 3
DEBUG   2025-09-02 11:54:54,451  pymodbus.logging:base.py:102 Frame advanced, resetting header!!
DEBUG   2025-09-02 11:54:54,451  pymodbus.logging:transaction.py:67 Adding transaction 0
DEBUG   2025-09-02 11:54:54,451  pymodbus.logging:transaction.py:78 Getting transaction 0
DEBUG   2025-09-02 11:54:54,451  pymodbus.logging:transaction.py:258 Changing transaction state from "PROCESSING REPLY" to "TRANSACTION_COMPLETE"
INFO    2025-09-02 11:54:54,451  root:modbus_rtu_tcp.py:44 read_measurement ret is:ReadHoldingRegistersResponse (2)
INFO    2025-09-02 11:54:54,451  root:acudc260_modbus_get.py:173 read i_sum_current ret is:[16209, 36448]
DEBUG   2025-09-02 11:54:54,451  pymodbus.logging:transaction.py:184 Current transaction state - TRANSACTION_COMPLETE
DEBUG   2025-09-02 11:54:54,451  pymodbus.logging:transaction.py:193 Running transaction 0
DEBUG   2025-09-02 11:54:54,451  pymodbus.logging:transaction.py:293 SEND: 0x1 0x3 0x30 0x8 0x0 0x2 0x4a 0xc9
DEBUG   2025-09-02 11:54:54,451  pymodbus.logging:serial.py:271 Changing state to IDLE - Last Frame End - 1756785294.4511 Current Time stamp - 1756785294.4511
DEBUG   2025-09-02 11:54:54,451  pymodbus.logging:serial.py:279 Waiting for 3.5 char before next send - 1.823 ms
DEBUG   2025-09-02 11:54:54,453  pymodbus.logging:base.py:250 New Transaction state "SENDING"
DEBUG   2025-09-02 11:54:54,453  pymodbus.logging:transaction.py:317 Changing transaction state from "SENDING" to "WAITING FOR REPLY"
DEBUG   2025-09-02 11:54:54,484  pymodbus.logging:transaction.py:419 Changing transaction state from "WAITING FOR REPLY" to "PROCESSING REPLY"
DEBUG   2025-09-02 11:54:54,484  pymodbus.logging:transaction.py:324 RECV: 0x1 0x3 0x4 0x3c 0xce 0x4b 0x8f 0xe0 0xc8
DEBUG   2025-09-02 11:54:54,484  pymodbus.logging:base.py:92 Processing: 0x1 0x3 0x4 0x3c 0xce 0x4b 0x8f 0xe0 0xc8
DEBUG   2025-09-02 11:54:54,484  pymodbus.logging:decoders.py:103 decode PDU for 3
DEBUG   2025-09-02 11:54:54,484  pymodbus.logging:base.py:102 Frame advanced, resetting header!!
DEBUG   2025-09-02 11:54:54,484  pymodbus.logging:transaction.py:67 Adding transaction 0
DEBUG   2025-09-02 11:54:54,484  pymodbus.logging:transaction.py:78 Getting transaction 0
DEBUG   2025-09-02 11:54:54,484  pymodbus.logging:transaction.py:258 Changing transaction state from "PROCESSING REPLY" to "TRANSACTION_COMPLETE"
INFO    2025-09-02 11:54:54,484  root:modbus_rtu_tcp.py:44 read_measurement ret is:ReadHoldingRegistersResponse (2)
INFO    2025-09-02 11:54:54,484  root:acudc260_modbus_get.py:187 read p1_power ret is:[15566, 19343]
DEBUG   2025-09-02 11:54:54,484  pymodbus.logging:transaction.py:184 Current transaction state - TRANSACTION_COMPLETE
DEBUG   2025-09-02 11:54:54,484  pymodbus.logging:transaction.py:193 Running transaction 0
DEBUG   2025-09-02 11:54:54,484  pymodbus.logging:transaction.py:293 SEND: 0x1 0x3 0x30 0xa 0x0 0x2 0xeb 0x9
DEBUG   2025-09-02 11:54:54,484  pymodbus.logging:serial.py:271 Changing state to IDLE - Last Frame End - 1756785294.484047 Current Time stamp - 1756785294.484047
DEBUG   2025-09-02 11:54:54,484  pymodbus.logging:serial.py:279 Waiting for 3.5 char before next send - 1.823 ms
DEBUG   2025-09-02 11:54:54,486  pymodbus.logging:base.py:250 New Transaction state "SENDING"
DEBUG   2025-09-02 11:54:54,486  pymodbus.logging:transaction.py:317 Changing transaction state from "SENDING" to "WAITING FOR REPLY"
DEBUG   2025-09-02 11:54:54,516  pymodbus.logging:transaction.py:419 Changing transaction state from "WAITING FOR REPLY" to "PROCESSING REPLY"
DEBUG   2025-09-02 11:54:54,516  pymodbus.logging:transaction.py:324 RECV: 0x1 0x3 0x4 0x3c 0xc5 0xf4 0x1e 0x20 0x96
DEBUG   2025-09-02 11:54:54,516  pymodbus.logging:base.py:92 Processing: 0x1 0x3 0x4 0x3c 0xc5 0xf4 0x1e 0x20 0x96
DEBUG   2025-09-02 11:54:54,516  pymodbus.logging:decoders.py:103 decode PDU for 3
DEBUG   2025-09-02 11:54:54,516  pymodbus.logging:base.py:102 Frame advanced, resetting header!!
DEBUG   2025-09-02 11:54:54,516  pymodbus.logging:transaction.py:67 Adding transaction 0
DEBUG   2025-09-02 11:54:54,516  pymodbus.logging:transaction.py:78 Getting transaction 0
DEBUG   2025-09-02 11:54:54,516  pymodbus.logging:transaction.py:258 Changing transaction state from "PROCESSING REPLY" to "TRANSACTION_COMPLETE"
INFO    2025-09-02 11:54:54,516  root:modbus_rtu_tcp.py:44 read_measurement ret is:ReadHoldingRegistersResponse (2)
INFO    2025-09-02 11:54:54,516  root:acudc260_modbus_get.py:201 read p2_power ret is:[15557, 62494]
DEBUG   2025-09-02 11:54:54,516  pymodbus.logging:transaction.py:184 Current transaction state - TRANSACTION_COMPLETE
DEBUG   2025-09-02 11:54:54,516  pymodbus.logging:transaction.py:193 Running transaction 0
DEBUG   2025-09-02 11:54:54,516  pymodbus.logging:transaction.py:293 SEND: 0x1 0x3 0x30 0xc 0x0 0x2 0xb 0x8
DEBUG   2025-09-02 11:54:54,516  pymodbus.logging:serial.py:271 Changing state to IDLE - Last Frame End - 1756785294.516315 Current Time stamp - 1756785294.516315
DEBUG   2025-09-02 11:54:54,516  pymodbus.logging:serial.py:279 Waiting for 3.5 char before next send - 1.823 ms
DEBUG   2025-09-02 11:54:54,518  pymodbus.logging:base.py:250 New Transaction state "SENDING"
DEBUG   2025-09-02 11:54:54,518  pymodbus.logging:transaction.py:317 Changing transaction state from "SENDING" to "WAITING FOR REPLY"
DEBUG   2025-09-02 11:54:54,542  pymodbus.logging:transaction.py:419 Changing transaction state from "WAITING FOR REPLY" to "PROCESSING REPLY"
DEBUG   2025-09-02 11:54:54,543  pymodbus.logging:transaction.py:324 RECV: 0x1 0x3 0x4 0x3d 0x4a 0x1f 0xd6 0x5f 0xe7
DEBUG   2025-09-02 11:54:54,543  pymodbus.logging:base.py:92 Processing: 0x1 0x3 0x4 0x3d 0x4a 0x1f 0xd6 0x5f 0xe7
DEBUG   2025-09-02 11:54:54,543  pymodbus.logging:decoders.py:103 decode PDU for 3
DEBUG   2025-09-02 11:54:54,543  pymodbus.logging:base.py:102 Frame advanced, resetting header!!
DEBUG   2025-09-02 11:54:54,543  pymodbus.logging:transaction.py:67 Adding transaction 0
DEBUG   2025-09-02 11:54:54,543  pymodbus.logging:transaction.py:78 Getting transaction 0
DEBUG   2025-09-02 11:54:54,543  pymodbus.logging:transaction.py:258 Changing transaction state from "PROCESSING REPLY" to "TRANSACTION_COMPLETE"
INFO    2025-09-02 11:54:54,543  root:modbus_rtu_tcp.py:44 read_measurement ret is:ReadHoldingRegistersResponse (2)
INFO    2025-09-02 11:54:54,543  root:acudc260_modbus_get.py:215 read p_sum_power ret is:[15690, 8150]
DEBUG   2025-09-02 11:54:54,644  pymodbus.logging:transaction.py:184 Current transaction state - TRANSACTION_COMPLETE
DEBUG   2025-09-02 11:54:54,644  pymodbus.logging:transaction.py:193 Running transaction 0
DEBUG   2025-09-02 11:54:54,644  pymodbus.logging:transaction.py:293 SEND: 0x1 0x3 0x30 0x0 0x0 0x2 0xcb 0xb
DEBUG   2025-09-02 11:54:54,644  pymodbus.logging:serial.py:271 Changing state to IDLE - Last Frame End - 1756785294.542582 Current Time stamp - 1756785294.644167
DEBUG   2025-09-02 11:54:54,644  pymodbus.logging:base.py:250 New Transaction state "SENDING"
DEBUG   2025-09-02 11:54:54,644  pymodbus.logging:transaction.py:317 Changing transaction state from "SENDING" to "WAITING FOR REPLY"
DEBUG   2025-09-02 11:54:54,674  pymodbus.logging:transaction.py:419 Changing transaction state from "WAITING FOR REPLY" to "PROCESSING REPLY"
DEBUG   2025-09-02 11:54:54,674  pymodbus.logging:transaction.py:324 RECV: 0x1 0x3 0x4 0x42 0x6f 0xfe 0x19 0x5f 0xfc
DEBUG   2025-09-02 11:54:54,674  pymodbus.logging:base.py:92 Processing: 0x1 0x3 0x4 0x42 0x6f 0xfe 0x19 0x5f 0xfc
DEBUG   2025-09-02 11:54:54,674  pymodbus.logging:decoders.py:103 decode PDU for 3
DEBUG   2025-09-02 11:54:54,674  pymodbus.logging:base.py:102 Frame advanced, resetting header!!
DEBUG   2025-09-02 11:54:54,674  pymodbus.logging:transaction.py:67 Adding transaction 0
DEBUG   2025-09-02 11:54:54,674  pymodbus.logging:transaction.py:78 Getting transaction 0
DEBUG   2025-09-02 11:54:54,674  pymodbus.logging:transaction.py:258 Changing transaction state from "PROCESSING REPLY" to "TRANSACTION_COMPLETE"
INFO    2025-09-02 11:54:54,674  root:modbus_rtu_tcp.py:44 read_measurement ret is:ReadHoldingRegistersResponse (2)
INFO    2025-09-02 11:54:54,674  root:acudc260_modbus_get.py:131 read u_voltage ret is:[17007, 65049]
DEBUG   2025-09-02 11:54:54,674  pymodbus.logging:transaction.py:184 Current transaction state - TRANSACTION_COMPLETE
DEBUG   2025-09-02 11:54:54,674  pymodbus.logging:transaction.py:193 Running transaction 0
DEBUG   2025-09-02 11:54:54,674  pymodbus.logging:transaction.py:293 SEND: 0x1 0x3 0x30 0x2 0x0 0x2 0x6a 0xcb
DEBUG   2025-09-02 11:54:54,674  pymodbus.logging:serial.py:271 Changing state to IDLE - Last Frame End - 1756785294.674697 Current Time stamp - 1756785294.674697
DEBUG   2025-09-02 11:54:54,675  pymodbus.logging:serial.py:279 Waiting for 3.5 char before next send - 1.823 ms
DEBUG   2025-09-02 11:54:54,677  pymodbus.logging:base.py:250 New Transaction state "SENDING"
DEBUG   2025-09-02 11:54:54,677  pymodbus.logging:transaction.py:317 Changing transaction state from "SENDING" to "WAITING FOR REPLY"
DEBUG   2025-09-02 11:54:54,706  pymodbus.logging:transaction.py:419 Changing transaction state from "WAITING FOR REPLY" to "PROCESSING REPLY"
DEBUG   2025-09-02 11:54:54,706  pymodbus.logging:transaction.py:324 RECV: 0x1 0x3 0x4 0x3e 0xd8 0x78 0x60 0x55 0xc8
DEBUG   2025-09-02 11:54:54,706  pymodbus.logging:base.py:92 Processing: 0x1 0x3 0x4 0x3e 0xd8 0x78 0x60 0x55 0xc8
DEBUG   2025-09-02 11:54:54,706  pymodbus.logging:decoders.py:103 decode PDU for 3
DEBUG   2025-09-02 11:54:54,706  pymodbus.logging:base.py:102 Frame advanced, resetting header!!
DEBUG   2025-09-02 11:54:54,706  pymodbus.logging:transaction.py:67 Adding transaction 0
DEBUG   2025-09-02 11:54:54,706  pymodbus.logging:transaction.py:78 Getting transaction 0
DEBUG   2025-09-02 11:54:54,706  pymodbus.logging:transaction.py:258 Changing transaction state from "PROCESSING REPLY" to "TRANSACTION_COMPLETE"
INFO    2025-09-02 11:54:54,706  root:modbus_rtu_tcp.py:44 read_measurement ret is:ReadHoldingRegistersResponse (2)
INFO    2025-09-02 11:54:54,706  root:acudc260_modbus_get.py:145 read i1_current ret is:[16088, 30816]
DEBUG   2025-09-02 11:54:54,706  pymodbus.logging:transaction.py:184 Current transaction state - TRANSACTION_COMPLETE
DEBUG   2025-09-02 11:54:54,706  pymodbus.logging:transaction.py:193 Running transaction 0
DEBUG   2025-09-02 11:54:54,706  pymodbus.logging:transaction.py:293 SEND: 0x1 0x3 0x30 0x4 0x0 0x2 0x8a 0xca
DEBUG   2025-09-02 11:54:54,706  pymodbus.logging:serial.py:271 Changing state to IDLE - Last Frame End - 1756785294.706409 Current Time stamp - 1756785294.706409
DEBUG   2025-09-02 11:54:54,706  pymodbus.logging:serial.py:279 Waiting for 3.5 char before next send - 1.823 ms
DEBUG   2025-09-02 11:54:54,709  pymodbus.logging:base.py:250 New Transaction state "SENDING"
DEBUG   2025-09-02 11:54:54,709  pymodbus.logging:transaction.py:317 Changing transaction state from "SENDING" to "WAITING FOR REPLY"
DEBUG   2025-09-02 11:54:54,734  pymodbus.logging:transaction.py:419 Changing transaction state from "WAITING FOR REPLY" to "PROCESSING REPLY"
DEBUG   2025-09-02 11:54:54,734  pymodbus.logging:transaction.py:324 RECV: 0x1 0x3 0x4 0x3e 0xd2 0x11 0x2d 0x9b 0xaf
DEBUG   2025-09-02 11:54:54,734  pymodbus.logging:base.py:92 Processing: 0x1 0x3 0x4 0x3e 0xd2 0x11 0x2d 0x9b 0xaf
DEBUG   2025-09-02 11:54:54,734  pymodbus.logging:decoders.py:103 decode PDU for 3
DEBUG   2025-09-02 11:54:54,734  pymodbus.logging:base.py:102 Frame advanced, resetting header!!
DEBUG   2025-09-02 11:54:54,734  pymodbus.logging:transaction.py:67 Adding transaction 0
DEBUG   2025-09-02 11:54:54,734  pymodbus.logging:transaction.py:78 Getting transaction 0
DEBUG   2025-09-02 11:54:54,734  pymodbus.logging:transaction.py:258 Changing transaction state from "PROCESSING REPLY" to "TRANSACTION_COMPLETE"
INFO    2025-09-02 11:54:54,734  root:modbus_rtu_tcp.py:44 read_measurement ret is:ReadHoldingRegistersResponse (2)
INFO    2025-09-02 11:54:54,734  root:acudc260_modbus_get.py:159 read i2_current ret is:[16082, 4397]
DEBUG   2025-09-02 11:54:54,734  pymodbus.logging:transaction.py:184 Current transaction state - TRANSACTION_COMPLETE
DEBUG   2025-09-02 11:54:54,734  pymodbus.logging:transaction.py:193 Running transaction 0
DEBUG   2025-09-02 11:54:54,734  pymodbus.logging:transaction.py:293 SEND: 0x1 0x3 0x30 0x6 0x0 0x2 0x2b 0xa
DEBUG   2025-09-02 11:54:54,734  pymodbus.logging:serial.py:271 Changing state to IDLE - Last Frame End - 1756785294.734924 Current Time stamp - 1756785294.734924
DEBUG   2025-09-02 11:54:54,734  pymodbus.logging:serial.py:279 Waiting for 3.5 char before next send - 1.823 ms
DEBUG   2025-09-02 11:54:54,737  pymodbus.logging:base.py:250 New Transaction state "SENDING"
DEBUG   2025-09-02 11:54:54,737  pymodbus.logging:transaction.py:317 Changing transaction state from "SENDING" to "WAITING FOR REPLY"
DEBUG   2025-09-02 11:54:54,769  pymodbus.logging:transaction.py:419 Changing transaction state from "WAITING FOR REPLY" to "PROCESSING REPLY"
DEBUG   2025-09-02 11:54:54,769  pymodbus.logging:transaction.py:324 RECV: 0x1 0x3 0x4 0x3f 0x55 0x44 0xc6 0x55 0x65
DEBUG   2025-09-02 11:54:54,769  pymodbus.logging:base.py:92 Processing: 0x1 0x3 0x4 0x3f 0x55 0x44 0xc6 0x55 0x65
DEBUG   2025-09-02 11:54:54,769  pymodbus.logging:decoders.py:103 decode PDU for 3
DEBUG   2025-09-02 11:54:54,769  pymodbus.logging:base.py:102 Frame advanced, resetting header!!
DEBUG   2025-09-02 11:54:54,769  pymodbus.logging:transaction.py:67 Adding transaction 0
DEBUG   2025-09-02 11:54:54,769  pymodbus.logging:transaction.py:78 Getting transaction 0
DEBUG   2025-09-02 11:54:54,769  pymodbus.logging:transaction.py:258 Changing transaction state from "PROCESSING REPLY" to "TRANSACTION_COMPLETE"
INFO    2025-09-02 11:54:54,769  root:modbus_rtu_tcp.py:44 read_measurement ret is:ReadHoldingRegistersResponse (2)
INFO    2025-09-02 11:54:54,769  root:acudc260_modbus_get.py:173 read i_sum_current ret is:[16213, 17606]
DEBUG   2025-09-02 11:54:54,769  pymodbus.logging:transaction.py:184 Current transaction state - TRANSACTION_COMPLETE
DEBUG   2025-09-02 11:54:54,769  pymodbus.logging:transaction.py:193 Running transaction 0
DEBUG   2025-09-02 11:54:54,769  pymodbus.logging:transaction.py:293 SEND: 0x1 0x3 0x30 0x8 0x0 0x2 0x4a 0xc9
DEBUG   2025-09-02 11:54:54,769  pymodbus.logging:serial.py:271 Changing state to IDLE - Last Frame End - 1756785294.769731 Current Time stamp - 1756785294.769731
DEBUG   2025-09-02 11:54:54,769  pymodbus.logging:serial.py:279 Waiting for 3.5 char before next send - 1.823 ms
DEBUG   2025-09-02 11:54:54,772  pymodbus.logging:base.py:250 New Transaction state "SENDING"
DEBUG   2025-09-02 11:54:54,772  pymodbus.logging:transaction.py:317 Changing transaction state from "SENDING" to "WAITING FOR REPLY"
DEBUG   2025-09-02 11:54:54,802  pymodbus.logging:transaction.py:419 Changing transaction state from "WAITING FOR REPLY" to "PROCESSING REPLY"
DEBUG   2025-09-02 11:54:54,802  pymodbus.logging:transaction.py:324 RECV: 0x1 0x3 0x4 0x3c 0xc8 0xb5 0xca 0x81 0x5a
DEBUG   2025-09-02 11:54:54,802  pymodbus.logging:base.py:92 Processing: 0x1 0x3 0x4 0x3c 0xc8 0xb5 0xca 0x81 0x5a
DEBUG   2025-09-02 11:54:54,802  pymodbus.logging:decoders.py:103 decode PDU for 3
DEBUG   2025-09-02 11:54:54,802  pymodbus.logging:base.py:102 Frame advanced, resetting header!!
DEBUG   2025-09-02 11:54:54,802  pymodbus.logging:transaction.py:67 Adding transaction 0
DEBUG   2025-09-02 11:54:54,802  pymodbus.logging:transaction.py:78 Getting transaction 0
DEBUG   2025-09-02 11:54:54,802  pymodbus.logging:transaction.py:258 Changing transaction state from "PROCESSING REPLY" to "TRANSACTION_COMPLETE"
INFO    2025-09-02 11:54:54,802  root:modbus_rtu_tcp.py:44 read_measurement ret is:ReadHoldingRegistersResponse (2)
INFO    2025-09-02 11:54:54,802  root:acudc260_modbus_get.py:187 read p1_power ret is:[15560, 46538]
DEBUG   2025-09-02 11:54:54,802  pymodbus.logging:transaction.py:184 Current transaction state - TRANSACTION_COMPLETE
DEBUG   2025-09-02 11:54:54,802  pymodbus.logging:transaction.py:193 Running transaction 0
DEBUG   2025-09-02 11:54:54,802  pymodbus.logging:transaction.py:293 SEND: 0x1 0x3 0x30 0xa 0x0 0x2 0xeb 0x9
DEBUG   2025-09-02 11:54:54,802  pymodbus.logging:serial.py:271 Changing state to IDLE - Last Frame End - 1756785294.802812 Current Time stamp - 1756785294.802812
DEBUG   2025-09-02 11:54:54,802  pymodbus.logging:serial.py:279 Waiting for 3.5 char before next send - 1.823 ms
DEBUG   2025-09-02 11:54:54,805  pymodbus.logging:base.py:250 New Transaction state "SENDING"
DEBUG   2025-09-02 11:54:54,805  pymodbus.logging:transaction.py:317 Changing transaction state from "SENDING" to "WAITING FOR REPLY"
DEBUG   2025-09-02 11:54:54,833  pymodbus.logging:transaction.py:419 Changing transaction state from "WAITING FOR REPLY" to "PROCESSING REPLY"
DEBUG   2025-09-02 11:54:54,851  pymodbus.logging:transaction.py:324 RECV: 0x1 0x3 0x4 0x3c 0xbb 0xc 0xf0 0x83 0x2
DEBUG   2025-09-02 11:54:54,851  pymodbus.logging:base.py:92 Processing: 0x1 0x3 0x4 0x3c 0xbb 0xc 0xf0 0x83 0x2
DEBUG   2025-09-02 11:54:54,851  pymodbus.logging:decoders.py:103 decode PDU for 3
DEBUG   2025-09-02 11:54:54,852  pymodbus.logging:base.py:102 Frame advanced, resetting header!!
DEBUG   2025-09-02 11:54:54,852  pymodbus.logging:transaction.py:67 Adding transaction 0
DEBUG   2025-09-02 11:54:54,852  pymodbus.logging:transaction.py:78 Getting transaction 0
DEBUG   2025-09-02 11:54:54,852  pymodbus.logging:transaction.py:258 Changing transaction state from "PROCESSING REPLY" to "TRANSACTION_COMPLETE"
INFO    2025-09-02 11:54:54,852  root:modbus_rtu_tcp.py:44 read_measurement ret is:ReadHoldingRegistersResponse (2)
INFO    2025-09-02 11:54:54,852  root:acudc260_modbus_get.py:201 read p2_power ret is:[15547, 3312]
DEBUG   2025-09-02 11:54:54,852  pymodbus.logging:transaction.py:184 Current transaction state - TRANSACTION_COMPLETE
DEBUG   2025-09-02 11:54:54,852  pymodbus.logging:transaction.py:193 Running transaction 0
DEBUG   2025-09-02 11:54:54,852  pymodbus.logging:transaction.py:293 SEND: 0x1 0x3 0x30 0xc 0x0 0x2 0xb 0x8
DEBUG   2025-09-02 11:54:54,852  pymodbus.logging:serial.py:271 Changing state to IDLE - Last Frame End - 1756785294.833905 Current Time stamp - 1756785294.852312
DEBUG   2025-09-02 11:54:54,852  pymodbus.logging:base.py:250 New Transaction state "SENDING"
DEBUG   2025-09-02 11:54:54,853  pymodbus.logging:transaction.py:317 Changing transaction state from "SENDING" to "WAITING FOR REPLY"
DEBUG   2025-09-02 11:54:54,881  pymodbus.logging:transaction.py:419 Changing transaction state from "WAITING FOR REPLY" to "PROCESSING REPLY"
DEBUG   2025-09-02 11:54:54,881  pymodbus.logging:transaction.py:324 RECV: 0x1 0x3 0x4 0x3d 0x47 0x7f 0x83 0x26 0x1b
DEBUG   2025-09-02 11:54:54,881  pymodbus.logging:base.py:92 Processing: 0x1 0x3 0x4 0x3d 0x47 0x7f 0x83 0x26 0x1b
DEBUG   2025-09-02 11:54:54,881  pymodbus.logging:decoders.py:103 decode PDU for 3
DEBUG   2025-09-02 11:54:54,881  pymodbus.logging:base.py:102 Frame advanced, resetting header!!
DEBUG   2025-09-02 11:54:54,881  pymodbus.logging:transaction.py:67 Adding transaction 0
DEBUG   2025-09-02 11:54:54,881  pymodbus.logging:transaction.py:78 Getting transaction 0
DEBUG   2025-09-02 11:54:54,881  pymodbus.logging:transaction.py:258 Changing transaction state from "PROCESSING REPLY" to "TRANSACTION_COMPLETE"
INFO    2025-09-02 11:54:54,881  root:modbus_rtu_tcp.py:44 read_measurement ret is:ReadHoldingRegistersResponse (2)
INFO    2025-09-02 11:54:54,881  root:acudc260_modbus_get.py:215 read p_sum_power ret is:[15687, 32643]
DEBUG   2025-09-02 11:54:54,982  pymodbus.logging:transaction.py:184 Current transaction state - TRANSACTION_COMPLETE
DEBUG   2025-09-02 11:54:54,982  pymodbus.logging:transaction.py:193 Running transaction 0
DEBUG   2025-09-02 11:54:54,982  pymodbus.logging:transaction.py:293 SEND: 0x1 0x3 0x30 0x0 0x0 0x2 0xcb 0xb
DEBUG   2025-09-02 11:54:54,982  pymodbus.logging:serial.py:271 Changing state to IDLE - Last Frame End - 1756785294.881749 Current Time stamp - 1756785294.982733
DEBUG   2025-09-02 11:54:54,982  pymodbus.logging:base.py:250 New Transaction state "SENDING"
DEBUG   2025-09-02 11:54:54,982  pymodbus.logging:transaction.py:317 Changing transaction state from "SENDING" to "WAITING FOR REPLY"
DEBUG   2025-09-02 11:54:55,006  pymodbus.logging:transaction.py:419 Changing transaction state from "WAITING FOR REPLY" to "PROCESSING REPLY"
DEBUG   2025-09-02 11:54:55,006  pymodbus.logging:transaction.py:324 RECV: 0x1 0x3 0x4 0x42 0x6f 0xfc 0x23 0xde 0x8f
DEBUG   2025-09-02 11:54:55,006  pymodbus.logging:base.py:92 Processing: 0x1 0x3 0x4 0x42 0x6f 0xfc 0x23 0xde 0x8f
DEBUG   2025-09-02 11:54:55,006  pymodbus.logging:decoders.py:103 decode PDU for 3
DEBUG   2025-09-02 11:54:55,006  pymodbus.logging:base.py:102 Frame advanced, resetting header!!
DEBUG   2025-09-02 11:54:55,006  pymodbus.logging:transaction.py:67 Adding transaction 0
DEBUG   2025-09-02 11:54:55,006  pymodbus.logging:transaction.py:78 Getting transaction 0
DEBUG   2025-09-02 11:54:55,006  pymodbus.logging:transaction.py:258 Changing transaction state from "PROCESSING REPLY" to "TRANSACTION_COMPLETE"
INFO    2025-09-02 11:54:55,006  root:modbus_rtu_tcp.py:44 read_measurement ret is:ReadHoldingRegistersResponse (2)
INFO    2025-09-02 11:54:55,006  root:acudc260_modbus_get.py:131 read u_voltage ret is:[17007, 64547]
DEBUG   2025-09-02 11:54:55,006  pymodbus.logging:transaction.py:184 Current transaction state - TRANSACTION_COMPLETE
DEBUG   2025-09-02 11:54:55,006  pymodbus.logging:transaction.py:193 Running transaction 0
DEBUG   2025-09-02 11:54:55,006  pymodbus.logging:transaction.py:293 SEND: 0x1 0x3 0x30 0x2 0x0 0x2 0x6a 0xcb
DEBUG   2025-09-02 11:54:55,006  pymodbus.logging:serial.py:271 Changing state to IDLE - Last Frame End - 1756785295.0067 Current Time stamp - 1756785295.0067
DEBUG   2025-09-02 11:54:55,007  pymodbus.logging:serial.py:279 Waiting for 3.5 char before next send - 1.823 ms
DEBUG   2025-09-02 11:54:55,009  pymodbus.logging:base.py:250 New Transaction state "SENDING"
DEBUG   2025-09-02 11:54:55,009  pymodbus.logging:transaction.py:317 Changing transaction state from "SENDING" to "WAITING FOR REPLY"
DEBUG   2025-09-02 11:54:55,041  pymodbus.logging:transaction.py:419 Changing transaction state from "WAITING FOR REPLY" to "PROCESSING REPLY"
DEBUG   2025-09-02 11:54:55,041  pymodbus.logging:transaction.py:324 RECV: 0x1 0x3 0x4 0x3e 0xd3 0x4e 0x8a 0xb2 0x25
DEBUG   2025-09-02 11:54:55,041  pymodbus.logging:base.py:92 Processing: 0x1 0x3 0x4 0x3e 0xd3 0x4e 0x8a 0xb2 0x25
DEBUG   2025-09-02 11:54:55,041  pymodbus.logging:decoders.py:103 decode PDU for 3
DEBUG   2025-09-02 11:54:55,041  pymodbus.logging:base.py:102 Frame advanced, resetting header!!
DEBUG   2025-09-02 11:54:55,041  pymodbus.logging:transaction.py:67 Adding transaction 0
DEBUG   2025-09-02 11:54:55,041  pymodbus.logging:transaction.py:78 Getting transaction 0
DEBUG   2025-09-02 11:54:55,041  pymodbus.logging:transaction.py:258 Changing transaction state from "PROCESSING REPLY" to "TRANSACTION_COMPLETE"
INFO    2025-09-02 11:54:55,041  root:modbus_rtu_tcp.py:44 read_measurement ret is:ReadHoldingRegistersResponse (2)
INFO    2025-09-02 11:54:55,041  root:acudc260_modbus_get.py:145 read i1_current ret is:[16083, 20106]
DEBUG   2025-09-02 11:54:55,041  pymodbus.logging:transaction.py:184 Current transaction state - TRANSACTION_COMPLETE
DEBUG   2025-09-02 11:54:55,041  pymodbus.logging:transaction.py:193 Running transaction 0
DEBUG   2025-09-02 11:54:55,041  pymodbus.logging:transaction.py:293 SEND: 0x1 0x3 0x30 0x4 0x0 0x2 0x8a 0xca
DEBUG   2025-09-02 11:54:55,041  pymodbus.logging:serial.py:271 Changing state to IDLE - Last Frame End - 1756785295.041863 Current Time stamp - 1756785295.041863
DEBUG   2025-09-02 11:54:55,041  pymodbus.logging:serial.py:279 Waiting for 3.5 char before next send - 1.823 ms
DEBUG   2025-09-02 11:54:55,044  pymodbus.logging:base.py:250 New Transaction state "SENDING"
DEBUG   2025-09-02 11:54:55,044  pymodbus.logging:transaction.py:317 Changing transaction state from "SENDING" to "WAITING FOR REPLY"
DEBUG   2025-09-02 11:54:55,073  pymodbus.logging:transaction.py:419 Changing transaction state from "WAITING FOR REPLY" to "PROCESSING REPLY"
DEBUG   2025-09-02 11:54:55,073  pymodbus.logging:transaction.py:324 RECV: 0x1 0x3 0x4 0x3e 0xbe 0x34 0xaa 0x1 0x40
DEBUG   2025-09-02 11:54:55,073  pymodbus.logging:base.py:92 Processing: 0x1 0x3 0x4 0x3e 0xbe 0x34 0xaa 0x1 0x40
DEBUG   2025-09-02 11:54:55,073  pymodbus.logging:decoders.py:103 decode PDU for 3
DEBUG   2025-09-02 11:54:55,073  pymodbus.logging:base.py:102 Frame advanced, resetting header!!
DEBUG   2025-09-02 11:54:55,073  pymodbus.logging:transaction.py:67 Adding transaction 0
DEBUG   2025-09-02 11:54:55,073  pymodbus.logging:transaction.py:78 Getting transaction 0
DEBUG   2025-09-02 11:54:55,073  pymodbus.logging:transaction.py:258 Changing transaction state from "PROCESSING REPLY" to "TRANSACTION_COMPLETE"
INFO    2025-09-02 11:54:55,073  root:modbus_rtu_tcp.py:44 read_measurement ret is:ReadHoldingRegistersResponse (2)
INFO    2025-09-02 11:54:55,073  root:acudc260_modbus_get.py:159 read i2_current ret is:[16062, 13482]
DEBUG   2025-09-02 11:54:55,073  pymodbus.logging:transaction.py:184 Current transaction state - TRANSACTION_COMPLETE
DEBUG   2025-09-02 11:54:55,073  pymodbus.logging:transaction.py:193 Running transaction 0
DEBUG   2025-09-02 11:54:55,073  pymodbus.logging:transaction.py:293 SEND: 0x1 0x3 0x30 0x6 0x0 0x2 0x2b 0xa
DEBUG   2025-09-02 11:54:55,073  pymodbus.logging:serial.py:271 Changing state to IDLE - Last Frame End - 1756785295.073875 Current Time stamp - 1756785295.073875
DEBUG   2025-09-02 11:54:55,074  pymodbus.logging:serial.py:279 Waiting for 3.5 char before next send - 1.823 ms
DEBUG   2025-09-02 11:54:55,076  pymodbus.logging:base.py:250 New Transaction state "SENDING"
