INFO    2025-08-29 14:40:22,368  root:acudc260_fast_test.py:477 测试进度:['test_case', 'Voltage', 'Current_1', 'Current_2', '等待时间(h)', 'voltage_accuracy', 'current_accuracy', 'power_accuracy', '采样次数', '采样间隔'],执行时间:2025_08_29 14:40:22
INFO    2025-08-29 14:40:22,368  root:source_control.py:26 <源输出>
    电压检定点:0.0%;
    电流检定点:0.08%;
    电压纹波比例:0%;
    电流纹波比例:0%;
    电压纹波相位:0度;
    电流纹波相位:0度;
    纹波频率:300Hz;
    电能方向:正向;
    <End>
INFO    2025-08-29 14:40:25,386  root:source_control.py:30 recv_data ret is:<源输出应答>
电压总值:0.000000V;
电流总值:0.400000A;
功率总值:0.000000W;
电压直流:0.000000V;
电流直流:0.400000A;
功率直流:0.000000W;
电压纹波:0.000000V;
电流纹波:0.000000A;
功率纹波:0.000000W;
<End>
DEBUG   2025-08-29 14:40:35,489  pymodbus.logging:transaction.py:184 Current transaction state - IDLE
DEBUG   2025-08-29 14:40:35,489  pymodbus.logging:transaction.py:193 Running transaction 0
DEBUG   2025-08-29 14:40:35,489  pymodbus.logging:transaction.py:293 SEND: 0x1 0x3 0x30 0x0 0x0 0x2 0xcb 0xb
DEBUG   2025-08-29 14:40:35,489  pymodbus.logging:base.py:250 New Transaction state "SENDING"
DEBUG   2025-08-29 14:40:35,489  pymodbus.logging:transaction.py:317 Changing transaction state from "SENDING" to "WAITING FOR REPLY"
DEBUG   2025-08-29 14:40:35,525  pymodbus.logging:transaction.py:419 Changing transaction state from "WAITING FOR REPLY" to "PROCESSING REPLY"
DEBUG   2025-08-29 14:40:35,525  pymodbus.logging:transaction.py:324 RECV: 0x1 0x3 0x4 0x0 0x0 0x0 0x0 0xfa 0x33
DEBUG   2025-08-29 14:40:35,525  pymodbus.logging:base.py:92 Processing: 0x1 0x3 0x4 0x0 0x0 0x0 0x0 0xfa 0x33
DEBUG   2025-08-29 14:40:35,525  pymodbus.logging:decoders.py:103 decode PDU for 3
DEBUG   2025-08-29 14:40:35,525  pymodbus.logging:base.py:102 Frame advanced, resetting header!!
DEBUG   2025-08-29 14:40:35,525  pymodbus.logging:transaction.py:67 Adding transaction 0
DEBUG   2025-08-29 14:40:35,525  pymodbus.logging:transaction.py:78 Getting transaction 0
DEBUG   2025-08-29 14:40:35,525  pymodbus.logging:transaction.py:258 Changing transaction state from "PROCESSING REPLY" to "TRANSACTION_COMPLETE"
INFO    2025-08-29 14:40:35,525  root:modbus_rtu_tcp.py:44 read_measurement ret is:ReadHoldingRegistersResponse (2)
INFO    2025-08-29 14:40:35,525  root:acudc260_modbus_get.py:131 read u_voltage ret is:[0, 0]
DEBUG   2025-08-29 14:40:35,525  pymodbus.logging:transaction.py:184 Current transaction state - TRANSACTION_COMPLETE
DEBUG   2025-08-29 14:40:35,525  pymodbus.logging:transaction.py:193 Running transaction 0
DEBUG   2025-08-29 14:40:35,525  pymodbus.logging:transaction.py:293 SEND: 0x1 0x3 0x30 0x2 0x0 0x2 0x6a 0xcb
DEBUG   2025-08-29 14:40:35,525  pymodbus.logging:serial.py:271 Changing state to IDLE - Last Frame End - 1756449635.525661 Current Time stamp - 1756449635.525661
DEBUG   2025-08-29 14:40:35,525  pymodbus.logging:serial.py:279 Waiting for 3.5 char before next send - 1.823 ms
DEBUG   2025-08-29 14:40:35,529  pymodbus.logging:base.py:250 New Transaction state "SENDING"
DEBUG   2025-08-29 14:40:35,529  pymodbus.logging:transaction.py:317 Changing transaction state from "SENDING" to "WAITING FOR REPLY"
DEBUG   2025-08-29 14:40:35,557  pymodbus.logging:transaction.py:419 Changing transaction state from "WAITING FOR REPLY" to "PROCESSING REPLY"
DEBUG   2025-08-29 14:40:35,557  pymodbus.logging:transaction.py:324 RECV: 0x1 0x3 0x4 0x3e 0xd4 0x71 0x63 0xd3 0x9a
DEBUG   2025-08-29 14:40:35,557  pymodbus.logging:base.py:92 Processing: 0x1 0x3 0x4 0x3e 0xd4 0x71 0x63 0xd3 0x9a
DEBUG   2025-08-29 14:40:35,557  pymodbus.logging:decoders.py:103 decode PDU for 3
DEBUG   2025-08-29 14:40:35,557  pymodbus.logging:base.py:102 Frame advanced, resetting header!!
DEBUG   2025-08-29 14:40:35,557  pymodbus.logging:transaction.py:67 Adding transaction 0
DEBUG   2025-08-29 14:40:35,557  pymodbus.logging:transaction.py:78 Getting transaction 0
DEBUG   2025-08-29 14:40:35,557  pymodbus.logging:transaction.py:258 Changing transaction state from "PROCESSING REPLY" to "TRANSACTION_COMPLETE"
INFO    2025-08-29 14:40:35,557  root:modbus_rtu_tcp.py:44 read_measurement ret is:ReadHoldingRegistersResponse (2)
INFO    2025-08-29 14:40:35,557  root:acudc260_modbus_get.py:145 read i1_current ret is:[16084, 29027]
DEBUG   2025-08-29 14:40:35,557  pymodbus.logging:transaction.py:184 Current transaction state - TRANSACTION_COMPLETE
DEBUG   2025-08-29 14:40:35,557  pymodbus.logging:transaction.py:193 Running transaction 0
DEBUG   2025-08-29 14:40:35,557  pymodbus.logging:transaction.py:293 SEND: 0x1 0x3 0x30 0x4 0x0 0x2 0x8a 0xca
DEBUG   2025-08-29 14:40:35,557  pymodbus.logging:serial.py:271 Changing state to IDLE - Last Frame End - 1756449635.557636 Current Time stamp - 1756449635.557636
DEBUG   2025-08-29 14:40:35,557  pymodbus.logging:serial.py:279 Waiting for 3.5 char before next send - 1.823 ms
DEBUG   2025-08-29 14:40:35,563  pymodbus.logging:base.py:250 New Transaction state "SENDING"
DEBUG   2025-08-29 14:40:35,563  pymodbus.logging:transaction.py:317 Changing transaction state from "SENDING" to "WAITING FOR REPLY"
DEBUG   2025-08-29 14:40:35,601  pymodbus.logging:transaction.py:419 Changing transaction state from "WAITING FOR REPLY" to "PROCESSING REPLY"
DEBUG   2025-08-29 14:40:35,601  pymodbus.logging:transaction.py:324 RECV: 0x1 0x3 0x4 0x3e 0xcd 0xad 0x0 0x1a 0xb4
DEBUG   2025-08-29 14:40:35,601  pymodbus.logging:base.py:92 Processing: 0x1 0x3 0x4 0x3e 0xcd 0xad 0x0 0x1a 0xb4
DEBUG   2025-08-29 14:40:35,601  pymodbus.logging:decoders.py:103 decode PDU for 3
DEBUG   2025-08-29 14:40:35,601  pymodbus.logging:base.py:102 Frame advanced, resetting header!!
DEBUG   2025-08-29 14:40:35,601  pymodbus.logging:transaction.py:67 Adding transaction 0
DEBUG   2025-08-29 14:40:35,601  pymodbus.logging:transaction.py:78 Getting transaction 0
DEBUG   2025-08-29 14:40:35,601  pymodbus.logging:transaction.py:258 Changing transaction state from "PROCESSING REPLY" to "TRANSACTION_COMPLETE"
INFO    2025-08-29 14:40:35,601  root:modbus_rtu_tcp.py:44 read_measurement ret is:ReadHoldingRegistersResponse (2)
INFO    2025-08-29 14:40:35,601  root:acudc260_modbus_get.py:159 read i2_current ret is:[16077, 44288]
DEBUG   2025-08-29 14:40:35,601  pymodbus.logging:transaction.py:184 Current transaction state - TRANSACTION_COMPLETE
DEBUG   2025-08-29 14:40:35,601  pymodbus.logging:transaction.py:193 Running transaction 0
DEBUG   2025-08-29 14:40:35,601  pymodbus.logging:transaction.py:293 SEND: 0x1 0x3 0x30 0x6 0x0 0x2 0x2b 0xa
DEBUG   2025-08-29 14:40:35,601  pymodbus.logging:serial.py:271 Changing state to IDLE - Last Frame End - 1756449635.601258 Current Time stamp - 1756449635.601258
DEBUG   2025-08-29 14:40:35,603  pymodbus.logging:serial.py:279 Waiting for 3.5 char before next send - 1.823 ms
DEBUG   2025-08-29 14:40:35,605  pymodbus.logging:base.py:250 New Transaction state "SENDING"
DEBUG   2025-08-29 14:40:35,606  pymodbus.logging:transaction.py:317 Changing transaction state from "SENDING" to "WAITING FOR REPLY"
DEBUG   2025-08-29 14:40:35,630  pymodbus.logging:transaction.py:419 Changing transaction state from "WAITING FOR REPLY" to "PROCESSING REPLY"
DEBUG   2025-08-29 14:40:35,630  pymodbus.logging:transaction.py:324 RECV: 0x1 0x3 0x4 0x3f 0x4f 0x13 0xcd 0xb 0x55
DEBUG   2025-08-29 14:40:35,630  pymodbus.logging:base.py:92 Processing: 0x1 0x3 0x4 0x3f 0x4f 0x13 0xcd 0xb 0x55
DEBUG   2025-08-29 14:40:35,630  pymodbus.logging:decoders.py:103 decode PDU for 3
DEBUG   2025-08-29 14:40:35,630  pymodbus.logging:base.py:102 Frame advanced, resetting header!!
DEBUG   2025-08-29 14:40:35,630  pymodbus.logging:transaction.py:67 Adding transaction 0
DEBUG   2025-08-29 14:40:35,630  pymodbus.logging:transaction.py:78 Getting transaction 0
DEBUG   2025-08-29 14:40:35,630  pymodbus.logging:transaction.py:258 Changing transaction state from "PROCESSING REPLY" to "TRANSACTION_COMPLETE"
INFO    2025-08-29 14:40:35,630  root:modbus_rtu_tcp.py:44 read_measurement ret is:ReadHoldingRegistersResponse (2)
INFO    2025-08-29 14:40:35,630  root:acudc260_modbus_get.py:173 read i_sum_current ret is:[16207, 5069]
DEBUG   2025-08-29 14:40:35,630  pymodbus.logging:transaction.py:184 Current transaction state - TRANSACTION_COMPLETE
DEBUG   2025-08-29 14:40:35,630  pymodbus.logging:transaction.py:193 Running transaction 0
DEBUG   2025-08-29 14:40:35,630  pymodbus.logging:transaction.py:293 SEND: 0x1 0x3 0x30 0x8 0x0 0x2 0x4a 0xc9
DEBUG   2025-08-29 14:40:35,630  pymodbus.logging:serial.py:271 Changing state to IDLE - Last Frame End - 1756449635.630218 Current Time stamp - 1756449635.630218
DEBUG   2025-08-29 14:40:35,630  pymodbus.logging:serial.py:279 Waiting for 3.5 char before next send - 1.823 ms
DEBUG   2025-08-29 14:40:35,637  pymodbus.logging:base.py:250 New Transaction state "SENDING"
DEBUG   2025-08-29 14:40:35,637  pymodbus.logging:transaction.py:317 Changing transaction state from "SENDING" to "WAITING FOR REPLY"
DEBUG   2025-08-29 14:40:35,668  pymodbus.logging:transaction.py:419 Changing transaction state from "WAITING FOR REPLY" to "PROCESSING REPLY"
DEBUG   2025-08-29 14:40:35,668  pymodbus.logging:transaction.py:324 RECV: 0x1 0x3 0x4 0x0 0x0 0x0 0x0 0xfa 0x33
DEBUG   2025-08-29 14:40:35,668  pymodbus.logging:base.py:92 Processing: 0x1 0x3 0x4 0x0 0x0 0x0 0x0 0xfa 0x33
DEBUG   2025-08-29 14:40:35,668  pymodbus.logging:decoders.py:103 decode PDU for 3
DEBUG   2025-08-29 14:40:35,668  pymodbus.logging:base.py:102 Frame advanced, resetting header!!
DEBUG   2025-08-29 14:40:35,668  pymodbus.logging:transaction.py:67 Adding transaction 0
DEBUG   2025-08-29 14:40:35,668  pymodbus.logging:transaction.py:78 Getting transaction 0
DEBUG   2025-08-29 14:40:35,668  pymodbus.logging:transaction.py:258 Changing transaction state from "PROCESSING REPLY" to "TRANSACTION_COMPLETE"
INFO    2025-08-29 14:40:35,668  root:modbus_rtu_tcp.py:44 read_measurement ret is:ReadHoldingRegistersResponse (2)
INFO    2025-08-29 14:40:35,668  root:acudc260_modbus_get.py:187 read p1_power ret is:[0, 0]
DEBUG   2025-08-29 14:40:35,668  pymodbus.logging:transaction.py:184 Current transaction state - TRANSACTION_COMPLETE
DEBUG   2025-08-29 14:40:35,668  pymodbus.logging:transaction.py:193 Running transaction 0
DEBUG   2025-08-29 14:40:35,668  pymodbus.logging:transaction.py:293 SEND: 0x1 0x3 0x30 0xa 0x0 0x2 0xeb 0x9
DEBUG   2025-08-29 14:40:35,668  pymodbus.logging:serial.py:271 Changing state to IDLE - Last Frame End - 1756449635.668312 Current Time stamp - 1756449635.668312
DEBUG   2025-08-29 14:40:35,668  pymodbus.logging:serial.py:279 Waiting for 3.5 char before next send - 1.823 ms
DEBUG   2025-08-29 14:40:35,671  pymodbus.logging:base.py:250 New Transaction state "SENDING"
DEBUG   2025-08-29 14:40:35,671  pymodbus.logging:transaction.py:317 Changing transaction state from "SENDING" to "WAITING FOR REPLY"
DEBUG   2025-08-29 14:40:35,702  pymodbus.logging:transaction.py:419 Changing transaction state from "WAITING FOR REPLY" to "PROCESSING REPLY"
DEBUG   2025-08-29 14:40:35,702  pymodbus.logging:transaction.py:324 RECV: 0x1 0x3 0x4 0x0 0x0 0x0 0x0 0xfa 0x33
DEBUG   2025-08-29 14:40:35,702  pymodbus.logging:base.py:92 Processing: 0x1 0x3 0x4 0x0 0x0 0x0 0x0 0xfa 0x33
DEBUG   2025-08-29 14:40:35,702  pymodbus.logging:decoders.py:103 decode PDU for 3
DEBUG   2025-08-29 14:40:35,702  pymodbus.logging:base.py:102 Frame advanced, resetting header!!
DEBUG   2025-08-29 14:40:35,702  pymodbus.logging:transaction.py:67 Adding transaction 0
DEBUG   2025-08-29 14:40:35,702  pymodbus.logging:transaction.py:78 Getting transaction 0
DEBUG   2025-08-29 14:40:35,702  pymodbus.logging:transaction.py:258 Changing transaction state from "PROCESSING REPLY" to "TRANSACTION_COMPLETE"
INFO    2025-08-29 14:40:35,702  root:modbus_rtu_tcp.py:44 read_measurement ret is:ReadHoldingRegistersResponse (2)
INFO    2025-08-29 14:40:35,702  root:acudc260_modbus_get.py:201 read p2_power ret is:[0, 0]
DEBUG   2025-08-29 14:40:35,702  pymodbus.logging:transaction.py:184 Current transaction state - TRANSACTION_COMPLETE
DEBUG   2025-08-29 14:40:35,702  pymodbus.logging:transaction.py:193 Running transaction 0
DEBUG   2025-08-29 14:40:35,702  pymodbus.logging:transaction.py:293 SEND: 0x1 0x3 0x30 0xc 0x0 0x2 0xb 0x8
DEBUG   2025-08-29 14:40:35,702  pymodbus.logging:serial.py:271 Changing state to IDLE - Last Frame End - 1756449635.702672 Current Time stamp - 1756449635.702672
DEBUG   2025-08-29 14:40:35,702  pymodbus.logging:serial.py:279 Waiting for 3.5 char before next send - 1.823 ms
DEBUG   2025-08-29 14:40:35,706  pymodbus.logging:base.py:250 New Transaction state "SENDING"
DEBUG   2025-08-29 14:40:35,706  pymodbus.logging:transaction.py:317 Changing transaction state from "SENDING" to "WAITING FOR REPLY"
DEBUG   2025-08-29 14:40:35,734  pymodbus.logging:transaction.py:419 Changing transaction state from "WAITING FOR REPLY" to "PROCESSING REPLY"
DEBUG   2025-08-29 14:40:35,734  pymodbus.logging:transaction.py:324 RECV: 0x1 0x3 0x4 0x0 0x0 0x0 0x0 0xfa 0x33
DEBUG   2025-08-29 14:40:35,734  pymodbus.logging:base.py:92 Processing: 0x1 0x3 0x4 0x0 0x0 0x0 0x0 0xfa 0x33
DEBUG   2025-08-29 14:40:35,734  pymodbus.logging:decoders.py:103 decode PDU for 3
DEBUG   2025-08-29 14:40:35,734  pymodbus.logging:base.py:102 Frame advanced, resetting header!!
DEBUG   2025-08-29 14:40:35,734  pymodbus.logging:transaction.py:67 Adding transaction 0
DEBUG   2025-08-29 14:40:35,734  pymodbus.logging:transaction.py:78 Getting transaction 0
DEBUG   2025-08-29 14:40:35,734  pymodbus.logging:transaction.py:258 Changing transaction state from "PROCESSING REPLY" to "TRANSACTION_COMPLETE"
INFO    2025-08-29 14:40:35,734  root:modbus_rtu_tcp.py:44 read_measurement ret is:ReadHoldingRegistersResponse (2)
INFO    2025-08-29 14:40:35,734  root:acudc260_modbus_get.py:215 read p_sum_power ret is:[0, 0]
DEBUG   2025-08-29 14:40:35,835  pymodbus.logging:transaction.py:184 Current transaction state - TRANSACTION_COMPLETE
DEBUG   2025-08-29 14:40:35,835  pymodbus.logging:transaction.py:193 Running transaction 0
DEBUG   2025-08-29 14:40:35,835  pymodbus.logging:transaction.py:293 SEND: 0x1 0x3 0x30 0x0 0x0 0x2 0xcb 0xb
DEBUG   2025-08-29 14:40:35,835  pymodbus.logging:serial.py:271 Changing state to IDLE - Last Frame End - 1756449635.734453 Current Time stamp - 1756449635.835768
DEBUG   2025-08-29 14:40:35,835  pymodbus.logging:base.py:250 New Transaction state "SENDING"
DEBUG   2025-08-29 14:40:35,837  pymodbus.logging:transaction.py:317 Changing transaction state from "SENDING" to "WAITING FOR REPLY"
DEBUG   2025-08-29 14:40:35,872  pymodbus.logging:transaction.py:419 Changing transaction state from "WAITING FOR REPLY" to "PROCESSING REPLY"
DEBUG   2025-08-29 14:40:35,874  pymodbus.logging:transaction.py:324 RECV: 0x1 0x3 0x4 0x0 0x0 0x0 0x0 0xfa 0x33
DEBUG   2025-08-29 14:40:35,874  pymodbus.logging:base.py:92 Processing: 0x1 0x3 0x4 0x0 0x0 0x0 0x0 0xfa 0x33
DEBUG   2025-08-29 14:40:35,874  pymodbus.logging:decoders.py:103 decode PDU for 3
DEBUG   2025-08-29 14:40:35,874  pymodbus.logging:base.py:102 Frame advanced, resetting header!!
DEBUG   2025-08-29 14:40:35,874  pymodbus.logging:transaction.py:67 Adding transaction 0
DEBUG   2025-08-29 14:40:35,874  pymodbus.logging:transaction.py:78 Getting transaction 0
DEBUG   2025-08-29 14:40:35,874  pymodbus.logging:transaction.py:258 Changing transaction state from "PROCESSING REPLY" to "TRANSACTION_COMPLETE"
INFO    2025-08-29 14:40:35,874  root:modbus_rtu_tcp.py:44 read_measurement ret is:ReadHoldingRegistersResponse (2)
INFO    2025-08-29 14:40:35,874  root:acudc260_modbus_get.py:131 read u_voltage ret is:[0, 0]
DEBUG   2025-08-29 14:40:35,874  pymodbus.logging:transaction.py:184 Current transaction state - TRANSACTION_COMPLETE
DEBUG   2025-08-29 14:40:35,874  pymodbus.logging:transaction.py:193 Running transaction 0
DEBUG   2025-08-29 14:40:35,874  pymodbus.logging:transaction.py:293 SEND: 0x1 0x3 0x30 0x2 0x0 0x2 0x6a 0xcb
DEBUG   2025-08-29 14:40:35,874  pymodbus.logging:serial.py:271 Changing state to IDLE - Last Frame End - 1756449635.872352 Current Time stamp - 1756449635.874049
DEBUG   2025-08-29 14:40:35,874  pymodbus.logging:serial.py:279 Waiting for 3.5 char before next send - 1.823 ms
DEBUG   2025-08-29 14:40:35,877  pymodbus.logging:base.py:250 New Transaction state "SENDING"
DEBUG   2025-08-29 14:40:35,877  pymodbus.logging:transaction.py:317 Changing transaction state from "SENDING" to "WAITING FOR REPLY"
DEBUG   2025-08-29 14:40:35,910  pymodbus.logging:transaction.py:419 Changing transaction state from "WAITING FOR REPLY" to "PROCESSING REPLY"
DEBUG   2025-08-29 14:40:35,910  pymodbus.logging:transaction.py:324 RECV: 0x1 0x3 0x4 0x3e 0xd1 0x4a 0x63 0xd0 0xab
DEBUG   2025-08-29 14:40:35,910  pymodbus.logging:base.py:92 Processing: 0x1 0x3 0x4 0x3e 0xd1 0x4a 0x63 0xd0 0xab
DEBUG   2025-08-29 14:40:35,910  pymodbus.logging:decoders.py:103 decode PDU for 3
DEBUG   2025-08-29 14:40:35,910  pymodbus.logging:base.py:102 Frame advanced, resetting header!!
DEBUG   2025-08-29 14:40:35,910  pymodbus.logging:transaction.py:67 Adding transaction 0
DEBUG   2025-08-29 14:40:35,910  pymodbus.logging:transaction.py:78 Getting transaction 0
DEBUG   2025-08-29 14:40:35,910  pymodbus.logging:transaction.py:258 Changing transaction state from "PROCESSING REPLY" to "TRANSACTION_COMPLETE"
INFO    2025-08-29 14:40:35,910  root:modbus_rtu_tcp.py:44 read_measurement ret is:ReadHoldingRegistersResponse (2)
INFO    2025-08-29 14:40:35,910  root:acudc260_modbus_get.py:145 read i1_current ret is:[16081, 19043]
DEBUG   2025-08-29 14:40:35,910  pymodbus.logging:transaction.py:184 Current transaction state - TRANSACTION_COMPLETE
DEBUG   2025-08-29 14:40:35,910  pymodbus.logging:transaction.py:193 Running transaction 0
DEBUG   2025-08-29 14:40:35,910  pymodbus.logging:transaction.py:293 SEND: 0x1 0x3 0x30 0x4 0x0 0x2 0x8a 0xca
DEBUG   2025-08-29 14:40:35,910  pymodbus.logging:serial.py:271 Changing state to IDLE - Last Frame End - 1756449635.910868 Current Time stamp - 1756449635.910868
DEBUG   2025-08-29 14:40:35,910  pymodbus.logging:serial.py:279 Waiting for 3.5 char before next send - 1.823 ms
DEBUG   2025-08-29 14:40:35,914  pymodbus.logging:base.py:250 New Transaction state "SENDING"
DEBUG   2025-08-29 14:40:35,914  pymodbus.logging:transaction.py:317 Changing transaction state from "SENDING" to "WAITING FOR REPLY"
DEBUG   2025-08-29 14:40:35,943  pymodbus.logging:transaction.py:419 Changing transaction state from "WAITING FOR REPLY" to "PROCESSING REPLY"
DEBUG   2025-08-29 14:40:35,943  pymodbus.logging:transaction.py:324 RECV: 0x1 0x3 0x4 0x3e 0xcd 0x44 0x43 0x14 0xd5
DEBUG   2025-08-29 14:40:35,943  pymodbus.logging:base.py:92 Processing: 0x1 0x3 0x4 0x3e 0xcd 0x44 0x43 0x14 0xd5
DEBUG   2025-08-29 14:40:35,943  pymodbus.logging:decoders.py:103 decode PDU for 3
DEBUG   2025-08-29 14:40:35,943  pymodbus.logging:base.py:102 Frame advanced, resetting header!!
DEBUG   2025-08-29 14:40:35,943  pymodbus.logging:transaction.py:67 Adding transaction 0
DEBUG   2025-08-29 14:40:35,943  pymodbus.logging:transaction.py:78 Getting transaction 0
DEBUG   2025-08-29 14:40:35,943  pymodbus.logging:transaction.py:258 Changing transaction state from "PROCESSING REPLY" to "TRANSACTION_COMPLETE"
INFO    2025-08-29 14:40:35,943  root:modbus_rtu_tcp.py:44 read_measurement ret is:ReadHoldingRegistersResponse (2)
INFO    2025-08-29 14:40:35,943  root:acudc260_modbus_get.py:159 read i2_current ret is:[16077, 17475]
DEBUG   2025-08-29 14:40:35,943  pymodbus.logging:transaction.py:184 Current transaction state - TRANSACTION_COMPLETE
DEBUG   2025-08-29 14:40:35,943  pymodbus.logging:transaction.py:193 Running transaction 0
DEBUG   2025-08-29 14:40:35,943  pymodbus.logging:transaction.py:293 SEND: 0x1 0x3 0x30 0x6 0x0 0x2 0x2b 0xa
DEBUG   2025-08-29 14:40:35,943  pymodbus.logging:serial.py:271 Changing state to IDLE - Last Frame End - 1756449635.943106 Current Time stamp - 1756449635.943106
DEBUG   2025-08-29 14:40:35,943  pymodbus.logging:serial.py:279 Waiting for 3.5 char before next send - 1.823 ms
DEBUG   2025-08-29 14:40:35,946  pymodbus.logging:base.py:250 New Transaction state "SENDING"
DEBUG   2025-08-29 14:40:35,946  pymodbus.logging:transaction.py:317 Changing transaction state from "SENDING" to "WAITING FOR REPLY"
DEBUG   2025-08-29 14:40:35,974  pymodbus.logging:transaction.py:419 Changing transaction state from "WAITING FOR REPLY" to "PROCESSING REPLY"
DEBUG   2025-08-29 14:40:35,974  pymodbus.logging:transaction.py:324 RECV: 0x1 0x3 0x4 0x3f 0x4f 0x47 0x53 0xb4 0x3d
DEBUG   2025-08-29 14:40:35,974  pymodbus.logging:base.py:92 Processing: 0x1 0x3 0x4 0x3f 0x4f 0x47 0x53 0xb4 0x3d
DEBUG   2025-08-29 14:40:35,974  pymodbus.logging:decoders.py:103 decode PDU for 3
DEBUG   2025-08-29 14:40:35,974  pymodbus.logging:base.py:102 Frame advanced, resetting header!!
DEBUG   2025-08-29 14:40:35,974  pymodbus.logging:transaction.py:67 Adding transaction 0
DEBUG   2025-08-29 14:40:35,974  pymodbus.logging:transaction.py:78 Getting transaction 0
DEBUG   2025-08-29 14:40:35,974  pymodbus.logging:transaction.py:258 Changing transaction state from "PROCESSING REPLY" to "TRANSACTION_COMPLETE"
INFO    2025-08-29 14:40:35,974  root:modbus_rtu_tcp.py:44 read_measurement ret is:ReadHoldingRegistersResponse (2)
INFO    2025-08-29 14:40:35,974  root:acudc260_modbus_get.py:173 read i_sum_current ret is:[16207, 18259]
DEBUG   2025-08-29 14:40:35,974  pymodbus.logging:transaction.py:184 Current transaction state - TRANSACTION_COMPLETE
DEBUG   2025-08-29 14:40:35,974  pymodbus.logging:transaction.py:193 Running transaction 0
DEBUG   2025-08-29 14:40:35,974  pymodbus.logging:transaction.py:293 SEND: 0x1 0x3 0x30 0x8 0x0 0x2 0x4a 0xc9
DEBUG   2025-08-29 14:40:35,974  pymodbus.logging:serial.py:271 Changing state to IDLE - Last Frame End - 1756449635.974719 Current Time stamp - 1756449635.974719
DEBUG   2025-08-29 14:40:35,974  pymodbus.logging:serial.py:279 Waiting for 3.5 char before next send - 1.823 ms
DEBUG   2025-08-29 14:40:35,978  pymodbus.logging:base.py:250 New Transaction state "SENDING"
DEBUG   2025-08-29 14:40:35,978  pymodbus.logging:transaction.py:317 Changing transaction state from "SENDING" to "WAITING FOR REPLY"
DEBUG   2025-08-29 14:40:36,006  pymodbus.logging:transaction.py:419 Changing transaction state from "WAITING FOR REPLY" to "PROCESSING REPLY"
DEBUG   2025-08-29 14:40:36,006  pymodbus.logging:transaction.py:324 RECV: 0x1 0x3 0x4 0x0 0x0 0x0 0x0 0xfa 0x33
DEBUG   2025-08-29 14:40:36,006  pymodbus.logging:base.py:92 Processing: 0x1 0x3 0x4 0x0 0x0 0x0 0x0 0xfa 0x33
DEBUG   2025-08-29 14:40:36,006  pymodbus.logging:decoders.py:103 decode PDU for 3
DEBUG   2025-08-29 14:40:36,006  pymodbus.logging:base.py:102 Frame advanced, resetting header!!
DEBUG   2025-08-29 14:40:36,006  pymodbus.logging:transaction.py:67 Adding transaction 0
DEBUG   2025-08-29 14:40:36,006  pymodbus.logging:transaction.py:78 Getting transaction 0
DEBUG   2025-08-29 14:40:36,006  pymodbus.logging:transaction.py:258 Changing transaction state from "PROCESSING REPLY" to "TRANSACTION_COMPLETE"
INFO    2025-08-29 14:40:36,006  root:modbus_rtu_tcp.py:44 read_measurement ret is:ReadHoldingRegistersResponse (2)
INFO    2025-08-29 14:40:36,006  root:acudc260_modbus_get.py:187 read p1_power ret is:[0, 0]
DEBUG   2025-08-29 14:40:36,006  pymodbus.logging:transaction.py:184 Current transaction state - TRANSACTION_COMPLETE
DEBUG   2025-08-29 14:40:36,006  pymodbus.logging:transaction.py:193 Running transaction 0
DEBUG   2025-08-29 14:40:36,006  pymodbus.logging:transaction.py:293 SEND: 0x1 0x3 0x30 0xa 0x0 0x2 0xeb 0x9
DEBUG   2025-08-29 14:40:36,006  pymodbus.logging:serial.py:271 Changing state to IDLE - Last Frame End - 1756449636.006219 Current Time stamp - 1756449636.006219
DEBUG   2025-08-29 14:40:36,006  pymodbus.logging:serial.py:279 Waiting for 3.5 char before next send - 1.823 ms
DEBUG   2025-08-29 14:40:36,009  pymodbus.logging:base.py:250 New Transaction state "SENDING"
DEBUG   2025-08-29 14:40:36,009  pymodbus.logging:transaction.py:317 Changing transaction state from "SENDING" to "WAITING FOR REPLY"
DEBUG   2025-08-29 14:40:36,036  pymodbus.logging:transaction.py:419 Changing transaction state from "WAITING FOR REPLY" to "PROCESSING REPLY"
DEBUG   2025-08-29 14:40:36,036  pymodbus.logging:transaction.py:324 RECV: 0x1 0x3 0x4 0x0 0x0 0x0 0x0 0xfa 0x33
DEBUG   2025-08-29 14:40:36,036  pymodbus.logging:base.py:92 Processing: 0x1 0x3 0x4 0x0 0x0 0x0 0x0 0xfa 0x33
DEBUG   2025-08-29 14:40:36,036  pymodbus.logging:decoders.py:103 decode PDU for 3
DEBUG   2025-08-29 14:40:36,036  pymodbus.logging:base.py:102 Frame advanced, resetting header!!
DEBUG   2025-08-29 14:40:36,036  pymodbus.logging:transaction.py:67 Adding transaction 0
DEBUG   2025-08-29 14:40:36,036  pymodbus.logging:transaction.py:78 Getting transaction 0
DEBUG   2025-08-29 14:40:36,036  pymodbus.logging:transaction.py:258 Changing transaction state from "PROCESSING REPLY" to "TRANSACTION_COMPLETE"
INFO    2025-08-29 14:40:36,036  root:modbus_rtu_tcp.py:44 read_measurement ret is:ReadHoldingRegistersResponse (2)
INFO    2025-08-29 14:40:36,036  root:acudc260_modbus_get.py:201 read p2_power ret is:[0, 0]
DEBUG   2025-08-29 14:40:36,036  pymodbus.logging:transaction.py:184 Current transaction state - TRANSACTION_COMPLETE
DEBUG   2025-08-29 14:40:36,036  pymodbus.logging:transaction.py:193 Running transaction 0
DEBUG   2025-08-29 14:40:36,036  pymodbus.logging:transaction.py:293 SEND: 0x1 0x3 0x30 0xc 0x0 0x2 0xb 0x8
DEBUG   2025-08-29 14:40:36,036  pymodbus.logging:serial.py:271 Changing state to IDLE - Last Frame End - 1756449636.036246 Current Time stamp - 1756449636.036246
DEBUG   2025-08-29 14:40:36,036  pymodbus.logging:serial.py:279 Waiting for 3.5 char before next send - 1.823 ms
DEBUG   2025-08-29 14:40:36,039  pymodbus.logging:base.py:250 New Transaction state "SENDING"
DEBUG   2025-08-29 14:40:36,039  pymodbus.logging:transaction.py:317 Changing transaction state from "SENDING" to "WAITING FOR REPLY"
DEBUG   2025-08-29 14:40:36,068  pymodbus.logging:transaction.py:419 Changing transaction state from "WAITING FOR REPLY" to "PROCESSING REPLY"
DEBUG   2025-08-29 14:40:36,068  pymodbus.logging:transaction.py:324 RECV: 0x1 0x3 0x4 0x0 0x0 0x0 0x0 0xfa 0x33
DEBUG   2025-08-29 14:40:36,068  pymodbus.logging:base.py:92 Processing: 0x1 0x3 0x4 0x0 0x0 0x0 0x0 0xfa 0x33
DEBUG   2025-08-29 14:40:36,068  pymodbus.logging:decoders.py:103 decode PDU for 3
DEBUG   2025-08-29 14:40:36,068  pymodbus.logging:base.py:102 Frame advanced, resetting header!!
DEBUG   2025-08-29 14:40:36,068  pymodbus.logging:transaction.py:67 Adding transaction 0
DEBUG   2025-08-29 14:40:36,068  pymodbus.logging:transaction.py:78 Getting transaction 0
DEBUG   2025-08-29 14:40:36,068  pymodbus.logging:transaction.py:258 Changing transaction state from "PROCESSING REPLY" to "TRANSACTION_COMPLETE"
INFO    2025-08-29 14:40:36,068  root:modbus_rtu_tcp.py:44 read_measurement ret is:ReadHoldingRegistersResponse (2)
INFO    2025-08-29 14:40:36,068  root:acudc260_modbus_get.py:215 read p_sum_power ret is:[0, 0]
DEBUG   2025-08-29 14:40:36,170  pymodbus.logging:transaction.py:184 Current transaction state - TRANSACTION_COMPLETE
DEBUG   2025-08-29 14:40:36,170  pymodbus.logging:transaction.py:193 Running transaction 0
DEBUG   2025-08-29 14:40:36,170  pymodbus.logging:transaction.py:293 SEND: 0x1 0x3 0x30 0x0 0x0 0x2 0xcb 0xb
DEBUG   2025-08-29 14:40:36,170  pymodbus.logging:serial.py:271 Changing state to IDLE - Last Frame End - 1756449636.068712 Current Time stamp - 1756449636.170719
DEBUG   2025-08-29 14:40:36,170  pymodbus.logging:base.py:250 New Transaction state "SENDING"
DEBUG   2025-08-29 14:40:36,170  pymodbus.logging:transaction.py:317 Changing transaction state from "SENDING" to "WAITING FOR REPLY"
DEBUG   2025-08-29 14:40:36,198  pymodbus.logging:transaction.py:419 Changing transaction state from "WAITING FOR REPLY" to "PROCESSING REPLY"
DEBUG   2025-08-29 14:40:36,198  pymodbus.logging:transaction.py:324 RECV: 0x1 0x3 0x4 0x0 0x0 0x0 0x0 0xfa 0x33
DEBUG   2025-08-29 14:40:36,198  pymodbus.logging:base.py:92 Processing: 0x1 0x3 0x4 0x0 0x0 0x0 0x0 0xfa 0x33
DEBUG   2025-08-29 14:40:36,198  pymodbus.logging:decoders.py:103 decode PDU for 3
DEBUG   2025-08-29 14:40:36,198  pymodbus.logging:base.py:102 Frame advanced, resetting header!!
DEBUG   2025-08-29 14:40:36,198  pymodbus.logging:transaction.py:67 Adding transaction 0
DEBUG   2025-08-29 14:40:36,198  pymodbus.logging:transaction.py:78 Getting transaction 0
DEBUG   2025-08-29 14:40:36,198  pymodbus.logging:transaction.py:258 Changing transaction state from "PROCESSING REPLY" to "TRANSACTION_COMPLETE"
INFO    2025-08-29 14:40:36,198  root:modbus_rtu_tcp.py:44 read_measurement ret is:ReadHoldingRegistersResponse (2)
INFO    2025-08-29 14:40:36,198  root:acudc260_modbus_get.py:131 read u_voltage ret is:[0, 0]
DEBUG   2025-08-29 14:40:36,198  pymodbus.logging:transaction.py:184 Current transaction state - TRANSACTION_COMPLETE
DEBUG   2025-08-29 14:40:36,198  pymodbus.logging:transaction.py:193 Running transaction 0
DEBUG   2025-08-29 14:40:36,198  pymodbus.logging:transaction.py:293 SEND: 0x1 0x3 0x30 0x2 0x0 0x2 0x6a 0xcb
DEBUG   2025-08-29 14:40:36,198  pymodbus.logging:serial.py:271 Changing state to IDLE - Last Frame End - 1756449636.198997 Current Time stamp - 1756449636.198997
DEBUG   2025-08-29 14:40:36,198  pymodbus.logging:serial.py:279 Waiting for 3.5 char before next send - 1.823 ms
DEBUG   2025-08-29 14:40:36,202  pymodbus.logging:base.py:250 New Transaction state "SENDING"
DEBUG   2025-08-29 14:40:36,202  pymodbus.logging:transaction.py:317 Changing transaction state from "SENDING" to "WAITING FOR REPLY"
DEBUG   2025-08-29 14:40:36,231  pymodbus.logging:transaction.py:419 Changing transaction state from "WAITING FOR REPLY" to "PROCESSING REPLY"
DEBUG   2025-08-29 14:40:36,231  pymodbus.logging:transaction.py:324 RECV: 0x1 0x3 0x4 0x3e 0xd1 0x47 0xe0 0x95 0x9a
DEBUG   2025-08-29 14:40:36,231  pymodbus.logging:base.py:92 Processing: 0x1 0x3 0x4 0x3e 0xd1 0x47 0xe0 0x95 0x9a
DEBUG   2025-08-29 14:40:36,231  pymodbus.logging:decoders.py:103 decode PDU for 3
DEBUG   2025-08-29 14:40:36,231  pymodbus.logging:base.py:102 Frame advanced, resetting header!!
DEBUG   2025-08-29 14:40:36,231  pymodbus.logging:transaction.py:67 Adding transaction 0
DEBUG   2025-08-29 14:40:36,231  pymodbus.logging:transaction.py:78 Getting transaction 0
DEBUG   2025-08-29 14:40:36,231  pymodbus.logging:transaction.py:258 Changing transaction state from "PROCESSING REPLY" to "TRANSACTION_COMPLETE"
INFO    2025-08-29 14:40:36,231  root:modbus_rtu_tcp.py:44 read_measurement ret is:ReadHoldingRegistersResponse (2)
INFO    2025-08-29 14:40:36,231  root:acudc260_modbus_get.py:145 read i1_current ret is:[16081, 18400]
DEBUG   2025-08-29 14:40:36,231  pymodbus.logging:transaction.py:184 Current transaction state - TRANSACTION_COMPLETE
DEBUG   2025-08-29 14:40:36,231  pymodbus.logging:transaction.py:193 Running transaction 0
DEBUG   2025-08-29 14:40:36,231  pymodbus.logging:transaction.py:293 SEND: 0x1 0x3 0x30 0x4 0x0 0x2 0x8a 0xca
DEBUG   2025-08-29 14:40:36,231  pymodbus.logging:serial.py:271 Changing state to IDLE - Last Frame End - 1756449636.231325 Current Time stamp - 1756449636.231325
DEBUG   2025-08-29 14:40:36,231  pymodbus.logging:serial.py:279 Waiting for 3.5 char before next send - 1.823 ms
DEBUG   2025-08-29 14:40:36,234  pymodbus.logging:base.py:250 New Transaction state "SENDING"
DEBUG   2025-08-29 14:40:36,234  pymodbus.logging:transaction.py:317 Changing transaction state from "SENDING" to "WAITING FOR REPLY"
DEBUG   2025-08-29 14:40:36,261  pymodbus.logging:transaction.py:419 Changing transaction state from "WAITING FOR REPLY" to "PROCESSING REPLY"
DEBUG   2025-08-29 14:40:36,261  pymodbus.logging:transaction.py:324 RECV: 0x1 0x3 0x4 0x3e 0xcd 0x52 0x7a 0xda 0xa7
DEBUG   2025-08-29 14:40:36,261  pymodbus.logging:base.py:92 Processing: 0x1 0x3 0x4 0x3e 0xcd 0x52 0x7a 0xda 0xa7
DEBUG   2025-08-29 14:40:36,261  pymodbus.logging:decoders.py:103 decode PDU for 3
DEBUG   2025-08-29 14:40:36,261  pymodbus.logging:base.py:102 Frame advanced, resetting header!!
DEBUG   2025-08-29 14:40:36,261  pymodbus.logging:transaction.py:67 Adding transaction 0
DEBUG   2025-08-29 14:40:36,261  pymodbus.logging:transaction.py:78 Getting transaction 0
DEBUG   2025-08-29 14:40:36,261  pymodbus.logging:transaction.py:258 Changing transaction state from "PROCESSING REPLY" to "TRANSACTION_COMPLETE"
INFO    2025-08-29 14:40:36,261  root:modbus_rtu_tcp.py:44 read_measurement ret is:ReadHoldingRegistersResponse (2)
INFO    2025-08-29 14:40:36,261  root:acudc260_modbus_get.py:159 read i2_current ret is:[16077, 21114]
DEBUG   2025-08-29 14:40:36,261  pymodbus.logging:transaction.py:184 Current transaction state - TRANSACTION_COMPLETE
DEBUG   2025-08-29 14:40:36,261  pymodbus.logging:transaction.py:193 Running transaction 0
DEBUG   2025-08-29 14:40:36,261  pymodbus.logging:transaction.py:293 SEND: 0x1 0x3 0x30 0x6 0x0 0x2 0x2b 0xa
DEBUG   2025-08-29 14:40:36,261  pymodbus.logging:serial.py:271 Changing state to IDLE - Last Frame End - 1756449636.261087 Current Time stamp - 1756449636.261087
DEBUG   2025-08-29 14:40:36,261  pymodbus.logging:serial.py:279 Waiting for 3.5 char before next send - 1.823 ms
DEBUG   2025-08-29 14:40:36,264  pymodbus.logging:base.py:250 New Transaction state "SENDING"
DEBUG   2025-08-29 14:40:36,264  pymodbus.logging:transaction.py:317 Changing transaction state from "SENDING" to "WAITING FOR REPLY"
DEBUG   2025-08-29 14:40:36,294  pymodbus.logging:transaction.py:419 Changing transaction state from "WAITING FOR REPLY" to "PROCESSING REPLY"
DEBUG   2025-08-29 14:40:36,294  pymodbus.logging:transaction.py:324 RECV: 0x1 0x3 0x4 0x3f 0x4d 0xfe 0x6a 0xa6 0x7f
DEBUG   2025-08-29 14:40:36,294  pymodbus.logging:base.py:92 Processing: 0x1 0x3 0x4 0x3f 0x4d 0xfe 0x6a 0xa6 0x7f
DEBUG   2025-08-29 14:40:36,294  pymodbus.logging:decoders.py:103 decode PDU for 3
DEBUG   2025-08-29 14:40:36,294  pymodbus.logging:base.py:102 Frame advanced, resetting header!!
DEBUG   2025-08-29 14:40:36,294  pymodbus.logging:transaction.py:67 Adding transaction 0
DEBUG   2025-08-29 14:40:36,294  pymodbus.logging:transaction.py:78 Getting transaction 0
DEBUG   2025-08-29 14:40:36,294  pymodbus.logging:transaction.py:258 Changing transaction state from "PROCESSING REPLY" to "TRANSACTION_COMPLETE"
INFO    2025-08-29 14:40:36,294  root:modbus_rtu_tcp.py:44 read_measurement ret is:ReadHoldingRegistersResponse (2)
INFO    2025-08-29 14:40:36,294  root:acudc260_modbus_get.py:173 read i_sum_current ret is:[16205, 65130]
DEBUG   2025-08-29 14:40:36,294  pymodbus.logging:transaction.py:184 Current transaction state - TRANSACTION_COMPLETE
DEBUG   2025-08-29 14:40:36,294  pymodbus.logging:transaction.py:193 Running transaction 0
DEBUG   2025-08-29 14:40:36,294  pymodbus.logging:transaction.py:293 SEND: 0x1 0x3 0x30 0x8 0x0 0x2 0x4a 0xc9
DEBUG   2025-08-29 14:40:36,294  pymodbus.logging:serial.py:271 Changing state to IDLE - Last Frame End - 1756449636.29415 Current Time stamp - 1756449636.29415
DEBUG   2025-08-29 14:40:36,294  pymodbus.logging:serial.py:279 Waiting for 3.5 char before next send - 1.823 ms
DEBUG   2025-08-29 14:40:36,297  pymodbus.logging:base.py:250 New Transaction state "SENDING"
DEBUG   2025-08-29 14:40:36,297  pymodbus.logging:transaction.py:317 Changing transaction state from "SENDING" to "WAITING FOR REPLY"
DEBUG   2025-08-29 14:40:36,319  pymodbus.logging:transaction.py:419 Changing transaction state from "WAITING FOR REPLY" to "PROCESSING REPLY"
DEBUG   2025-08-29 14:40:36,319  pymodbus.logging:transaction.py:324 RECV: 0x1 0x3 0x4 0x0 0x0 0x0 0x0 0xfa 0x33
DEBUG   2025-08-29 14:40:36,319  pymodbus.logging:base.py:92 Processing: 0x1 0x3 0x4 0x0 0x0 0x0 0x0 0xfa 0x33
DEBUG   2025-08-29 14:40:36,319  pymodbus.logging:decoders.py:103 decode PDU for 3
DEBUG   2025-08-29 14:40:36,319  pymodbus.logging:base.py:102 Frame advanced, resetting header!!
DEBUG   2025-08-29 14:40:36,319  pymodbus.logging:transaction.py:67 Adding transaction 0
DEBUG   2025-08-29 14:40:36,319  pymodbus.logging:transaction.py:78 Getting transaction 0
DEBUG   2025-08-29 14:40:36,319  pymodbus.logging:transaction.py:258 Changing transaction state from "PROCESSING REPLY" to "TRANSACTION_COMPLETE"
INFO    2025-08-29 14:40:36,319  root:modbus_rtu_tcp.py:44 read_measurement ret is:ReadHoldingRegistersResponse (2)
INFO    2025-08-29 14:40:36,319  root:acudc260_modbus_get.py:187 read p1_power ret is:[0, 0]
DEBUG   2025-08-29 14:40:36,319  pymodbus.logging:transaction.py:184 Current transaction state - TRANSACTION_COMPLETE
DEBUG   2025-08-29 14:40:36,319  pymodbus.logging:transaction.py:193 Running transaction 0
DEBUG   2025-08-29 14:40:36,319  pymodbus.logging:transaction.py:293 SEND: 0x1 0x3 0x30 0xa 0x0 0x2 0xeb 0x9
DEBUG   2025-08-29 14:40:36,319  pymodbus.logging:serial.py:271 Changing state to IDLE - Last Frame End - 1756449636.319278 Current Time stamp - 1756449636.319278
DEBUG   2025-08-29 14:40:36,319  pymodbus.logging:serial.py:279 Waiting for 3.5 char before next send - 1.823 ms
DEBUG   2025-08-29 14:40:36,325  pymodbus.logging:base.py:250 New Transaction state "SENDING"
DEBUG   2025-08-29 14:40:36,325  pymodbus.logging:transaction.py:317 Changing transaction state from "SENDING" to "WAITING FOR REPLY"
DEBUG   2025-08-29 14:40:36,359  pymodbus.logging:transaction.py:419 Changing transaction state from "WAITING FOR REPLY" to "PROCESSING REPLY"
DEBUG   2025-08-29 14:40:36,359  pymodbus.logging:transaction.py:324 RECV: 0x1 0x3 0x4 0x0 0x0 0x0 0x0 0xfa 0x33
DEBUG   2025-08-29 14:40:36,359  pymodbus.logging:base.py:92 Processing: 0x1 0x3 0x4 0x0 0x0 0x0 0x0 0xfa 0x33
DEBUG   2025-08-29 14:40:36,359  pymodbus.logging:decoders.py:103 decode PDU for 3
DEBUG   2025-08-29 14:40:36,359  pymodbus.logging:base.py:102 Frame advanced, resetting header!!
DEBUG   2025-08-29 14:40:36,359  pymodbus.logging:transaction.py:67 Adding transaction 0
DEBUG   2025-08-29 14:40:36,359  pymodbus.logging:transaction.py:78 Getting transaction 0
DEBUG   2025-08-29 14:40:36,359  pymodbus.logging:transaction.py:258 Changing transaction state from "PROCESSING REPLY" to "TRANSACTION_COMPLETE"
INFO    2025-08-29 14:40:36,359  root:modbus_rtu_tcp.py:44 read_measurement ret is:ReadHoldingRegistersResponse (2)
INFO    2025-08-29 14:40:36,359  root:acudc260_modbus_get.py:201 read p2_power ret is:[0, 0]
DEBUG   2025-08-29 14:40:36,359  pymodbus.logging:transaction.py:184 Current transaction state - TRANSACTION_COMPLETE
DEBUG   2025-08-29 14:40:36,360  pymodbus.logging:transaction.py:193 Running transaction 0
DEBUG   2025-08-29 14:40:36,360  pymodbus.logging:transaction.py:293 SEND: 0x1 0x3 0x30 0xc 0x0 0x2 0xb 0x8
DEBUG   2025-08-29 14:40:36,360  pymodbus.logging:serial.py:271 Changing state to IDLE - Last Frame End - 1756449636.359373 Current Time stamp - 1756449636.360519
DEBUG   2025-08-29 14:40:36,360  pymodbus.logging:serial.py:279 Waiting for 3.5 char before next send - 1.823 ms
DEBUG   2025-08-29 14:40:36,362  pymodbus.logging:base.py:250 New Transaction state "SENDING"
DEBUG   2025-08-29 14:40:36,362  pymodbus.logging:transaction.py:317 Changing transaction state from "SENDING" to "WAITING FOR REPLY"
DEBUG   2025-08-29 14:40:36,388  pymodbus.logging:transaction.py:419 Changing transaction state from "WAITING FOR REPLY" to "PROCESSING REPLY"
DEBUG   2025-08-29 14:40:36,388  pymodbus.logging:transaction.py:324 RECV: 0x1 0x3 0x4 0x0 0x0 0x0 0x0 0xfa 0x33
DEBUG   2025-08-29 14:40:36,388  pymodbus.logging:base.py:92 Processing: 0x1 0x3 0x4 0x0 0x0 0x0 0x0 0xfa 0x33
DEBUG   2025-08-29 14:40:36,388  pymodbus.logging:decoders.py:103 decode PDU for 3
DEBUG   2025-08-29 14:40:36,388  pymodbus.logging:base.py:102 Frame advanced, resetting header!!
DEBUG   2025-08-29 14:40:36,388  pymodbus.logging:transaction.py:67 Adding transaction 0
DEBUG   2025-08-29 14:40:36,388  pymodbus.logging:transaction.py:78 Getting transaction 0
DEBUG   2025-08-29 14:40:36,388  pymodbus.logging:transaction.py:258 Changing transaction state from "PROCESSING REPLY" to "TRANSACTION_COMPLETE"
INFO    2025-08-29 14:40:36,388  root:modbus_rtu_tcp.py:44 read_measurement ret is:ReadHoldingRegistersResponse (2)
INFO    2025-08-29 14:40:36,388  root:acudc260_modbus_get.py:215 read p_sum_power ret is:[0, 0]
DEBUG   2025-08-29 14:40:36,490  pymodbus.logging:transaction.py:184 Current transaction state - TRANSACTION_COMPLETE
DEBUG   2025-08-29 14:40:36,490  pymodbus.logging:transaction.py:193 Running transaction 0
DEBUG   2025-08-29 14:40:36,490  pymodbus.logging:transaction.py:293 SEND: 0x1 0x3 0x30 0x0 0x0 0x2 0xcb 0xb
DEBUG   2025-08-29 14:40:36,490  pymodbus.logging:serial.py:271 Changing state to IDLE - Last Frame End - 1756449636.388624 Current Time stamp - 1756449636.490663
DEBUG   2025-08-29 14:40:36,490  pymodbus.logging:base.py:250 New Transaction state "SENDING"
DEBUG   2025-08-29 14:40:36,490  pymodbus.logging:transaction.py:317 Changing transaction state from "SENDING" to "WAITING FOR REPLY"
DEBUG   2025-08-29 14:40:36,517  pymodbus.logging:transaction.py:419 Changing transaction state from "WAITING FOR REPLY" to "PROCESSING REPLY"
DEBUG   2025-08-29 14:40:36,517  pymodbus.logging:transaction.py:324 RECV: 0x1 0x3 0x4 0x0 0x0 0x0 0x0 0xfa 0x33
DEBUG   2025-08-29 14:40:36,517  pymodbus.logging:base.py:92 Processing: 0x1 0x3 0x4 0x0 0x0 0x0 0x0 0xfa 0x33
DEBUG   2025-08-29 14:40:36,517  pymodbus.logging:decoders.py:103 decode PDU for 3
DEBUG   2025-08-29 14:40:36,517  pymodbus.logging:base.py:102 Frame advanced, resetting header!!
DEBUG   2025-08-29 14:40:36,517  pymodbus.logging:transaction.py:67 Adding transaction 0
DEBUG   2025-08-29 14:40:36,517  pymodbus.logging:transaction.py:78 Getting transaction 0
DEBUG   2025-08-29 14:40:36,517  pymodbus.logging:transaction.py:258 Changing transaction state from "PROCESSING REPLY" to "TRANSACTION_COMPLETE"
INFO    2025-08-29 14:40:36,517  root:modbus_rtu_tcp.py:44 read_measurement ret is:ReadHoldingRegistersResponse (2)
INFO    2025-08-29 14:40:36,517  root:acudc260_modbus_get.py:131 read u_voltage ret is:[0, 0]
DEBUG   2025-08-29 14:40:36,517  pymodbus.logging:transaction.py:184 Current transaction state - TRANSACTION_COMPLETE
DEBUG   2025-08-29 14:40:36,517  pymodbus.logging:transaction.py:193 Running transaction 0
DEBUG   2025-08-29 14:40:36,517  pymodbus.logging:transaction.py:293 SEND: 0x1 0x3 0x30 0x2 0x0 0x2 0x6a 0xcb
DEBUG   2025-08-29 14:40:36,517  pymodbus.logging:serial.py:271 Changing state to IDLE - Last Frame End - 1756449636.517154 Current Time stamp - 1756449636.517154
DEBUG   2025-08-29 14:40:36,517  pymodbus.logging:serial.py:279 Waiting for 3.5 char before next send - 1.823 ms
DEBUG   2025-08-29 14:40:36,520  pymodbus.logging:base.py:250 New Transaction state "SENDING"
DEBUG   2025-08-29 14:40:36,520  pymodbus.logging:transaction.py:317 Changing transaction state from "SENDING" to "WAITING FOR REPLY"
DEBUG   2025-08-29 14:40:36,548  pymodbus.logging:transaction.py:419 Changing transaction state from "WAITING FOR REPLY" to "PROCESSING REPLY"
DEBUG   2025-08-29 14:40:36,548  pymodbus.logging:transaction.py:324 RECV: 0x1 0x3 0x4 0x3e 0xd3 0x17 0x56 0x89 0xec
DEBUG   2025-08-29 14:40:36,548  pymodbus.logging:base.py:92 Processing: 0x1 0x3 0x4 0x3e 0xd3 0x17 0x56 0x89 0xec
DEBUG   2025-08-29 14:40:36,548  pymodbus.logging:decoders.py:103 decode PDU for 3
DEBUG   2025-08-29 14:40:36,548  pymodbus.logging:base.py:102 Frame advanced, resetting header!!
DEBUG   2025-08-29 14:40:36,548  pymodbus.logging:transaction.py:67 Adding transaction 0
DEBUG   2025-08-29 14:40:36,548  pymodbus.logging:transaction.py:78 Getting transaction 0
DEBUG   2025-08-29 14:40:36,548  pymodbus.logging:transaction.py:258 Changing transaction state from "PROCESSING REPLY" to "TRANSACTION_COMPLETE"
INFO    2025-08-29 14:40:36,548  root:modbus_rtu_tcp.py:44 read_measurement ret is:ReadHoldingRegistersResponse (2)
INFO    2025-08-29 14:40:36,548  root:acudc260_modbus_get.py:145 read i1_current ret is:[16083, 5974]
DEBUG   2025-08-29 14:40:36,548  pymodbus.logging:transaction.py:184 Current transaction state - TRANSACTION_COMPLETE
DEBUG   2025-08-29 14:40:36,548  pymodbus.logging:transaction.py:193 Running transaction 0
DEBUG   2025-08-29 14:40:36,548  pymodbus.logging:transaction.py:293 SEND: 0x1 0x3 0x30 0x4 0x0 0x2 0x8a 0xca
DEBUG   2025-08-29 14:40:36,548  pymodbus.logging:serial.py:271 Changing state to IDLE - Last Frame End - 1756449636.548701 Current Time stamp - 1756449636.548701
DEBUG   2025-08-29 14:40:36,548  pymodbus.logging:serial.py:279 Waiting for 3.5 char before next send - 1.823 ms
DEBUG   2025-08-29 14:40:36,552  pymodbus.logging:base.py:250 New Transaction state "SENDING"
DEBUG   2025-08-29 14:40:36,552  pymodbus.logging:transaction.py:317 Changing transaction state from "SENDING" to "WAITING FOR REPLY"
DEBUG   2025-08-29 14:40:36,582  pymodbus.logging:transaction.py:419 Changing transaction state from "WAITING FOR REPLY" to "PROCESSING REPLY"
DEBUG   2025-08-29 14:40:36,582  pymodbus.logging:transaction.py:324 RECV: 0x1 0x3 0x4 0x3e 0xcd 0x22 0xda 0xff 0x1f
DEBUG   2025-08-29 14:40:36,582  pymodbus.logging:base.py:92 Processing: 0x1 0x3 0x4 0x3e 0xcd 0x22 0xda 0xff 0x1f
DEBUG   2025-08-29 14:40:36,582  pymodbus.logging:decoders.py:103 decode PDU for 3
DEBUG   2025-08-29 14:40:36,582  pymodbus.logging:base.py:102 Frame advanced, resetting header!!
DEBUG   2025-08-29 14:40:36,582  pymodbus.logging:transaction.py:67 Adding transaction 0
DEBUG   2025-08-29 14:40:36,582  pymodbus.logging:transaction.py:78 Getting transaction 0
DEBUG   2025-08-29 14:40:36,582  pymodbus.logging:transaction.py:258 Changing transaction state from "PROCESSING REPLY" to "TRANSACTION_COMPLETE"
INFO    2025-08-29 14:40:36,582  root:modbus_rtu_tcp.py:44 read_measurement ret is:ReadHoldingRegistersResponse (2)
INFO    2025-08-29 14:40:36,582  root:acudc260_modbus_get.py:159 read i2_current ret is:[16077, 8922]
DEBUG   2025-08-29 14:40:36,582  pymodbus.logging:transaction.py:184 Current transaction state - TRANSACTION_COMPLETE
DEBUG   2025-08-29 14:40:36,582  pymodbus.logging:transaction.py:193 Running transaction 0
DEBUG   2025-08-29 14:40:36,582  pymodbus.logging:transaction.py:293 SEND: 0x1 0x3 0x30 0x6 0x0 0x2 0x2b 0xa
DEBUG   2025-08-29 14:40:36,582  pymodbus.logging:serial.py:271 Changing state to IDLE - Last Frame End - 1756449636.58256 Current Time stamp - 1756449636.58256
DEBUG   2025-08-29 14:40:36,582  pymodbus.logging:serial.py:279 Waiting for 3.5 char before next send - 1.823 ms
DEBUG   2025-08-29 14:40:36,586  pymodbus.logging:base.py:250 New Transaction state "SENDING"
DEBUG   2025-08-29 14:40:36,586  pymodbus.logging:transaction.py:317 Changing transaction state from "SENDING" to "WAITING FOR REPLY"
DEBUG   2025-08-29 14:40:36,614  pymodbus.logging:transaction.py:419 Changing transaction state from "WAITING FOR REPLY" to "PROCESSING REPLY"
DEBUG   2025-08-29 14:40:36,614  pymodbus.logging:transaction.py:324 RECV: 0x1 0x3 0x4 0x3f 0x4f 0x7b 0xdd 0x25 0x59
DEBUG   2025-08-29 14:40:36,614  pymodbus.logging:base.py:92 Processing: 0x1 0x3 0x4 0x3f 0x4f 0x7b 0xdd 0x25 0x59
DEBUG   2025-08-29 14:40:36,614  pymodbus.logging:decoders.py:103 decode PDU for 3
DEBUG   2025-08-29 14:40:36,614  pymodbus.logging:base.py:102 Frame advanced, resetting header!!
DEBUG   2025-08-29 14:40:36,614  pymodbus.logging:transaction.py:67 Adding transaction 0
DEBUG   2025-08-29 14:40:36,614  pymodbus.logging:transaction.py:78 Getting transaction 0
DEBUG   2025-08-29 14:40:36,614  pymodbus.logging:transaction.py:258 Changing transaction state from "PROCESSING REPLY" to "TRANSACTION_COMPLETE"
INFO    2025-08-29 14:40:36,614  root:modbus_rtu_tcp.py:44 read_measurement ret is:ReadHoldingRegistersResponse (2)
INFO    2025-08-29 14:40:36,614  root:acudc260_modbus_get.py:173 read i_sum_current ret is:[16207, 31709]
DEBUG   2025-08-29 14:40:36,614  pymodbus.logging:transaction.py:184 Current transaction state - TRANSACTION_COMPLETE
DEBUG   2025-08-29 14:40:36,614  pymodbus.logging:transaction.py:193 Running transaction 0
DEBUG   2025-08-29 14:40:36,614  pymodbus.logging:transaction.py:293 SEND: 0x1 0x3 0x30 0x8 0x0 0x2 0x4a 0xc9
DEBUG   2025-08-29 14:40:36,614  pymodbus.logging:serial.py:271 Changing state to IDLE - Last Frame End - 1756449636.614333 Current Time stamp - 1756449636.614333
DEBUG   2025-08-29 14:40:36,614  pymodbus.logging:serial.py:279 Waiting for 3.5 char before next send - 1.823 ms
DEBUG   2025-08-29 14:40:36,618  pymodbus.logging:base.py:250 New Transaction state "SENDING"
DEBUG   2025-08-29 14:40:36,618  pymodbus.logging:transaction.py:317 Changing transaction state from "SENDING" to "WAITING FOR REPLY"
DEBUG   2025-08-29 14:40:36,647  pymodbus.logging:transaction.py:419 Changing transaction state from "WAITING FOR REPLY" to "PROCESSING REPLY"
DEBUG   2025-08-29 14:40:36,647  pymodbus.logging:transaction.py:324 RECV: 0x1 0x3 0x4 0x0 0x0 0x0 0x0 0xfa 0x33
DEBUG   2025-08-29 14:40:36,647  pymodbus.logging:base.py:92 Processing: 0x1 0x3 0x4 0x0 0x0 0x0 0x0 0xfa 0x33
DEBUG   2025-08-29 14:40:36,647  pymodbus.logging:decoders.py:103 decode PDU for 3
DEBUG   2025-08-29 14:40:36,647  pymodbus.logging:base.py:102 Frame advanced, resetting header!!
DEBUG   2025-08-29 14:40:36,647  pymodbus.logging:transaction.py:67 Adding transaction 0
DEBUG   2025-08-29 14:40:36,647  pymodbus.logging:transaction.py:78 Getting transaction 0
DEBUG   2025-08-29 14:40:36,647  pymodbus.logging:transaction.py:258 Changing transaction state from "PROCESSING REPLY" to "TRANSACTION_COMPLETE"
INFO    2025-08-29 14:40:36,647  root:modbus_rtu_tcp.py:44 read_measurement ret is:ReadHoldingRegistersResponse (2)
INFO    2025-08-29 14:40:36,647  root:acudc260_modbus_get.py:187 read p1_power ret is:[0, 0]
DEBUG   2025-08-29 14:40:36,647  pymodbus.logging:transaction.py:184 Current transaction state - TRANSACTION_COMPLETE
DEBUG   2025-08-29 14:40:36,647  pymodbus.logging:transaction.py:193 Running transaction 0
DEBUG   2025-08-29 14:40:36,647  pymodbus.logging:transaction.py:293 SEND: 0x1 0x3 0x30 0xa 0x0 0x2 0xeb 0x9
DEBUG   2025-08-29 14:40:36,647  pymodbus.logging:serial.py:271 Changing state to IDLE - Last Frame End - 1756449636.647072 Current Time stamp - 1756449636.647072
DEBUG   2025-08-29 14:40:36,648  pymodbus.logging:serial.py:279 Waiting for 3.5 char before next send - 1.823 ms
DEBUG   2025-08-29 14:40:36,650  pymodbus.logging:base.py:250 New Transaction state "SENDING"
DEBUG   2025-08-29 14:40:36,650  pymodbus.logging:transaction.py:317 Changing transaction state from "SENDING" to "WAITING FOR REPLY"
DEBUG   2025-08-29 14:40:36,676  pymodbus.logging:transaction.py:419 Changing transaction state from "WAITING FOR REPLY" to "PROCESSING REPLY"
DEBUG   2025-08-29 14:40:36,676  pymodbus.logging:transaction.py:324 RECV: 0x1 0x3 0x4 0x0 0x0 0x0 0x0 0xfa 0x33
DEBUG   2025-08-29 14:40:36,676  pymodbus.logging:base.py:92 Processing: 0x1 0x3 0x4 0x0 0x0 0x0 0x0 0xfa 0x33
DEBUG   2025-08-29 14:40:36,676  pymodbus.logging:decoders.py:103 decode PDU for 3
DEBUG   2025-08-29 14:40:36,676  pymodbus.logging:base.py:102 Frame advanced, resetting header!!
DEBUG   2025-08-29 14:40:36,676  pymodbus.logging:transaction.py:67 Adding transaction 0
DEBUG   2025-08-29 14:40:36,676  pymodbus.logging:transaction.py:78 Getting transaction 0
DEBUG   2025-08-29 14:40:36,676  pymodbus.logging:transaction.py:258 Changing transaction state from "PROCESSING REPLY" to "TRANSACTION_COMPLETE"
INFO    2025-08-29 14:40:36,676  root:modbus_rtu_tcp.py:44 read_measurement ret is:ReadHoldingRegistersResponse (2)
INFO    2025-08-29 14:40:36,676  root:acudc260_modbus_get.py:201 read p2_power ret is:[0, 0]
DEBUG   2025-08-29 14:40:36,676  pymodbus.logging:transaction.py:184 Current transaction state - TRANSACTION_COMPLETE
DEBUG   2025-08-29 14:40:36,676  pymodbus.logging:transaction.py:193 Running transaction 0
DEBUG   2025-08-29 14:40:36,676  pymodbus.logging:transaction.py:293 SEND: 0x1 0x3 0x30 0xc 0x0 0x2 0xb 0x8
DEBUG   2025-08-29 14:40:36,676  pymodbus.logging:serial.py:271 Changing state to IDLE - Last Frame End - 1756449636.676425 Current Time stamp - 1756449636.676425
DEBUG   2025-08-29 14:40:36,676  pymodbus.logging:serial.py:279 Waiting for 3.5 char before next send - 1.823 ms
DEBUG   2025-08-29 14:40:36,680  pymodbus.logging:base.py:250 New Transaction state "SENDING"
DEBUG   2025-08-29 14:40:36,680  pymodbus.logging:transaction.py:317 Changing transaction state from "SENDING" to "WAITING FOR REPLY"
DEBUG   2025-08-29 14:40:36,710  pymodbus.logging:transaction.py:419 Changing transaction state from "WAITING FOR REPLY" to "PROCESSING REPLY"
DEBUG   2025-08-29 14:40:36,710  pymodbus.logging:transaction.py:324 RECV: 0x1 0x3 0x4 0x0 0x0 0x0 0x0 0xfa 0x33
DEBUG   2025-08-29 14:40:36,710  pymodbus.logging:base.py:92 Processing: 0x1 0x3 0x4 0x0 0x0 0x0 0x0 0xfa 0x33
DEBUG   2025-08-29 14:40:36,710  pymodbus.logging:decoders.py:103 decode PDU for 3
DEBUG   2025-08-29 14:40:36,710  pymodbus.logging:base.py:102 Frame advanced, resetting header!!
DEBUG   2025-08-29 14:40:36,710  pymodbus.logging:transaction.py:67 Adding transaction 0
DEBUG   2025-08-29 14:40:36,710  pymodbus.logging:transaction.py:78 Getting transaction 0
DEBUG   2025-08-29 14:40:36,710  pymodbus.logging:transaction.py:258 Changing transaction state from "PROCESSING REPLY" to "TRANSACTION_COMPLETE"
INFO    2025-08-29 14:40:36,710  root:modbus_rtu_tcp.py:44 read_measurement ret is:ReadHoldingRegistersResponse (2)
INFO    2025-08-29 14:40:36,710  root:acudc260_modbus_get.py:215 read p_sum_power ret is:[0, 0]
DEBUG   2025-08-29 14:40:36,811  pymodbus.logging:transaction.py:184 Current transaction state - TRANSACTION_COMPLETE
DEBUG   2025-08-29 14:40:36,811  pymodbus.logging:transaction.py:193 Running transaction 0
DEBUG   2025-08-29 14:40:36,811  pymodbus.logging:transaction.py:293 SEND: 0x1 0x3 0x30 0x0 0x0 0x2 0xcb 0xb
DEBUG   2025-08-29 14:40:36,811  pymodbus.logging:serial.py:271 Changing state to IDLE - Last Frame End - 1756449636.71067 Current Time stamp - 1756449636.811547
DEBUG   2025-08-29 14:40:36,811  pymodbus.logging:base.py:250 New Transaction state "SENDING"
DEBUG   2025-08-29 14:40:36,811  pymodbus.logging:transaction.py:317 Changing transaction state from "SENDING" to "WAITING FOR REPLY"
DEBUG   2025-08-29 14:40:36,837  pymodbus.logging:transaction.py:419 Changing transaction state from "WAITING FOR REPLY" to "PROCESSING REPLY"
DEBUG   2025-08-29 14:40:36,837  pymodbus.logging:transaction.py:324 RECV: 0x1 0x3 0x4 0x0 0x0 0x0 0x0 0xfa 0x33
DEBUG   2025-08-29 14:40:36,837  pymodbus.logging:base.py:92 Processing: 0x1 0x3 0x4 0x0 0x0 0x0 0x0 0xfa 0x33
DEBUG   2025-08-29 14:40:36,837  pymodbus.logging:decoders.py:103 decode PDU for 3
DEBUG   2025-08-29 14:40:36,837  pymodbus.logging:base.py:102 Frame advanced, resetting header!!
DEBUG   2025-08-29 14:40:36,837  pymodbus.logging:transaction.py:67 Adding transaction 0
DEBUG   2025-08-29 14:40:36,837  pymodbus.logging:transaction.py:78 Getting transaction 0
DEBUG   2025-08-29 14:40:36,837  pymodbus.logging:transaction.py:258 Changing transaction state from "PROCESSING REPLY" to "TRANSACTION_COMPLETE"
INFO    2025-08-29 14:40:36,837  root:modbus_rtu_tcp.py:44 read_measurement ret is:ReadHoldingRegistersResponse (2)
INFO    2025-08-29 14:40:36,837  root:acudc260_modbus_get.py:131 read u_voltage ret is:[0, 0]
DEBUG   2025-08-29 14:40:36,837  pymodbus.logging:transaction.py:184 Current transaction state - TRANSACTION_COMPLETE
DEBUG   2025-08-29 14:40:36,837  pymodbus.logging:transaction.py:193 Running transaction 0
DEBUG   2025-08-29 14:40:36,837  pymodbus.logging:transaction.py:293 SEND: 0x1 0x3 0x30 0x2 0x0 0x2 0x6a 0xcb
DEBUG   2025-08-29 14:40:36,837  pymodbus.logging:serial.py:271 Changing state to IDLE - Last Frame End - 1756449636.837063 Current Time stamp - 1756449636.837063
DEBUG   2025-08-29 14:40:36,837  pymodbus.logging:serial.py:279 Waiting for 3.5 char before next send - 1.823 ms
DEBUG   2025-08-29 14:40:36,840  pymodbus.logging:base.py:250 New Transaction state "SENDING"
DEBUG   2025-08-29 14:40:36,840  pymodbus.logging:transaction.py:317 Changing transaction state from "SENDING" to "WAITING FOR REPLY"
DEBUG   2025-08-29 14:40:36,868  pymodbus.logging:transaction.py:419 Changing transaction state from "WAITING FOR REPLY" to "PROCESSING REPLY"
DEBUG   2025-08-29 14:40:36,868  pymodbus.logging:transaction.py:324 RECV: 0x1 0x3 0x4 0x3e 0xd3 0xaf 0xaa 0xfb 0xad
DEBUG   2025-08-29 14:40:36,868  pymodbus.logging:base.py:92 Processing: 0x1 0x3 0x4 0x3e 0xd3 0xaf 0xaa 0xfb 0xad
DEBUG   2025-08-29 14:40:36,868  pymodbus.logging:decoders.py:103 decode PDU for 3
DEBUG   2025-08-29 14:40:36,868  pymodbus.logging:base.py:102 Frame advanced, resetting header!!
DEBUG   2025-08-29 14:40:36,868  pymodbus.logging:transaction.py:67 Adding transaction 0
DEBUG   2025-08-29 14:40:36,868  pymodbus.logging:transaction.py:78 Getting transaction 0
DEBUG   2025-08-29 14:40:36,868  pymodbus.logging:transaction.py:258 Changing transaction state from "PROCESSING REPLY" to "TRANSACTION_COMPLETE"
INFO    2025-08-29 14:40:36,868  root:modbus_rtu_tcp.py:44 read_measurement ret is:ReadHoldingRegistersResponse (2)
INFO    2025-08-29 14:40:36,868  root:acudc260_modbus_get.py:145 read i1_current ret is:[16083, 44970]
DEBUG   2025-08-29 14:40:36,868  pymodbus.logging:transaction.py:184 Current transaction state - TRANSACTION_COMPLETE
DEBUG   2025-08-29 14:40:36,868  pymodbus.logging:transaction.py:193 Running transaction 0
DEBUG   2025-08-29 14:40:36,868  pymodbus.logging:transaction.py:293 SEND: 0x1 0x3 0x30 0x4 0x0 0x2 0x8a 0xca
DEBUG   2025-08-29 14:40:36,868  pymodbus.logging:serial.py:271 Changing state to IDLE - Last Frame End - 1756449636.868629 Current Time stamp - 1756449636.868629
DEBUG   2025-08-29 14:40:36,868  pymodbus.logging:serial.py:279 Waiting for 3.5 char before next send - 1.823 ms
DEBUG   2025-08-29 14:40:36,872  pymodbus.logging:base.py:250 New Transaction state "SENDING"
DEBUG   2025-08-29 14:40:36,872  pymodbus.logging:transaction.py:317 Changing transaction state from "SENDING" to "WAITING FOR REPLY"
DEBUG   2025-08-29 14:40:36,900  pymodbus.logging:transaction.py:419 Changing transaction state from "WAITING FOR REPLY" to "PROCESSING REPLY"
DEBUG   2025-08-29 14:40:36,900  pymodbus.logging:transaction.py:324 RECV: 0x1 0x3 0x4 0x3e 0xce 0x8f 0xd 0x33 0xd1
DEBUG   2025-08-29 14:40:36,900  pymodbus.logging:base.py:92 Processing: 0x1 0x3 0x4 0x3e 0xce 0x8f 0xd 0x33 0xd1
DEBUG   2025-08-29 14:40:36,900  pymodbus.logging:decoders.py:103 decode PDU for 3
DEBUG   2025-08-29 14:40:36,900  pymodbus.logging:base.py:102 Frame advanced, resetting header!!
DEBUG   2025-08-29 14:40:36,900  pymodbus.logging:transaction.py:67 Adding transaction 0
DEBUG   2025-08-29 14:40:36,900  pymodbus.logging:transaction.py:78 Getting transaction 0
DEBUG   2025-08-29 14:40:36,900  pymodbus.logging:transaction.py:258 Changing transaction state from "PROCESSING REPLY" to "TRANSACTION_COMPLETE"
INFO    2025-08-29 14:40:36,900  root:modbus_rtu_tcp.py:44 read_measurement ret is:ReadHoldingRegistersResponse (2)
INFO    2025-08-29 14:40:36,900  root:acudc260_modbus_get.py:159 read i2_current ret is:[16078, 36621]
DEBUG   2025-08-29 14:40:36,900  pymodbus.logging:transaction.py:184 Current transaction state - TRANSACTION_COMPLETE
DEBUG   2025-08-29 14:40:36,900  pymodbus.logging:transaction.py:193 Running transaction 0
DEBUG   2025-08-29 14:40:36,900  pymodbus.logging:transaction.py:293 SEND: 0x1 0x3 0x30 0x6 0x0 0x2 0x2b 0xa
DEBUG   2025-08-29 14:40:36,900  pymodbus.logging:serial.py:271 Changing state to IDLE - Last Frame End - 1756449636.900283 Current Time stamp - 1756449636.900283
DEBUG   2025-08-29 14:40:36,900  pymodbus.logging:serial.py:279 Waiting for 3.5 char before next send - 1.823 ms
DEBUG   2025-08-29 14:40:36,904  pymodbus.logging:base.py:250 New Transaction state "SENDING"
DEBUG   2025-08-29 14:40:36,904  pymodbus.logging:transaction.py:317 Changing transaction state from "SENDING" to "WAITING FOR REPLY"
DEBUG   2025-08-29 14:40:36,934  pymodbus.logging:transaction.py:419 Changing transaction state from "WAITING FOR REPLY" to "PROCESSING REPLY"
DEBUG   2025-08-29 14:40:36,934  pymodbus.logging:transaction.py:324 RECV: 0x1 0x3 0x4 0x3f 0x51 0x54 0xc2 0x18 0xa7
DEBUG   2025-08-29 14:40:36,934  pymodbus.logging:base.py:92 Processing: 0x1 0x3 0x4 0x3f 0x51 0x54 0xc2 0x18 0xa7
DEBUG   2025-08-29 14:40:36,934  pymodbus.logging:decoders.py:103 decode PDU for 3
DEBUG   2025-08-29 14:40:36,934  pymodbus.logging:base.py:102 Frame advanced, resetting header!!
DEBUG   2025-08-29 14:40:36,934  pymodbus.logging:transaction.py:67 Adding transaction 0
DEBUG   2025-08-29 14:40:36,934  pymodbus.logging:transaction.py:78 Getting transaction 0
DEBUG   2025-08-29 14:40:36,934  pymodbus.logging:transaction.py:258 Changing transaction state from "PROCESSING REPLY" to "TRANSACTION_COMPLETE"
INFO    2025-08-29 14:40:36,934  root:modbus_rtu_tcp.py:44 read_measurement ret is:ReadHoldingRegistersResponse (2)
INFO    2025-08-29 14:40:36,934  root:acudc260_modbus_get.py:173 read i_sum_current ret is:[16209, 21698]
DEBUG   2025-08-29 14:40:36,934  pymodbus.logging:transaction.py:184 Current transaction state - TRANSACTION_COMPLETE
DEBUG   2025-08-29 14:40:36,934  pymodbus.logging:transaction.py:193 Running transaction 0
DEBUG   2025-08-29 14:40:36,934  pymodbus.logging:transaction.py:293 SEND: 0x1 0x3 0x30 0x8 0x0 0x2 0x4a 0xc9
DEBUG   2025-08-29 14:40:36,934  pymodbus.logging:serial.py:271 Changing state to IDLE - Last Frame End - 1756449636.934836 Current Time stamp - 1756449636.934836
DEBUG   2025-08-29 14:40:36,934  pymodbus.logging:serial.py:279 Waiting for 3.5 char before next send - 1.823 ms
DEBUG   2025-08-29 14:40:36,938  pymodbus.logging:base.py:250 New Transaction state "SENDING"
DEBUG   2025-08-29 14:40:36,938  pymodbus.logging:transaction.py:317 Changing transaction state from "SENDING" to "WAITING FOR REPLY"
DEBUG   2025-08-29 14:40:36,966  pymodbus.logging:transaction.py:419 Changing transaction state from "WAITING FOR REPLY" to "PROCESSING REPLY"
DEBUG   2025-08-29 14:40:36,966  pymodbus.logging:transaction.py:324 RECV: 0x1 0x3 0x4 0x0 0x0 0x0 0x0 0xfa 0x33
DEBUG   2025-08-29 14:40:36,966  pymodbus.logging:base.py:92 Processing: 0x1 0x3 0x4 0x0 0x0 0x0 0x0 0xfa 0x33
DEBUG   2025-08-29 14:40:36,966  pymodbus.logging:decoders.py:103 decode PDU for 3
DEBUG   2025-08-29 14:40:36,966  pymodbus.logging:base.py:102 Frame advanced, resetting header!!
DEBUG   2025-08-29 14:40:36,966  pymodbus.logging:transaction.py:67 Adding transaction 0
DEBUG   2025-08-29 14:40:36,966  pymodbus.logging:transaction.py:78 Getting transaction 0
DEBUG   2025-08-29 14:40:36,966  pymodbus.logging:transaction.py:258 Changing transaction state from "PROCESSING REPLY" to "TRANSACTION_COMPLETE"
INFO    2025-08-29 14:40:36,966  root:modbus_rtu_tcp.py:44 read_measurement ret is:ReadHoldingRegistersResponse (2)
INFO    2025-08-29 14:40:36,966  root:acudc260_modbus_get.py:187 read p1_power ret is:[0, 0]
DEBUG   2025-08-29 14:40:36,966  pymodbus.logging:transaction.py:184 Current transaction state - TRANSACTION_COMPLETE
DEBUG   2025-08-29 14:40:36,966  pymodbus.logging:transaction.py:193 Running transaction 0
DEBUG   2025-08-29 14:40:36,966  pymodbus.logging:transaction.py:293 SEND: 0x1 0x3 0x30 0xa 0x0 0x2 0xeb 0x9
DEBUG   2025-08-29 14:40:36,966  pymodbus.logging:serial.py:271 Changing state to IDLE - Last Frame End - 1756449636.966775 Current Time stamp - 1756449636.966775
DEBUG   2025-08-29 14:40:36,966  pymodbus.logging:serial.py:279 Waiting for 3.5 char before next send - 1.823 ms
DEBUG   2025-08-29 14:40:36,970  pymodbus.logging:base.py:250 New Transaction state "SENDING"
DEBUG   2025-08-29 14:40:36,970  pymodbus.logging:transaction.py:317 Changing transaction state from "SENDING" to "WAITING FOR REPLY"
DEBUG   2025-08-29 14:40:36,998  pymodbus.logging:transaction.py:419 Changing transaction state from "WAITING FOR REPLY" to "PROCESSING REPLY"
DEBUG   2025-08-29 14:40:36,998  pymodbus.logging:transaction.py:324 RECV: 0x1 0x3 0x4 0x0 0x0 0x0 0x0 0xfa 0x33
DEBUG   2025-08-29 14:40:36,998  pymodbus.logging:base.py:92 Processing: 0x1 0x3 0x4 0x0 0x0 0x0 0x0 0xfa 0x33
DEBUG   2025-08-29 14:40:36,998  pymodbus.logging:decoders.py:103 decode PDU for 3
DEBUG   2025-08-29 14:40:36,998  pymodbus.logging:base.py:102 Frame advanced, resetting header!!
DEBUG   2025-08-29 14:40:36,998  pymodbus.logging:transaction.py:67 Adding transaction 0
DEBUG   2025-08-29 14:40:36,998  pymodbus.logging:transaction.py:78 Getting transaction 0
DEBUG   2025-08-29 14:40:36,998  pymodbus.logging:transaction.py:258 Changing transaction state from "PROCESSING REPLY" to "TRANSACTION_COMPLETE"
INFO    2025-08-29 14:40:36,998  root:modbus_rtu_tcp.py:44 read_measurement ret is:ReadHoldingRegistersResponse (2)
INFO    2025-08-29 14:40:36,998  root:acudc260_modbus_get.py:201 read p2_power ret is:[0, 0]
DEBUG   2025-08-29 14:40:36,998  pymodbus.logging:transaction.py:184 Current transaction state - TRANSACTION_COMPLETE
DEBUG   2025-08-29 14:40:36,998  pymodbus.logging:transaction.py:193 Running transaction 0
DEBUG   2025-08-29 14:40:36,998  pymodbus.logging:transaction.py:293 SEND: 0x1 0x3 0x30 0xc 0x0 0x2 0xb 0x8
DEBUG   2025-08-29 14:40:36,998  pymodbus.logging:serial.py:271 Changing state to IDLE - Last Frame End - 1756449636.998894 Current Time stamp - 1756449636.998894
DEBUG   2025-08-29 14:40:36,998  pymodbus.logging:serial.py:279 Waiting for 3.5 char before next send - 1.823 ms
DEBUG   2025-08-29 14:40:37,002  pymodbus.logging:base.py:250 New Transaction state "SENDING"
DEBUG   2025-08-29 14:40:37,002  pymodbus.logging:transaction.py:317 Changing transaction state from "SENDING" to "WAITING FOR REPLY"
DEBUG   2025-08-29 14:40:37,030  pymodbus.logging:transaction.py:419 Changing transaction state from "WAITING FOR REPLY" to "PROCESSING REPLY"
DEBUG   2025-08-29 14:40:37,030  pymodbus.logging:transaction.py:324 RECV: 0x1 0x3 0x4 0x0 0x0 0x0 0x0 0xfa 0x33
DEBUG   2025-08-29 14:40:37,030  pymodbus.logging:base.py:92 Processing: 0x1 0x3 0x4 0x0 0x0 0x0 0x0 0xfa 0x33
DEBUG   2025-08-29 14:40:37,030  pymodbus.logging:decoders.py:103 decode PDU for 3
DEBUG   2025-08-29 14:40:37,030  pymodbus.logging:base.py:102 Frame advanced, resetting header!!
DEBUG   2025-08-29 14:40:37,030  pymodbus.logging:transaction.py:67 Adding transaction 0
DEBUG   2025-08-29 14:40:37,030  pymodbus.logging:transaction.py:78 Getting transaction 0
DEBUG   2025-08-29 14:40:37,030  pymodbus.logging:transaction.py:258 Changing transaction state from "PROCESSING REPLY" to "TRANSACTION_COMPLETE"
INFO    2025-08-29 14:40:37,030  root:modbus_rtu_tcp.py:44 read_measurement ret is:ReadHoldingRegistersResponse (2)
INFO    2025-08-29 14:40:37,030  root:acudc260_modbus_get.py:215 read p_sum_power ret is:[0, 0]
DEBUG   2025-08-29 14:40:37,132  pymodbus.logging:transaction.py:184 Current transaction state - TRANSACTION_COMPLETE
DEBUG   2025-08-29 14:40:37,132  pymodbus.logging:transaction.py:193 Running transaction 0
DEBUG   2025-08-29 14:40:37,132  pymodbus.logging:transaction.py:293 SEND: 0x1 0x3 0x30 0x0 0x0 0x2 0xcb 0xb
DEBUG   2025-08-29 14:40:37,132  pymodbus.logging:serial.py:271 Changing state to IDLE - Last Frame End - 1756449637.03097 Current Time stamp - 1756449637.132227
DEBUG   2025-08-29 14:40:37,132  pymodbus.logging:base.py:250 New Transaction state "SENDING"
DEBUG   2025-08-29 14:40:37,132  pymodbus.logging:transaction.py:317 Changing transaction state from "SENDING" to "WAITING FOR REPLY"
DEBUG   2025-08-29 14:40:37,158  pymodbus.logging:transaction.py:419 Changing transaction state from "WAITING FOR REPLY" to "PROCESSING REPLY"
DEBUG   2025-08-29 14:40:37,158  pymodbus.logging:transaction.py:324 RECV: 0x1 0x3 0x4 0x0 0x0 0x0 0x0 0xfa 0x33
DEBUG   2025-08-29 14:40:37,158  pymodbus.logging:base.py:92 Processing: 0x1 0x3 0x4 0x0 0x0 0x0 0x0 0xfa 0x33
DEBUG   2025-08-29 14:40:37,158  pymodbus.logging:decoders.py:103 decode PDU for 3
DEBUG   2025-08-29 14:40:37,158  pymodbus.logging:base.py:102 Frame advanced, resetting header!!
DEBUG   2025-08-29 14:40:37,158  pymodbus.logging:transaction.py:67 Adding transaction 0
DEBUG   2025-08-29 14:40:37,158  pymodbus.logging:transaction.py:78 Getting transaction 0
DEBUG   2025-08-29 14:40:37,158  pymodbus.logging:transaction.py:258 Changing transaction state from "PROCESSING REPLY" to "TRANSACTION_COMPLETE"
INFO    2025-08-29 14:40:37,158  root:modbus_rtu_tcp.py:44 read_measurement ret is:ReadHoldingRegistersResponse (2)
INFO    2025-08-29 14:40:37,158  root:acudc260_modbus_get.py:131 read u_voltage ret is:[0, 0]
DEBUG   2025-08-29 14:40:37,158  pymodbus.logging:transaction.py:184 Current transaction state - TRANSACTION_COMPLETE
DEBUG   2025-08-29 14:40:37,158  pymodbus.logging:transaction.py:193 Running transaction 0
DEBUG   2025-08-29 14:40:37,158  pymodbus.logging:transaction.py:293 SEND: 0x1 0x3 0x30 0x2 0x0 0x2 0x6a 0xcb
DEBUG   2025-08-29 14:40:37,158  pymodbus.logging:serial.py:271 Changing state to IDLE - Last Frame End - 1756449637.158311 Current Time stamp - 1756449637.158311
DEBUG   2025-08-29 14:40:37,158  pymodbus.logging:serial.py:279 Waiting for 3.5 char before next send - 1.823 ms
DEBUG   2025-08-29 14:40:37,161  pymodbus.logging:base.py:250 New Transaction state "SENDING"
DEBUG   2025-08-29 14:40:37,161  pymodbus.logging:transaction.py:317 Changing transaction state from "SENDING" to "WAITING FOR REPLY"
DEBUG   2025-08-29 14:40:37,190  pymodbus.logging:transaction.py:419 Changing transaction state from "WAITING FOR REPLY" to "PROCESSING REPLY"
DEBUG   2025-08-29 14:40:37,190  pymodbus.logging:transaction.py:324 RECV: 0x1 0x3 0x4 0x3e 0xd3 0x49 0xe3 0x70 0x3b
DEBUG   2025-08-29 14:40:37,190  pymodbus.logging:base.py:92 Processing: 0x1 0x3 0x4 0x3e 0xd3 0x49 0xe3 0x70 0x3b
DEBUG   2025-08-29 14:40:37,190  pymodbus.logging:decoders.py:103 decode PDU for 3
DEBUG   2025-08-29 14:40:37,190  pymodbus.logging:base.py:102 Frame advanced, resetting header!!
DEBUG   2025-08-29 14:40:37,190  pymodbus.logging:transaction.py:67 Adding transaction 0
DEBUG   2025-08-29 14:40:37,190  pymodbus.logging:transaction.py:78 Getting transaction 0
DEBUG   2025-08-29 14:40:37,190  pymodbus.logging:transaction.py:258 Changing transaction state from "PROCESSING REPLY" to "TRANSACTION_COMPLETE"
INFO    2025-08-29 14:40:37,190  root:modbus_rtu_tcp.py:44 read_measurement ret is:ReadHoldingRegistersResponse (2)
INFO    2025-08-29 14:40:37,190  root:acudc260_modbus_get.py:145 read i1_current ret is:[16083, 18915]
DEBUG   2025-08-29 14:40:37,190  pymodbus.logging:transaction.py:184 Current transaction state - TRANSACTION_COMPLETE
DEBUG   2025-08-29 14:40:37,190  pymodbus.logging:transaction.py:193 Running transaction 0
DEBUG   2025-08-29 14:40:37,190  pymodbus.logging:transaction.py:293 SEND: 0x1 0x3 0x30 0x4 0x0 0x2 0x8a 0xca
DEBUG   2025-08-29 14:40:37,190  pymodbus.logging:serial.py:271 Changing state to IDLE - Last Frame End - 1756449637.190204 Current Time stamp - 1756449637.190204
DEBUG   2025-08-29 14:40:37,190  pymodbus.logging:serial.py:279 Waiting for 3.5 char before next send - 1.823 ms
DEBUG   2025-08-29 14:40:37,193  pymodbus.logging:base.py:250 New Transaction state "SENDING"
DEBUG   2025-08-29 14:40:37,193  pymodbus.logging:transaction.py:317 Changing transaction state from "SENDING" to "WAITING FOR REPLY"
DEBUG   2025-08-29 14:40:37,221  pymodbus.logging:transaction.py:419 Changing transaction state from "WAITING FOR REPLY" to "PROCESSING REPLY"
DEBUG   2025-08-29 14:40:37,221  pymodbus.logging:transaction.py:324 RECV: 0x1 0x3 0x4 0x3e 0xce 0x61 0xe6 0x3e 0x3e
DEBUG   2025-08-29 14:40:37,221  pymodbus.logging:base.py:92 Processing: 0x1 0x3 0x4 0x3e 0xce 0x61 0xe6 0x3e 0x3e
DEBUG   2025-08-29 14:40:37,221  pymodbus.logging:decoders.py:103 decode PDU for 3
DEBUG   2025-08-29 14:40:37,221  pymodbus.logging:base.py:102 Frame advanced, resetting header!!
DEBUG   2025-08-29 14:40:37,221  pymodbus.logging:transaction.py:67 Adding transaction 0
DEBUG   2025-08-29 14:40:37,221  pymodbus.logging:transaction.py:78 Getting transaction 0
DEBUG   2025-08-29 14:40:37,221  pymodbus.logging:transaction.py:258 Changing transaction state from "PROCESSING REPLY" to "TRANSACTION_COMPLETE"
INFO    2025-08-29 14:40:37,221  root:modbus_rtu_tcp.py:44 read_measurement ret is:ReadHoldingRegistersResponse (2)
INFO    2025-08-29 14:40:37,221  root:acudc260_modbus_get.py:159 read i2_current ret is:[16078, 25062]
DEBUG   2025-08-29 14:40:37,221  pymodbus.logging:transaction.py:184 Current transaction state - TRANSACTION_COMPLETE
DEBUG   2025-08-29 14:40:37,221  pymodbus.logging:transaction.py:193 Running transaction 0
DEBUG   2025-08-29 14:40:37,221  pymodbus.logging:transaction.py:293 SEND: 0x1 0x3 0x30 0x6 0x0 0x2 0x2b 0xa
DEBUG   2025-08-29 14:40:37,221  pymodbus.logging:serial.py:271 Changing state to IDLE - Last Frame End - 1756449637.221858 Current Time stamp - 1756449637.221858
DEBUG   2025-08-29 14:40:37,221  pymodbus.logging:serial.py:279 Waiting for 3.5 char before next send - 1.823 ms
DEBUG   2025-08-29 14:40:37,226  pymodbus.logging:base.py:250 New Transaction state "SENDING"
DEBUG   2025-08-29 14:40:37,239  pymodbus.logging:transaction.py:317 Changing transaction state from "SENDING" to "WAITING FOR REPLY"
DEBUG   2025-08-29 14:40:37,270  pymodbus.logging:transaction.py:419 Changing transaction state from "WAITING FOR REPLY" to "PROCESSING REPLY"
DEBUG   2025-08-29 14:40:37,270  pymodbus.logging:transaction.py:324 RECV: 0x1 0x3 0x4 0x3f 0x4f 0xe4 0x26 0xd 0x2a
DEBUG   2025-08-29 14:40:37,270  pymodbus.logging:base.py:92 Processing: 0x1 0x3 0x4 0x3f 0x4f 0xe4 0x26 0xd 0x2a
DEBUG   2025-08-29 14:40:37,270  pymodbus.logging:decoders.py:103 decode PDU for 3
DEBUG   2025-08-29 14:40:37,270  pymodbus.logging:base.py:102 Frame advanced, resetting header!!
DEBUG   2025-08-29 14:40:37,270  pymodbus.logging:transaction.py:67 Adding transaction 0
DEBUG   2025-08-29 14:40:37,270  pymodbus.logging:transaction.py:78 Getting transaction 0
DEBUG   2025-08-29 14:40:37,270  pymodbus.logging:transaction.py:258 Changing transaction state from "PROCESSING REPLY" to "TRANSACTION_COMPLETE"
INFO    2025-08-29 14:40:37,270  root:modbus_rtu_tcp.py:44 read_measurement ret is:ReadHoldingRegistersResponse (2)
INFO    2025-08-29 14:40:37,270  root:acudc260_modbus_get.py:173 read i_sum_current ret is:[16207, 58406]
DEBUG   2025-08-29 14:40:37,270  pymodbus.logging:transaction.py:184 Current transaction state - TRANSACTION_COMPLETE
DEBUG   2025-08-29 14:40:37,270  pymodbus.logging:transaction.py:193 Running transaction 0
DEBUG   2025-08-29 14:40:37,270  pymodbus.logging:transaction.py:293 SEND: 0x1 0x3 0x30 0x8 0x0 0x2 0x4a 0xc9
DEBUG   2025-08-29 14:40:37,270  pymodbus.logging:serial.py:271 Changing state to IDLE - Last Frame End - 1756449637.270728 Current Time stamp - 1756449637.270728
DEBUG   2025-08-29 14:40:37,270  pymodbus.logging:serial.py:279 Waiting for 3.5 char before next send - 1.823 ms
DEBUG   2025-08-29 14:40:37,274  pymodbus.logging:base.py:250 New Transaction state "SENDING"
DEBUG   2025-08-29 14:40:37,274  pymodbus.logging:transaction.py:317 Changing transaction state from "SENDING" to "WAITING FOR REPLY"
DEBUG   2025-08-29 14:40:37,300  pymodbus.logging:transaction.py:419 Changing transaction state from "WAITING FOR REPLY" to "PROCESSING REPLY"
DEBUG   2025-08-29 14:40:37,300  pymodbus.logging:transaction.py:324 RECV: 0x1 0x3 0x4 0x0 0x0 0x0 0x0 0xfa 0x33
DEBUG   2025-08-29 14:40:37,300  pymodbus.logging:base.py:92 Processing: 0x1 0x3 0x4 0x0 0x0 0x0 0x0 0xfa 0x33
DEBUG   2025-08-29 14:40:37,300  pymodbus.logging:decoders.py:103 decode PDU for 3
DEBUG   2025-08-29 14:40:37,300  pymodbus.logging:base.py:102 Frame advanced, resetting header!!
DEBUG   2025-08-29 14:40:37,300  pymodbus.logging:transaction.py:67 Adding transaction 0
DEBUG   2025-08-29 14:40:37,300  pymodbus.logging:transaction.py:78 Getting transaction 0
DEBUG   2025-08-29 14:40:37,300  pymodbus.logging:transaction.py:258 Changing transaction state from "PROCESSING REPLY" to "TRANSACTION_COMPLETE"
INFO    2025-08-29 14:40:37,300  root:modbus_rtu_tcp.py:44 read_measurement ret is:ReadHoldingRegistersResponse (2)
INFO    2025-08-29 14:40:37,300  root:acudc260_modbus_get.py:187 read p1_power ret is:[0, 0]
DEBUG   2025-08-29 14:40:37,300  pymodbus.logging:transaction.py:184 Current transaction state - TRANSACTION_COMPLETE
DEBUG   2025-08-29 14:40:37,300  pymodbus.logging:transaction.py:193 Running transaction 0
DEBUG   2025-08-29 14:40:37,300  pymodbus.logging:transaction.py:293 SEND: 0x1 0x3 0x30 0xa 0x0 0x2 0xeb 0x9
DEBUG   2025-08-29 14:40:37,300  pymodbus.logging:serial.py:271 Changing state to IDLE - Last Frame End - 1756449637.300332 Current Time stamp - 1756449637.300332
DEBUG   2025-08-29 14:40:37,300  pymodbus.logging:serial.py:279 Waiting for 3.5 char before next send - 1.823 ms
DEBUG   2025-08-29 14:40:37,304  pymodbus.logging:base.py:250 New Transaction state "SENDING"
DEBUG   2025-08-29 14:40:37,304  pymodbus.logging:transaction.py:317 Changing transaction state from "SENDING" to "WAITING FOR REPLY"
DEBUG   2025-08-29 14:40:37,332  pymodbus.logging:transaction.py:419 Changing transaction state from "WAITING FOR REPLY" to "PROCESSING REPLY"
DEBUG   2025-08-29 14:40:37,332  pymodbus.logging:transaction.py:324 RECV: 0x1 0x3 0x4 0x0 0x0 0x0 0x0 0xfa 0x33
DEBUG   2025-08-29 14:40:37,332  pymodbus.logging:base.py:92 Processing: 0x1 0x3 0x4 0x0 0x0 0x0 0x0 0xfa 0x33
DEBUG   2025-08-29 14:40:37,332  pymodbus.logging:decoders.py:103 decode PDU for 3
DEBUG   2025-08-29 14:40:37,332  pymodbus.logging:base.py:102 Frame advanced, resetting header!!
DEBUG   2025-08-29 14:40:37,332  pymodbus.logging:transaction.py:67 Adding transaction 0
DEBUG   2025-08-29 14:40:37,332  pymodbus.logging:transaction.py:78 Getting transaction 0
DEBUG   2025-08-29 14:40:37,332  pymodbus.logging:transaction.py:258 Changing transaction state from "PROCESSING REPLY" to "TRANSACTION_COMPLETE"
INFO    2025-08-29 14:40:37,332  root:modbus_rtu_tcp.py:44 read_measurement ret is:ReadHoldingRegistersResponse (2)
INFO    2025-08-29 14:40:37,332  root:acudc260_modbus_get.py:201 read p2_power ret is:[0, 0]
DEBUG   2025-08-29 14:40:37,332  pymodbus.logging:transaction.py:184 Current transaction state - TRANSACTION_COMPLETE
DEBUG   2025-08-29 14:40:37,332  pymodbus.logging:transaction.py:193 Running transaction 0
DEBUG   2025-08-29 14:40:37,332  pymodbus.logging:transaction.py:293 SEND: 0x1 0x3 0x30 0xc 0x0 0x2 0xb 0x8
DEBUG   2025-08-29 14:40:37,332  pymodbus.logging:serial.py:271 Changing state to IDLE - Last Frame End - 1756449637.332764 Current Time stamp - 1756449637.332764
DEBUG   2025-08-29 14:40:37,332  pymodbus.logging:serial.py:279 Waiting for 3.5 char before next send - 1.823 ms
DEBUG   2025-08-29 14:40:37,335  pymodbus.logging:base.py:250 New Transaction state "SENDING"
DEBUG   2025-08-29 14:40:37,335  pymodbus.logging:transaction.py:317 Changing transaction state from "SENDING" to "WAITING FOR REPLY"
DEBUG   2025-08-29 14:40:37,366  pymodbus.logging:transaction.py:419 Changing transaction state from "WAITING FOR REPLY" to "PROCESSING REPLY"
DEBUG   2025-08-29 14:40:37,366  pymodbus.logging:transaction.py:324 RECV: 0x1 0x3 0x4 0x0 0x0 0x0 0x0 0xfa 0x33
DEBUG   2025-08-29 14:40:37,366  pymodbus.logging:base.py:92 Processing: 0x1 0x3 0x4 0x0 0x0 0x0 0x0 0xfa 0x33
DEBUG   2025-08-29 14:40:37,366  pymodbus.logging:decoders.py:103 decode PDU for 3
DEBUG   2025-08-29 14:40:37,366  pymodbus.logging:base.py:102 Frame advanced, resetting header!!
DEBUG   2025-08-29 14:40:37,366  pymodbus.logging:transaction.py:67 Adding transaction 0
DEBUG   2025-08-29 14:40:37,366  pymodbus.logging:transaction.py:78 Getting transaction 0
DEBUG   2025-08-29 14:40:37,366  pymodbus.logging:transaction.py:258 Changing transaction state from "PROCESSING REPLY" to "TRANSACTION_COMPLETE"
INFO    2025-08-29 14:40:37,366  root:modbus_rtu_tcp.py:44 read_measurement ret is:ReadHoldingRegistersResponse (2)
INFO    2025-08-29 14:40:37,366  root:acudc260_modbus_get.py:215 read p_sum_power ret is:[0, 0]
DEBUG   2025-08-29 14:40:37,467  pymodbus.logging:transaction.py:184 Current transaction state - TRANSACTION_COMPLETE
DEBUG   2025-08-29 14:40:37,467  pymodbus.logging:transaction.py:193 Running transaction 0
DEBUG   2025-08-29 14:40:37,467  pymodbus.logging:transaction.py:293 SEND: 0x1 0x3 0x30 0x0 0x0 0x2 0xcb 0xb
DEBUG   2025-08-29 14:40:37,467  pymodbus.logging:serial.py:271 Changing state to IDLE - Last Frame End - 1756449637.366307 Current Time stamp - 1756449637.467218
DEBUG   2025-08-29 14:40:37,467  pymodbus.logging:base.py:250 New Transaction state "SENDING"
DEBUG   2025-08-29 14:40:37,467  pymodbus.logging:transaction.py:317 Changing transaction state from "SENDING" to "WAITING FOR REPLY"
DEBUG   2025-08-29 14:40:37,492  pymodbus.logging:transaction.py:419 Changing transaction state from "WAITING FOR REPLY" to "PROCESSING REPLY"
DEBUG   2025-08-29 14:40:37,492  pymodbus.logging:transaction.py:324 RECV: 0x1 0x3 0x4 0x0 0x0 0x0 0x0 0xfa 0x33
DEBUG   2025-08-29 14:40:37,492  pymodbus.logging:base.py:92 Processing: 0x1 0x3 0x4 0x0 0x0 0x0 0x0 0xfa 0x33
DEBUG   2025-08-29 14:40:37,492  pymodbus.logging:decoders.py:103 decode PDU for 3
DEBUG   2025-08-29 14:40:37,492  pymodbus.logging:base.py:102 Frame advanced, resetting header!!
DEBUG   2025-08-29 14:40:37,492  pymodbus.logging:transaction.py:67 Adding transaction 0
DEBUG   2025-08-29 14:40:37,492  pymodbus.logging:transaction.py:78 Getting transaction 0
DEBUG   2025-08-29 14:40:37,492  pymodbus.logging:transaction.py:258 Changing transaction state from "PROCESSING REPLY" to "TRANSACTION_COMPLETE"
INFO    2025-08-29 14:40:37,492  root:modbus_rtu_tcp.py:44 read_measurement ret is:ReadHoldingRegistersResponse (2)
INFO    2025-08-29 14:40:37,492  root:acudc260_modbus_get.py:131 read u_voltage ret is:[0, 0]
DEBUG   2025-08-29 14:40:37,493  pymodbus.logging:transaction.py:184 Current transaction state - TRANSACTION_COMPLETE
DEBUG   2025-08-29 14:40:37,493  pymodbus.logging:transaction.py:193 Running transaction 0
DEBUG   2025-08-29 14:40:37,493  pymodbus.logging:transaction.py:293 SEND: 0x1 0x3 0x30 0x2 0x0 0x2 0x6a 0xcb
DEBUG   2025-08-29 14:40:37,493  pymodbus.logging:serial.py:271 Changing state to IDLE - Last Frame End - 1756449637.492064 Current Time stamp - 1756449637.49368
DEBUG   2025-08-29 14:40:37,493  pymodbus.logging:serial.py:279 Waiting for 3.5 char before next send - 1.823 ms
DEBUG   2025-08-29 14:40:37,496  pymodbus.logging:base.py:250 New Transaction state "SENDING"
DEBUG   2025-08-29 14:40:37,496  pymodbus.logging:transaction.py:317 Changing transaction state from "SENDING" to "WAITING FOR REPLY"
DEBUG   2025-08-29 14:40:37,525  pymodbus.logging:transaction.py:419 Changing transaction state from "WAITING FOR REPLY" to "PROCESSING REPLY"
DEBUG   2025-08-29 14:40:37,525  pymodbus.logging:transaction.py:324 RECV: 0x1 0x3 0x4 0x3e 0xd3 0xa7 0x13 0x3d 0xdf
DEBUG   2025-08-29 14:40:37,525  pymodbus.logging:base.py:92 Processing: 0x1 0x3 0x4 0x3e 0xd3 0xa7 0x13 0x3d 0xdf
DEBUG   2025-08-29 14:40:37,525  pymodbus.logging:decoders.py:103 decode PDU for 3
DEBUG   2025-08-29 14:40:37,525  pymodbus.logging:base.py:102 Frame advanced, resetting header!!
DEBUG   2025-08-29 14:40:37,525  pymodbus.logging:transaction.py:67 Adding transaction 0
DEBUG   2025-08-29 14:40:37,525  pymodbus.logging:transaction.py:78 Getting transaction 0
DEBUG   2025-08-29 14:40:37,525  pymodbus.logging:transaction.py:258 Changing transaction state from "PROCESSING REPLY" to "TRANSACTION_COMPLETE"
INFO    2025-08-29 14:40:37,525  root:modbus_rtu_tcp.py:44 read_measurement ret is:ReadHoldingRegistersResponse (2)
INFO    2025-08-29 14:40:37,525  root:acudc260_modbus_get.py:145 read i1_current ret is:[16083, 42771]
DEBUG   2025-08-29 14:40:37,525  pymodbus.logging:transaction.py:184 Current transaction state - TRANSACTION_COMPLETE
DEBUG   2025-08-29 14:40:37,525  pymodbus.logging:transaction.py:193 Running transaction 0
DEBUG   2025-08-29 14:40:37,525  pymodbus.logging:transaction.py:293 SEND: 0x1 0x3 0x30 0x4 0x0 0x2 0x8a 0xca
DEBUG   2025-08-29 14:40:37,525  pymodbus.logging:serial.py:271 Changing state to IDLE - Last Frame End - 1756449637.525723 Current Time stamp - 1756449637.525723
DEBUG   2025-08-29 14:40:37,525  pymodbus.logging:serial.py:279 Waiting for 3.5 char before next send - 1.823 ms
DEBUG   2025-08-29 14:40:37,529  pymodbus.logging:base.py:250 New Transaction state "SENDING"
DEBUG   2025-08-29 14:40:37,529  pymodbus.logging:transaction.py:317 Changing transaction state from "SENDING" to "WAITING FOR REPLY"
DEBUG   2025-08-29 14:40:37,557  pymodbus.logging:transaction.py:419 Changing transaction state from "WAITING FOR REPLY" to "PROCESSING REPLY"
DEBUG   2025-08-29 14:40:37,557  pymodbus.logging:transaction.py:324 RECV: 0x1 0x3 0x4 0x3e 0xcb 0x91 0xb6 0x6a 0x3
DEBUG   2025-08-29 14:40:37,557  pymodbus.logging:base.py:92 Processing: 0x1 0x3 0x4 0x3e 0xcb 0x91 0xb6 0x6a 0x3
DEBUG   2025-08-29 14:40:37,557  pymodbus.logging:decoders.py:103 decode PDU for 3
DEBUG   2025-08-29 14:40:37,557  pymodbus.logging:base.py:102 Frame advanced, resetting header!!
DEBUG   2025-08-29 14:40:37,557  pymodbus.logging:transaction.py:67 Adding transaction 0
DEBUG   2025-08-29 14:40:37,557  pymodbus.logging:transaction.py:78 Getting transaction 0
DEBUG   2025-08-29 14:40:37,557  pymodbus.logging:transaction.py:258 Changing transaction state from "PROCESSING REPLY" to "TRANSACTION_COMPLETE"
INFO    2025-08-29 14:40:37,557  root:modbus_rtu_tcp.py:44 read_measurement ret is:ReadHoldingRegistersResponse (2)
INFO    2025-08-29 14:40:37,557  root:acudc260_modbus_get.py:159 read i2_current ret is:[16075, 37302]
DEBUG   2025-08-29 14:40:37,557  pymodbus.logging:transaction.py:184 Current transaction state - TRANSACTION_COMPLETE
DEBUG   2025-08-29 14:40:37,557  pymodbus.logging:transaction.py:193 Running transaction 0
DEBUG   2025-08-29 14:40:37,557  pymodbus.logging:transaction.py:293 SEND: 0x1 0x3 0x30 0x6 0x0 0x2 0x2b 0xa
DEBUG   2025-08-29 14:40:37,557  pymodbus.logging:serial.py:271 Changing state to IDLE - Last Frame End - 1756449637.557422 Current Time stamp - 1756449637.557422
DEBUG   2025-08-29 14:40:37,557  pymodbus.logging:serial.py:279 Waiting for 3.5 char before next send - 1.823 ms
DEBUG   2025-08-29 14:40:37,560  pymodbus.logging:base.py:250 New Transaction state "SENDING"
DEBUG   2025-08-29 14:40:37,560  pymodbus.logging:transaction.py:317 Changing transaction state from "SENDING" to "WAITING FOR REPLY"
DEBUG   2025-08-29 14:40:37,588  pymodbus.logging:transaction.py:419 Changing transaction state from "WAITING FOR REPLY" to "PROCESSING REPLY"
DEBUG   2025-08-29 14:40:37,588  pymodbus.logging:transaction.py:324 RECV: 0x1 0x3 0x4 0x3f 0x50 0xf 0xa2 0x72 0x7f
DEBUG   2025-08-29 14:40:37,588  pymodbus.logging:base.py:92 Processing: 0x1 0x3 0x4 0x3f 0x50 0xf 0xa2 0x72 0x7f
DEBUG   2025-08-29 14:40:37,588  pymodbus.logging:decoders.py:103 decode PDU for 3
DEBUG   2025-08-29 14:40:37,588  pymodbus.logging:base.py:102 Frame advanced, resetting header!!
DEBUG   2025-08-29 14:40:37,588  pymodbus.logging:transaction.py:67 Adding transaction 0
DEBUG   2025-08-29 14:40:37,588  pymodbus.logging:transaction.py:78 Getting transaction 0
DEBUG   2025-08-29 14:40:37,588  pymodbus.logging:transaction.py:258 Changing transaction state from "PROCESSING REPLY" to "TRANSACTION_COMPLETE"
INFO    2025-08-29 14:40:37,588  root:modbus_rtu_tcp.py:44 read_measurement ret is:ReadHoldingRegistersResponse (2)
INFO    2025-08-29 14:40:37,588  root:acudc260_modbus_get.py:173 read i_sum_current ret is:[16208, 4002]
DEBUG   2025-08-29 14:40:37,588  pymodbus.logging:transaction.py:184 Current transaction state - TRANSACTION_COMPLETE
DEBUG   2025-08-29 14:40:37,588  pymodbus.logging:transaction.py:193 Running transaction 0
DEBUG   2025-08-29 14:40:37,588  pymodbus.logging:transaction.py:293 SEND: 0x1 0x3 0x30 0x8 0x0 0x2 0x4a 0xc9
DEBUG   2025-08-29 14:40:37,588  pymodbus.logging:serial.py:271 Changing state to IDLE - Last Frame End - 1756449637.588634 Current Time stamp - 1756449637.588634
DEBUG   2025-08-29 14:40:37,588  pymodbus.logging:serial.py:279 Waiting for 3.5 char before next send - 1.823 ms
DEBUG   2025-08-29 14:40:37,592  pymodbus.logging:base.py:250 New Transaction state "SENDING"
DEBUG   2025-08-29 14:40:37,592  pymodbus.logging:transaction.py:317 Changing transaction state from "SENDING" to "WAITING FOR REPLY"
DEBUG   2025-08-29 14:40:37,604  pymodbus.logging:transaction.py:419 Changing transaction state from "WAITING FOR REPLY" to "PROCESSING REPLY"
DEBUG   2025-08-29 14:40:37,604  pymodbus.logging:transaction.py:324 RECV: 0x1 0x3 0x4 0x0 0x0 0x0 0x0 0xfa 0x33
DEBUG   2025-08-29 14:40:37,604  pymodbus.logging:base.py:92 Processing: 0x1 0x3 0x4 0x0 0x0 0x0 0x0 0xfa 0x33
DEBUG   2025-08-29 14:40:37,604  pymodbus.logging:decoders.py:103 decode PDU for 3
DEBUG   2025-08-29 14:40:37,604  pymodbus.logging:base.py:102 Frame advanced, resetting header!!
DEBUG   2025-08-29 14:40:37,604  pymodbus.logging:transaction.py:67 Adding transaction 0
DEBUG   2025-08-29 14:40:37,604  pymodbus.logging:transaction.py:78 Getting transaction 0
DEBUG   2025-08-29 14:40:37,604  pymodbus.logging:transaction.py:258 Changing transaction state from "PROCESSING REPLY" to "TRANSACTION_COMPLETE"
INFO    2025-08-29 14:40:37,604  root:modbus_rtu_tcp.py:44 read_measurement ret is:ReadHoldingRegistersResponse (2)
INFO    2025-08-29 14:40:37,604  root:acudc260_modbus_get.py:187 read p1_power ret is:[0, 0]
DEBUG   2025-08-29 14:40:37,604  pymodbus.logging:transaction.py:184 Current transaction state - TRANSACTION_COMPLETE
DEBUG   2025-08-29 14:40:37,604  pymodbus.logging:transaction.py:193 Running transaction 0
DEBUG   2025-08-29 14:40:37,604  pymodbus.logging:transaction.py:293 SEND: 0x1 0x3 0x30 0xa 0x0 0x2 0xeb 0x9
DEBUG   2025-08-29 14:40:37,604  pymodbus.logging:serial.py:271 Changing state to IDLE - Last Frame End - 1756449637.604592 Current Time stamp - 1756449637.604592
DEBUG   2025-08-29 14:40:37,604  pymodbus.logging:serial.py:279 Waiting for 3.5 char before next send - 1.823 ms
DEBUG   2025-08-29 14:40:37,621  pymodbus.logging:base.py:250 New Transaction state "SENDING"
DEBUG   2025-08-29 14:40:37,621  pymodbus.logging:transaction.py:317 Changing transaction state from "SENDING" to "WAITING FOR REPLY"
DEBUG   2025-08-29 14:40:37,638  pymodbus.logging:transaction.py:419 Changing transaction state from "WAITING FOR REPLY" to "PROCESSING REPLY"
DEBUG   2025-08-29 14:40:37,638  pymodbus.logging:transaction.py:324 RECV: 0x1 0x3 0x4 0x0 0x0 0x0 0x0 0xfa 0x33
DEBUG   2025-08-29 14:40:37,638  pymodbus.logging:base.py:92 Processing: 0x1 0x3 0x4 0x0 0x0 0x0 0x0 0xfa 0x33
DEBUG   2025-08-29 14:40:37,638  pymodbus.logging:decoders.py:103 decode PDU for 3
DEBUG   2025-08-29 14:40:37,638  pymodbus.logging:base.py:102 Frame advanced, resetting header!!
DEBUG   2025-08-29 14:40:37,638  pymodbus.logging:transaction.py:67 Adding transaction 0
DEBUG   2025-08-29 14:40:37,638  pymodbus.logging:transaction.py:78 Getting transaction 0
DEBUG   2025-08-29 14:40:37,638  pymodbus.logging:transaction.py:258 Changing transaction state from "PROCESSING REPLY" to "TRANSACTION_COMPLETE"
INFO    2025-08-29 14:40:37,638  root:modbus_rtu_tcp.py:44 read_measurement ret is:ReadHoldingRegistersResponse (2)
INFO    2025-08-29 14:40:37,638  root:acudc260_modbus_get.py:201 read p2_power ret is:[0, 0]
DEBUG   2025-08-29 14:40:37,638  pymodbus.logging:transaction.py:184 Current transaction state - TRANSACTION_COMPLETE
DEBUG   2025-08-29 14:40:37,638  pymodbus.logging:transaction.py:193 Running transaction 0
DEBUG   2025-08-29 14:40:37,638  pymodbus.logging:transaction.py:293 SEND: 0x1 0x3 0x30 0xc 0x0 0x2 0xb 0x8
DEBUG   2025-08-29 14:40:37,638  pymodbus.logging:serial.py:271 Changing state to IDLE - Last Frame End - 1756449637.638448 Current Time stamp - 1756449637.638448
DEBUG   2025-08-29 14:40:37,638  pymodbus.logging:serial.py:279 Waiting for 3.5 char before next send - 1.823 ms
DEBUG   2025-08-29 14:40:37,653  pymodbus.logging:base.py:250 New Transaction state "SENDING"
DEBUG   2025-08-29 14:40:37,653  pymodbus.logging:transaction.py:317 Changing transaction state from "SENDING" to "WAITING FOR REPLY"
DEBUG   2025-08-29 14:40:37,683  pymodbus.logging:transaction.py:419 Changing transaction state from "WAITING FOR REPLY" to "PROCESSING REPLY"
DEBUG   2025-08-29 14:40:37,683  pymodbus.logging:transaction.py:324 RECV: 0x1 0x3 0x4 0x0 0x0 0x0 0x0 0xfa 0x33
DEBUG   2025-08-29 14:40:37,683  pymodbus.logging:base.py:92 Processing: 0x1 0x3 0x4 0x0 0x0 0x0 0x0 0xfa 0x33
DEBUG   2025-08-29 14:40:37,683  pymodbus.logging:decoders.py:103 decode PDU for 3
DEBUG   2025-08-29 14:40:37,683  pymodbus.logging:base.py:102 Frame advanced, resetting header!!
DEBUG   2025-08-29 14:40:37,683  pymodbus.logging:transaction.py:67 Adding transaction 0
DEBUG   2025-08-29 14:40:37,683  pymodbus.logging:transaction.py:78 Getting transaction 0
DEBUG   2025-08-29 14:40:37,683  pymodbus.logging:transaction.py:258 Changing transaction state from "PROCESSING REPLY" to "TRANSACTION_COMPLETE"
INFO    2025-08-29 14:40:37,683  root:modbus_rtu_tcp.py:44 read_measurement ret is:ReadHoldingRegistersResponse (2)
INFO    2025-08-29 14:40:37,683  root:acudc260_modbus_get.py:215 read p_sum_power ret is:[0, 0]
DEBUG   2025-08-29 14:40:37,785  pymodbus.logging:transaction.py:184 Current transaction state - TRANSACTION_COMPLETE
DEBUG   2025-08-29 14:40:37,785  pymodbus.logging:transaction.py:193 Running transaction 0
DEBUG   2025-08-29 14:40:37,785  pymodbus.logging:transaction.py:293 SEND: 0x1 0x3 0x30 0x0 0x0 0x2 0xcb 0xb
DEBUG   2025-08-29 14:40:37,785  pymodbus.logging:serial.py:271 Changing state to IDLE - Last Frame End - 1756449637.683897 Current Time stamp - 1756449637.785385
DEBUG   2025-08-29 14:40:37,785  pymodbus.logging:base.py:250 New Transaction state "SENDING"
DEBUG   2025-08-29 14:40:37,785  pymodbus.logging:transaction.py:317 Changing transaction state from "SENDING" to "WAITING FOR REPLY"
DEBUG   2025-08-29 14:40:37,812  pymodbus.logging:transaction.py:419 Changing transaction state from "WAITING FOR REPLY" to "PROCESSING REPLY"
DEBUG   2025-08-29 14:40:37,812  pymodbus.logging:transaction.py:324 RECV: 0x1 0x3 0x4 0x0 0x0 0x0 0x0 0xfa 0x33
DEBUG   2025-08-29 14:40:37,812  pymodbus.logging:base.py:92 Processing: 0x1 0x3 0x4 0x0 0x0 0x0 0x0 0xfa 0x33
DEBUG   2025-08-29 14:40:37,812  pymodbus.logging:decoders.py:103 decode PDU for 3
DEBUG   2025-08-29 14:40:37,812  pymodbus.logging:base.py:102 Frame advanced, resetting header!!
DEBUG   2025-08-29 14:40:37,812  pymodbus.logging:transaction.py:67 Adding transaction 0
DEBUG   2025-08-29 14:40:37,812  pymodbus.logging:transaction.py:78 Getting transaction 0
DEBUG   2025-08-29 14:40:37,812  pymodbus.logging:transaction.py:258 Changing transaction state from "PROCESSING REPLY" to "TRANSACTION_COMPLETE"
INFO    2025-08-29 14:40:37,812  root:modbus_rtu_tcp.py:44 read_measurement ret is:ReadHoldingRegistersResponse (2)
INFO    2025-08-29 14:40:37,812  root:acudc260_modbus_get.py:131 read u_voltage ret is:[0, 0]
DEBUG   2025-08-29 14:40:37,812  pymodbus.logging:transaction.py:184 Current transaction state - TRANSACTION_COMPLETE
DEBUG   2025-08-29 14:40:37,812  pymodbus.logging:transaction.py:193 Running transaction 0
DEBUG   2025-08-29 14:40:37,812  pymodbus.logging:transaction.py:293 SEND: 0x1 0x3 0x30 0x2 0x0 0x2 0x6a 0xcb
DEBUG   2025-08-29 14:40:37,812  pymodbus.logging:serial.py:271 Changing state to IDLE - Last Frame End - 1756449637.81214 Current Time stamp - 1756449637.81214
DEBUG   2025-08-29 14:40:37,812  pymodbus.logging:serial.py:279 Waiting for 3.5 char before next send - 1.823 ms
DEBUG   2025-08-29 14:40:37,815  pymodbus.logging:base.py:250 New Transaction state "SENDING"
DEBUG   2025-08-29 14:40:37,815  pymodbus.logging:transaction.py:317 Changing transaction state from "SENDING" to "WAITING FOR REPLY"
DEBUG   2025-08-29 14:40:37,846  pymodbus.logging:transaction.py:419 Changing transaction state from "WAITING FOR REPLY" to "PROCESSING REPLY"
DEBUG   2025-08-29 14:40:37,846  pymodbus.logging:transaction.py:324 RECV: 0x1 0x3 0x4 0x3e 0xd3 0x42 0xe0 0x37 0xa
DEBUG   2025-08-29 14:40:37,846  pymodbus.logging:base.py:92 Processing: 0x1 0x3 0x4 0x3e 0xd3 0x42 0xe0 0x37 0xa
DEBUG   2025-08-29 14:40:37,846  pymodbus.logging:decoders.py:103 decode PDU for 3
DEBUG   2025-08-29 14:40:37,846  pymodbus.logging:base.py:102 Frame advanced, resetting header!!
DEBUG   2025-08-29 14:40:37,846  pymodbus.logging:transaction.py:67 Adding transaction 0
DEBUG   2025-08-29 14:40:37,846  pymodbus.logging:transaction.py:78 Getting transaction 0
DEBUG   2025-08-29 14:40:37,846  pymodbus.logging:transaction.py:258 Changing transaction state from "PROCESSING REPLY" to "TRANSACTION_COMPLETE"
INFO    2025-08-29 14:40:37,846  root:modbus_rtu_tcp.py:44 read_measurement ret is:ReadHoldingRegistersResponse (2)
INFO    2025-08-29 14:40:37,846  root:acudc260_modbus_get.py:145 read i1_current ret is:[16083, 17120]
DEBUG   2025-08-29 14:40:37,846  pymodbus.logging:transaction.py:184 Current transaction state - TRANSACTION_COMPLETE
DEBUG   2025-08-29 14:40:37,846  pymodbus.logging:transaction.py:193 Running transaction 0
DEBUG   2025-08-29 14:40:37,846  pymodbus.logging:transaction.py:293 SEND: 0x1 0x3 0x30 0x4 0x0 0x2 0x8a 0xca
DEBUG   2025-08-29 14:40:37,846  pymodbus.logging:serial.py:271 Changing state to IDLE - Last Frame End - 1756449637.846279 Current Time stamp - 1756449637.846279
DEBUG   2025-08-29 14:40:37,846  pymodbus.logging:serial.py:279 Waiting for 3.5 char before next send - 1.823 ms
DEBUG   2025-08-29 14:40:37,849  pymodbus.logging:base.py:250 New Transaction state "SENDING"
DEBUG   2025-08-29 14:40:37,849  pymodbus.logging:transaction.py:317 Changing transaction state from "SENDING" to "WAITING FOR REPLY"
DEBUG   2025-08-29 14:40:37,877  pymodbus.logging:transaction.py:419 Changing transaction state from "WAITING FOR REPLY" to "PROCESSING REPLY"
DEBUG   2025-08-29 14:40:37,877  pymodbus.logging:transaction.py:324 RECV: 0x1 0x3 0x4 0x3e 0xcb 0x82 0xc0 0xe6 0xd5
DEBUG   2025-08-29 14:40:37,877  pymodbus.logging:base.py:92 Processing: 0x1 0x3 0x4 0x3e 0xcb 0x82 0xc0 0xe6 0xd5
DEBUG   2025-08-29 14:40:37,877  pymodbus.logging:decoders.py:103 decode PDU for 3
DEBUG   2025-08-29 14:40:37,877  pymodbus.logging:base.py:102 Frame advanced, resetting header!!
DEBUG   2025-08-29 14:40:37,877  pymodbus.logging:transaction.py:67 Adding transaction 0
DEBUG   2025-08-29 14:40:37,877  pymodbus.logging:transaction.py:78 Getting transaction 0
DEBUG   2025-08-29 14:40:37,877  pymodbus.logging:transaction.py:258 Changing transaction state from "PROCESSING REPLY" to "TRANSACTION_COMPLETE"
INFO    2025-08-29 14:40:37,877  root:modbus_rtu_tcp.py:44 read_measurement ret is:ReadHoldingRegistersResponse (2)
INFO    2025-08-29 14:40:37,877  root:acudc260_modbus_get.py:159 read i2_current ret is:[16075, 33472]
DEBUG   2025-08-29 14:40:37,877  pymodbus.logging:transaction.py:184 Current transaction state - TRANSACTION_COMPLETE
DEBUG   2025-08-29 14:40:37,877  pymodbus.logging:transaction.py:193 Running transaction 0
DEBUG   2025-08-29 14:40:37,877  pymodbus.logging:transaction.py:293 SEND: 0x1 0x3 0x30 0x6 0x0 0x2 0x2b 0xa
DEBUG   2025-08-29 14:40:37,877  pymodbus.logging:serial.py:271 Changing state to IDLE - Last Frame End - 1756449637.877721 Current Time stamp - 1756449637.877721
DEBUG   2025-08-29 14:40:37,877  pymodbus.logging:serial.py:279 Waiting for 3.5 char before next send - 1.823 ms
DEBUG   2025-08-29 14:40:37,881  pymodbus.logging:base.py:250 New Transaction state "SENDING"
DEBUG   2025-08-29 14:40:37,881  pymodbus.logging:transaction.py:317 Changing transaction state from "SENDING" to "WAITING FOR REPLY"
DEBUG   2025-08-29 14:40:37,909  pymodbus.logging:transaction.py:419 Changing transaction state from "WAITING FOR REPLY" to "PROCESSING REPLY"
