INFO    2025-08-29 15:04:58,624  root:acudc260_fast_test.py:363 测试进度:['test_case', 'Voltage', 'Current_1', 'Current_2', '等待时间(h)', 'voltage_accuracy', 'current_accuracy', 'power_accuracy', '采样次数', '采样间隔'],执行时间:2025_08_29 15:04:58
INFO    2025-08-29 15:04:58,624  root:source_control.py:26 <源输出>
    电压检定点:6.0%;
    电流检定点:0.08%;
    电压纹波比例:0%;
    电流纹波比例:0%;
    电压纹波相位:0度;
    电流纹波相位:0度;
    纹波频率:300Hz;
    电能方向:正向;
    <End>
INFO    2025-08-29 15:05:00,250  root:source_control.py:30 recv_data ret is:<源输出应答>
电压总值:60.000000V;
电流总值:0.400000A;
功率总值:23.999999W;
电压直流:60.000000V;
电流直流:0.400000A;
功率直流:23.999999W;
电压纹波:0.000000V;
电流纹波:0.000000A;
功率纹波:0.000000W;
<End>
DEBUG   2025-08-29 15:05:10,351  pymodbus.logging:transaction.py:184 Current transaction state - IDLE
DEBUG   2025-08-29 15:05:10,351  pymodbus.logging:transaction.py:193 Running transaction 0
DEBUG   2025-08-29 15:05:10,352  pymodbus.logging:transaction.py:293 SEND: 0x1 0x3 0x30 0x0 0x0 0x2 0xcb 0xb
DEBUG   2025-08-29 15:05:10,352  pymodbus.logging:base.py:250 New Transaction state "SENDING"
DEBUG   2025-08-29 15:05:10,352  pymodbus.logging:transaction.py:317 Changing transaction state from "SENDING" to "WAITING FOR REPLY"
DEBUG   2025-08-29 15:05:10,384  pymodbus.logging:transaction.py:419 Changing transaction state from "WAITING FOR REPLY" to "PROCESSING REPLY"
DEBUG   2025-08-29 15:05:10,384  pymodbus.logging:transaction.py:324 RECV: 0x1 0x3 0x4 0x42 0x70 0x2 0xe2 0x6e 0xb9
DEBUG   2025-08-29 15:05:10,384  pymodbus.logging:base.py:92 Processing: 0x1 0x3 0x4 0x42 0x70 0x2 0xe2 0x6e 0xb9
DEBUG   2025-08-29 15:05:10,384  pymodbus.logging:decoders.py:103 decode PDU for 3
DEBUG   2025-08-29 15:05:10,384  pymodbus.logging:base.py:102 Frame advanced, resetting header!!
DEBUG   2025-08-29 15:05:10,384  pymodbus.logging:transaction.py:67 Adding transaction 0
DEBUG   2025-08-29 15:05:10,384  pymodbus.logging:transaction.py:78 Getting transaction 0
DEBUG   2025-08-29 15:05:10,384  pymodbus.logging:transaction.py:258 Changing transaction state from "PROCESSING REPLY" to "TRANSACTION_COMPLETE"
INFO    2025-08-29 15:05:10,384  root:modbus_rtu_tcp.py:44 read_measurement ret is:ReadHoldingRegistersResponse (2)
INFO    2025-08-29 15:05:10,384  root:acudc260_modbus_get.py:131 read u_voltage ret is:[17008, 738]
DEBUG   2025-08-29 15:05:10,384  pymodbus.logging:transaction.py:184 Current transaction state - TRANSACTION_COMPLETE
DEBUG   2025-08-29 15:05:10,384  pymodbus.logging:transaction.py:193 Running transaction 0
DEBUG   2025-08-29 15:05:10,384  pymodbus.logging:transaction.py:293 SEND: 0x1 0x3 0x30 0x2 0x0 0x2 0x6a 0xcb
DEBUG   2025-08-29 15:05:10,384  pymodbus.logging:serial.py:271 Changing state to IDLE - Last Frame End - 1756451110.384421 Current Time stamp - 1756451110.384421
DEBUG   2025-08-29 15:05:10,384  pymodbus.logging:serial.py:279 Waiting for 3.5 char before next send - 1.823 ms
DEBUG   2025-08-29 15:05:10,387  pymodbus.logging:base.py:250 New Transaction state "SENDING"
DEBUG   2025-08-29 15:05:10,387  pymodbus.logging:transaction.py:317 Changing transaction state from "SENDING" to "WAITING FOR REPLY"
DEBUG   2025-08-29 15:05:10,414  pymodbus.logging:transaction.py:419 Changing transaction state from "WAITING FOR REPLY" to "PROCESSING REPLY"
DEBUG   2025-08-29 15:05:10,414  pymodbus.logging:transaction.py:324 RECV: 0x1 0x3 0x4 0x3e 0xce 0x38 0x76 0x4 0x2
DEBUG   2025-08-29 15:05:10,414  pymodbus.logging:base.py:92 Processing: 0x1 0x3 0x4 0x3e 0xce 0x38 0x76 0x4 0x2
DEBUG   2025-08-29 15:05:10,414  pymodbus.logging:decoders.py:103 decode PDU for 3
DEBUG   2025-08-29 15:05:10,415  pymodbus.logging:base.py:102 Frame advanced, resetting header!!
DEBUG   2025-08-29 15:05:10,415  pymodbus.logging:transaction.py:67 Adding transaction 0
DEBUG   2025-08-29 15:05:10,415  pymodbus.logging:transaction.py:78 Getting transaction 0
DEBUG   2025-08-29 15:05:10,415  pymodbus.logging:transaction.py:258 Changing transaction state from "PROCESSING REPLY" to "TRANSACTION_COMPLETE"
INFO    2025-08-29 15:05:10,415  root:modbus_rtu_tcp.py:44 read_measurement ret is:ReadHoldingRegistersResponse (2)
INFO    2025-08-29 15:05:10,415  root:acudc260_modbus_get.py:145 read i1_current ret is:[16078, 14454]
DEBUG   2025-08-29 15:05:10,415  pymodbus.logging:transaction.py:184 Current transaction state - TRANSACTION_COMPLETE
DEBUG   2025-08-29 15:05:10,415  pymodbus.logging:transaction.py:193 Running transaction 0
DEBUG   2025-08-29 15:05:10,415  pymodbus.logging:transaction.py:293 SEND: 0x1 0x3 0x30 0x4 0x0 0x2 0x8a 0xca
DEBUG   2025-08-29 15:05:10,415  pymodbus.logging:serial.py:271 Changing state to IDLE - Last Frame End - 1756451110.414478 Current Time stamp - 1756451110.415086
DEBUG   2025-08-29 15:05:10,415  pymodbus.logging:serial.py:279 Waiting for 3.5 char before next send - 1.823 ms
DEBUG   2025-08-29 15:05:10,417  pymodbus.logging:base.py:250 New Transaction state "SENDING"
DEBUG   2025-08-29 15:05:10,417  pymodbus.logging:transaction.py:317 Changing transaction state from "SENDING" to "WAITING FOR REPLY"
DEBUG   2025-08-29 15:05:10,443  pymodbus.logging:transaction.py:419 Changing transaction state from "WAITING FOR REPLY" to "PROCESSING REPLY"
DEBUG   2025-08-29 15:05:10,443  pymodbus.logging:transaction.py:324 RECV: 0x1 0x3 0x4 0x3e 0xc9 0x1f 0x33 0x6f 0xc0
DEBUG   2025-08-29 15:05:10,443  pymodbus.logging:base.py:92 Processing: 0x1 0x3 0x4 0x3e 0xc9 0x1f 0x33 0x6f 0xc0
DEBUG   2025-08-29 15:05:10,444  pymodbus.logging:decoders.py:103 decode PDU for 3
DEBUG   2025-08-29 15:05:10,444  pymodbus.logging:base.py:102 Frame advanced, resetting header!!
DEBUG   2025-08-29 15:05:10,444  pymodbus.logging:transaction.py:67 Adding transaction 0
DEBUG   2025-08-29 15:05:10,444  pymodbus.logging:transaction.py:78 Getting transaction 0
DEBUG   2025-08-29 15:05:10,444  pymodbus.logging:transaction.py:258 Changing transaction state from "PROCESSING REPLY" to "TRANSACTION_COMPLETE"
INFO    2025-08-29 15:05:10,444  root:modbus_rtu_tcp.py:44 read_measurement ret is:ReadHoldingRegistersResponse (2)
INFO    2025-08-29 15:05:10,444  root:acudc260_modbus_get.py:159 read i2_current ret is:[16073, 7987]
DEBUG   2025-08-29 15:05:10,444  pymodbus.logging:transaction.py:184 Current transaction state - TRANSACTION_COMPLETE
DEBUG   2025-08-29 15:05:10,444  pymodbus.logging:transaction.py:193 Running transaction 0
DEBUG   2025-08-29 15:05:10,444  pymodbus.logging:transaction.py:293 SEND: 0x1 0x3 0x30 0x6 0x0 0x2 0x2b 0xa
DEBUG   2025-08-29 15:05:10,444  pymodbus.logging:serial.py:271 Changing state to IDLE - Last Frame End - 1756451110.443196 Current Time stamp - 1756451110.444178
DEBUG   2025-08-29 15:05:10,444  pymodbus.logging:serial.py:279 Waiting for 3.5 char before next send - 1.823 ms
DEBUG   2025-08-29 15:05:10,446  pymodbus.logging:base.py:250 New Transaction state "SENDING"
DEBUG   2025-08-29 15:05:10,446  pymodbus.logging:transaction.py:317 Changing transaction state from "SENDING" to "WAITING FOR REPLY"
DEBUG   2025-08-29 15:05:10,475  pymodbus.logging:transaction.py:419 Changing transaction state from "WAITING FOR REPLY" to "PROCESSING REPLY"
DEBUG   2025-08-29 15:05:10,475  pymodbus.logging:transaction.py:324 RECV: 0x1 0x3 0x4 0x3f 0x4b 0xab 0xd4 0xf9 0x5e
DEBUG   2025-08-29 15:05:10,475  pymodbus.logging:base.py:92 Processing: 0x1 0x3 0x4 0x3f 0x4b 0xab 0xd4 0xf9 0x5e
DEBUG   2025-08-29 15:05:10,476  pymodbus.logging:decoders.py:103 decode PDU for 3
DEBUG   2025-08-29 15:05:10,476  pymodbus.logging:base.py:102 Frame advanced, resetting header!!
DEBUG   2025-08-29 15:05:10,476  pymodbus.logging:transaction.py:67 Adding transaction 0
DEBUG   2025-08-29 15:05:10,476  pymodbus.logging:transaction.py:78 Getting transaction 0
DEBUG   2025-08-29 15:05:10,476  pymodbus.logging:transaction.py:258 Changing transaction state from "PROCESSING REPLY" to "TRANSACTION_COMPLETE"
INFO    2025-08-29 15:05:10,476  root:modbus_rtu_tcp.py:44 read_measurement ret is:ReadHoldingRegistersResponse (2)
INFO    2025-08-29 15:05:10,476  root:acudc260_modbus_get.py:173 read i_sum_current ret is:[16203, 43988]
DEBUG   2025-08-29 15:05:10,476  pymodbus.logging:transaction.py:184 Current transaction state - TRANSACTION_COMPLETE
DEBUG   2025-08-29 15:05:10,476  pymodbus.logging:transaction.py:193 Running transaction 0
DEBUG   2025-08-29 15:05:10,476  pymodbus.logging:transaction.py:293 SEND: 0x1 0x3 0x30 0x8 0x0 0x2 0x4a 0xc9
DEBUG   2025-08-29 15:05:10,476  pymodbus.logging:serial.py:271 Changing state to IDLE - Last Frame End - 1756451110.475165 Current Time stamp - 1756451110.476155
DEBUG   2025-08-29 15:05:10,476  pymodbus.logging:serial.py:279 Waiting for 3.5 char before next send - 1.823 ms
DEBUG   2025-08-29 15:05:10,479  pymodbus.logging:base.py:250 New Transaction state "SENDING"
DEBUG   2025-08-29 15:05:10,479  pymodbus.logging:transaction.py:317 Changing transaction state from "SENDING" to "WAITING FOR REPLY"
DEBUG   2025-08-29 15:05:10,507  pymodbus.logging:transaction.py:419 Changing transaction state from "WAITING FOR REPLY" to "PROCESSING REPLY"
DEBUG   2025-08-29 15:05:10,507  pymodbus.logging:transaction.py:324 RECV: 0x1 0x3 0x4 0x3c 0xc3 0xa7 0xec 0x7d 0xe2
DEBUG   2025-08-29 15:05:10,508  pymodbus.logging:base.py:92 Processing: 0x1 0x3 0x4 0x3c 0xc3 0xa7 0xec 0x7d 0xe2
DEBUG   2025-08-29 15:05:10,508  pymodbus.logging:decoders.py:103 decode PDU for 3
DEBUG   2025-08-29 15:05:10,508  pymodbus.logging:base.py:102 Frame advanced, resetting header!!
DEBUG   2025-08-29 15:05:10,508  pymodbus.logging:transaction.py:67 Adding transaction 0
DEBUG   2025-08-29 15:05:10,508  pymodbus.logging:transaction.py:78 Getting transaction 0
DEBUG   2025-08-29 15:05:10,508  pymodbus.logging:transaction.py:258 Changing transaction state from "PROCESSING REPLY" to "TRANSACTION_COMPLETE"
INFO    2025-08-29 15:05:10,508  root:modbus_rtu_tcp.py:44 read_measurement ret is:ReadHoldingRegistersResponse (2)
INFO    2025-08-29 15:05:10,508  root:acudc260_modbus_get.py:187 read p1_power ret is:[15555, 42988]
DEBUG   2025-08-29 15:05:10,508  pymodbus.logging:transaction.py:184 Current transaction state - TRANSACTION_COMPLETE
DEBUG   2025-08-29 15:05:10,508  pymodbus.logging:transaction.py:193 Running transaction 0
DEBUG   2025-08-29 15:05:10,508  pymodbus.logging:transaction.py:293 SEND: 0x1 0x3 0x30 0xa 0x0 0x2 0xeb 0x9
DEBUG   2025-08-29 15:05:10,508  pymodbus.logging:serial.py:271 Changing state to IDLE - Last Frame End - 1756451110.507181 Current Time stamp - 1756451110.50817
DEBUG   2025-08-29 15:05:10,508  pymodbus.logging:serial.py:279 Waiting for 3.5 char before next send - 1.823 ms
DEBUG   2025-08-29 15:05:10,510  pymodbus.logging:base.py:250 New Transaction state "SENDING"
DEBUG   2025-08-29 15:05:10,510  pymodbus.logging:transaction.py:317 Changing transaction state from "SENDING" to "WAITING FOR REPLY"
DEBUG   2025-08-29 15:05:10,544  pymodbus.logging:transaction.py:419 Changing transaction state from "WAITING FOR REPLY" to "PROCESSING REPLY"
DEBUG   2025-08-29 15:05:10,544  pymodbus.logging:transaction.py:324 RECV: 0x1 0x3 0x4 0x3c 0xc1 0xa2 0x34 0xdf 0x28
DEBUG   2025-08-29 15:05:10,544  pymodbus.logging:base.py:92 Processing: 0x1 0x3 0x4 0x3c 0xc1 0xa2 0x34 0xdf 0x28
DEBUG   2025-08-29 15:05:10,544  pymodbus.logging:decoders.py:103 decode PDU for 3
DEBUG   2025-08-29 15:05:10,544  pymodbus.logging:base.py:102 Frame advanced, resetting header!!
DEBUG   2025-08-29 15:05:10,544  pymodbus.logging:transaction.py:67 Adding transaction 0
DEBUG   2025-08-29 15:05:10,544  pymodbus.logging:transaction.py:78 Getting transaction 0
DEBUG   2025-08-29 15:05:10,544  pymodbus.logging:transaction.py:258 Changing transaction state from "PROCESSING REPLY" to "TRANSACTION_COMPLETE"
INFO    2025-08-29 15:05:10,544  root:modbus_rtu_tcp.py:44 read_measurement ret is:ReadHoldingRegistersResponse (2)
INFO    2025-08-29 15:05:10,544  root:acudc260_modbus_get.py:201 read p2_power ret is:[15553, 41524]
DEBUG   2025-08-29 15:05:10,544  pymodbus.logging:transaction.py:184 Current transaction state - TRANSACTION_COMPLETE
DEBUG   2025-08-29 15:05:10,544  pymodbus.logging:transaction.py:193 Running transaction 0
DEBUG   2025-08-29 15:05:10,544  pymodbus.logging:transaction.py:293 SEND: 0x1 0x3 0x30 0xc 0x0 0x2 0xb 0x8
DEBUG   2025-08-29 15:05:10,544  pymodbus.logging:serial.py:271 Changing state to IDLE - Last Frame End - 1756451110.544092 Current Time stamp - 1756451110.544092
DEBUG   2025-08-29 15:05:10,545  pymodbus.logging:serial.py:279 Waiting for 3.5 char before next send - 1.823 ms
DEBUG   2025-08-29 15:05:10,547  pymodbus.logging:base.py:250 New Transaction state "SENDING"
DEBUG   2025-08-29 15:05:10,547  pymodbus.logging:transaction.py:317 Changing transaction state from "SENDING" to "WAITING FOR REPLY"
DEBUG   2025-08-29 15:05:10,576  pymodbus.logging:transaction.py:419 Changing transaction state from "WAITING FOR REPLY" to "PROCESSING REPLY"
DEBUG   2025-08-29 15:05:10,576  pymodbus.logging:transaction.py:324 RECV: 0x1 0x3 0x4 0x3d 0x42 0xa5 0x10 0x2d 0x17
DEBUG   2025-08-29 15:05:10,576  pymodbus.logging:base.py:92 Processing: 0x1 0x3 0x4 0x3d 0x42 0xa5 0x10 0x2d 0x17
DEBUG   2025-08-29 15:05:10,576  pymodbus.logging:decoders.py:103 decode PDU for 3
DEBUG   2025-08-29 15:05:10,576  pymodbus.logging:base.py:102 Frame advanced, resetting header!!
DEBUG   2025-08-29 15:05:10,576  pymodbus.logging:transaction.py:67 Adding transaction 0
DEBUG   2025-08-29 15:05:10,576  pymodbus.logging:transaction.py:78 Getting transaction 0
DEBUG   2025-08-29 15:05:10,576  pymodbus.logging:transaction.py:258 Changing transaction state from "PROCESSING REPLY" to "TRANSACTION_COMPLETE"
INFO    2025-08-29 15:05:10,576  root:modbus_rtu_tcp.py:44 read_measurement ret is:ReadHoldingRegistersResponse (2)
INFO    2025-08-29 15:05:10,576  root:acudc260_modbus_get.py:215 read p_sum_power ret is:[15682, 42256]
DEBUG   2025-08-29 15:05:10,677  pymodbus.logging:transaction.py:184 Current transaction state - TRANSACTION_COMPLETE
DEBUG   2025-08-29 15:05:10,677  pymodbus.logging:transaction.py:193 Running transaction 0
DEBUG   2025-08-29 15:05:10,677  pymodbus.logging:transaction.py:293 SEND: 0x1 0x3 0x30 0x0 0x0 0x2 0xcb 0xb
DEBUG   2025-08-29 15:05:10,677  pymodbus.logging:serial.py:271 Changing state to IDLE - Last Frame End - 1756451110.576666 Current Time stamp - 1756451110.677908
DEBUG   2025-08-29 15:05:10,677  pymodbus.logging:base.py:250 New Transaction state "SENDING"
DEBUG   2025-08-29 15:05:10,678  pymodbus.logging:transaction.py:317 Changing transaction state from "SENDING" to "WAITING FOR REPLY"
DEBUG   2025-08-29 15:05:10,704  pymodbus.logging:transaction.py:419 Changing transaction state from "WAITING FOR REPLY" to "PROCESSING REPLY"
DEBUG   2025-08-29 15:05:10,704  pymodbus.logging:transaction.py:324 RECV: 0x1 0x3 0x4 0x42 0x70 0x4 0xd5 0x2c 0xcf
DEBUG   2025-08-29 15:05:10,704  pymodbus.logging:base.py:92 Processing: 0x1 0x3 0x4 0x42 0x70 0x4 0xd5 0x2c 0xcf
DEBUG   2025-08-29 15:05:10,704  pymodbus.logging:decoders.py:103 decode PDU for 3
DEBUG   2025-08-29 15:05:10,704  pymodbus.logging:base.py:102 Frame advanced, resetting header!!
DEBUG   2025-08-29 15:05:10,704  pymodbus.logging:transaction.py:67 Adding transaction 0
DEBUG   2025-08-29 15:05:10,704  pymodbus.logging:transaction.py:78 Getting transaction 0
DEBUG   2025-08-29 15:05:10,704  pymodbus.logging:transaction.py:258 Changing transaction state from "PROCESSING REPLY" to "TRANSACTION_COMPLETE"
INFO    2025-08-29 15:05:10,704  root:modbus_rtu_tcp.py:44 read_measurement ret is:ReadHoldingRegistersResponse (2)
INFO    2025-08-29 15:05:10,704  root:acudc260_modbus_get.py:131 read u_voltage ret is:[17008, 1237]
DEBUG   2025-08-29 15:05:10,704  pymodbus.logging:transaction.py:184 Current transaction state - TRANSACTION_COMPLETE
DEBUG   2025-08-29 15:05:10,704  pymodbus.logging:transaction.py:193 Running transaction 0
DEBUG   2025-08-29 15:05:10,705  pymodbus.logging:transaction.py:293 SEND: 0x1 0x3 0x30 0x2 0x0 0x2 0x6a 0xcb
DEBUG   2025-08-29 15:05:10,705  pymodbus.logging:serial.py:271 Changing state to IDLE - Last Frame End - 1756451110.704055 Current Time stamp - 1756451110.705167
DEBUG   2025-08-29 15:05:10,705  pymodbus.logging:serial.py:279 Waiting for 3.5 char before next send - 1.823 ms
DEBUG   2025-08-29 15:05:10,707  pymodbus.logging:base.py:250 New Transaction state "SENDING"
DEBUG   2025-08-29 15:05:10,707  pymodbus.logging:transaction.py:317 Changing transaction state from "SENDING" to "WAITING FOR REPLY"
DEBUG   2025-08-29 15:05:10,735  pymodbus.logging:transaction.py:419 Changing transaction state from "WAITING FOR REPLY" to "PROCESSING REPLY"
DEBUG   2025-08-29 15:05:10,735  pymodbus.logging:transaction.py:324 RECV: 0x1 0x3 0x4 0x3e 0xcd 0x50 0xd3 0x1b 0xb9
DEBUG   2025-08-29 15:05:10,735  pymodbus.logging:base.py:92 Processing: 0x1 0x3 0x4 0x3e 0xcd 0x50 0xd3 0x1b 0xb9
DEBUG   2025-08-29 15:05:10,735  pymodbus.logging:decoders.py:103 decode PDU for 3
DEBUG   2025-08-29 15:05:10,735  pymodbus.logging:base.py:102 Frame advanced, resetting header!!
DEBUG   2025-08-29 15:05:10,735  pymodbus.logging:transaction.py:67 Adding transaction 0
DEBUG   2025-08-29 15:05:10,735  pymodbus.logging:transaction.py:78 Getting transaction 0
DEBUG   2025-08-29 15:05:10,735  pymodbus.logging:transaction.py:258 Changing transaction state from "PROCESSING REPLY" to "TRANSACTION_COMPLETE"
INFO    2025-08-29 15:05:10,735  root:modbus_rtu_tcp.py:44 read_measurement ret is:ReadHoldingRegistersResponse (2)
INFO    2025-08-29 15:05:10,735  root:acudc260_modbus_get.py:145 read i1_current ret is:[16077, 20691]
DEBUG   2025-08-29 15:05:10,735  pymodbus.logging:transaction.py:184 Current transaction state - TRANSACTION_COMPLETE
DEBUG   2025-08-29 15:05:10,735  pymodbus.logging:transaction.py:193 Running transaction 0
DEBUG   2025-08-29 15:05:10,735  pymodbus.logging:transaction.py:293 SEND: 0x1 0x3 0x30 0x4 0x0 0x2 0x8a 0xca
DEBUG   2025-08-29 15:05:10,735  pymodbus.logging:serial.py:271 Changing state to IDLE - Last Frame End - 1756451110.735219 Current Time stamp - 1756451110.735751
DEBUG   2025-08-29 15:05:10,735  pymodbus.logging:serial.py:279 Waiting for 3.5 char before next send - 1.823 ms
DEBUG   2025-08-29 15:05:10,738  pymodbus.logging:base.py:250 New Transaction state "SENDING"
DEBUG   2025-08-29 15:05:10,738  pymodbus.logging:transaction.py:317 Changing transaction state from "SENDING" to "WAITING FOR REPLY"
DEBUG   2025-08-29 15:05:10,767  pymodbus.logging:transaction.py:419 Changing transaction state from "WAITING FOR REPLY" to "PROCESSING REPLY"
DEBUG   2025-08-29 15:05:10,767  pymodbus.logging:transaction.py:324 RECV: 0x1 0x3 0x4 0x3e 0xcc 0x63 0x43 0x5e 0xe5
DEBUG   2025-08-29 15:05:10,767  pymodbus.logging:base.py:92 Processing: 0x1 0x3 0x4 0x3e 0xcc 0x63 0x43 0x5e 0xe5
DEBUG   2025-08-29 15:05:10,767  pymodbus.logging:decoders.py:103 decode PDU for 3
DEBUG   2025-08-29 15:05:10,767  pymodbus.logging:base.py:102 Frame advanced, resetting header!!
DEBUG   2025-08-29 15:05:10,767  pymodbus.logging:transaction.py:67 Adding transaction 0
DEBUG   2025-08-29 15:05:10,767  pymodbus.logging:transaction.py:78 Getting transaction 0
DEBUG   2025-08-29 15:05:10,767  pymodbus.logging:transaction.py:258 Changing transaction state from "PROCESSING REPLY" to "TRANSACTION_COMPLETE"
INFO    2025-08-29 15:05:10,767  root:modbus_rtu_tcp.py:44 read_measurement ret is:ReadHoldingRegistersResponse (2)
INFO    2025-08-29 15:05:10,767  root:acudc260_modbus_get.py:159 read i2_current ret is:[16076, 25411]
DEBUG   2025-08-29 15:05:10,767  pymodbus.logging:transaction.py:184 Current transaction state - TRANSACTION_COMPLETE
DEBUG   2025-08-29 15:05:10,767  pymodbus.logging:transaction.py:193 Running transaction 0
DEBUG   2025-08-29 15:05:10,767  pymodbus.logging:transaction.py:293 SEND: 0x1 0x3 0x30 0x6 0x0 0x2 0x2b 0xa
DEBUG   2025-08-29 15:05:10,767  pymodbus.logging:serial.py:271 Changing state to IDLE - Last Frame End - 1756451110.767836 Current Time stamp - 1756451110.767836
DEBUG   2025-08-29 15:05:10,768  pymodbus.logging:serial.py:279 Waiting for 3.5 char before next send - 1.823 ms
DEBUG   2025-08-29 15:05:10,770  pymodbus.logging:base.py:250 New Transaction state "SENDING"
DEBUG   2025-08-29 15:05:10,770  pymodbus.logging:transaction.py:317 Changing transaction state from "SENDING" to "WAITING FOR REPLY"
DEBUG   2025-08-29 15:05:10,800  pymodbus.logging:transaction.py:419 Changing transaction state from "WAITING FOR REPLY" to "PROCESSING REPLY"
DEBUG   2025-08-29 15:05:10,800  pymodbus.logging:transaction.py:324 RECV: 0x1 0x3 0x4 0x3f 0x4e 0xb1 0x70 0xe3 0x84
DEBUG   2025-08-29 15:05:10,800  pymodbus.logging:base.py:92 Processing: 0x1 0x3 0x4 0x3f 0x4e 0xb1 0x70 0xe3 0x84
DEBUG   2025-08-29 15:05:10,800  pymodbus.logging:decoders.py:103 decode PDU for 3
DEBUG   2025-08-29 15:05:10,800  pymodbus.logging:base.py:102 Frame advanced, resetting header!!
DEBUG   2025-08-29 15:05:10,800  pymodbus.logging:transaction.py:67 Adding transaction 0
DEBUG   2025-08-29 15:05:10,800  pymodbus.logging:transaction.py:78 Getting transaction 0
DEBUG   2025-08-29 15:05:10,800  pymodbus.logging:transaction.py:258 Changing transaction state from "PROCESSING REPLY" to "TRANSACTION_COMPLETE"
INFO    2025-08-29 15:05:10,800  root:modbus_rtu_tcp.py:44 read_measurement ret is:ReadHoldingRegistersResponse (2)
INFO    2025-08-29 15:05:10,800  root:acudc260_modbus_get.py:173 read i_sum_current ret is:[16206, 45424]
DEBUG   2025-08-29 15:05:10,800  pymodbus.logging:transaction.py:184 Current transaction state - TRANSACTION_COMPLETE
DEBUG   2025-08-29 15:05:10,800  pymodbus.logging:transaction.py:193 Running transaction 0
DEBUG   2025-08-29 15:05:10,800  pymodbus.logging:transaction.py:293 SEND: 0x1 0x3 0x30 0x8 0x0 0x2 0x4a 0xc9
DEBUG   2025-08-29 15:05:10,800  pymodbus.logging:serial.py:271 Changing state to IDLE - Last Frame End - 1756451110.800844 Current Time stamp - 1756451110.800844
DEBUG   2025-08-29 15:05:10,800  pymodbus.logging:serial.py:279 Waiting for 3.5 char before next send - 1.823 ms
DEBUG   2025-08-29 15:05:10,803  pymodbus.logging:base.py:250 New Transaction state "SENDING"
DEBUG   2025-08-29 15:05:10,803  pymodbus.logging:transaction.py:317 Changing transaction state from "SENDING" to "WAITING FOR REPLY"
DEBUG   2025-08-29 15:05:10,831  pymodbus.logging:transaction.py:419 Changing transaction state from "WAITING FOR REPLY" to "PROCESSING REPLY"
DEBUG   2025-08-29 15:05:10,831  pymodbus.logging:transaction.py:324 RECV: 0x1 0x3 0x4 0x3c 0xc5 0x9e 0xc8 0x8f 0xa8
DEBUG   2025-08-29 15:05:10,831  pymodbus.logging:base.py:92 Processing: 0x1 0x3 0x4 0x3c 0xc5 0x9e 0xc8 0x8f 0xa8
DEBUG   2025-08-29 15:05:10,831  pymodbus.logging:decoders.py:103 decode PDU for 3
DEBUG   2025-08-29 15:05:10,831  pymodbus.logging:base.py:102 Frame advanced, resetting header!!
DEBUG   2025-08-29 15:05:10,831  pymodbus.logging:transaction.py:67 Adding transaction 0
DEBUG   2025-08-29 15:05:10,831  pymodbus.logging:transaction.py:78 Getting transaction 0
DEBUG   2025-08-29 15:05:10,831  pymodbus.logging:transaction.py:258 Changing transaction state from "PROCESSING REPLY" to "TRANSACTION_COMPLETE"
INFO    2025-08-29 15:05:10,831  root:modbus_rtu_tcp.py:44 read_measurement ret is:ReadHoldingRegistersResponse (2)
INFO    2025-08-29 15:05:10,831  root:acudc260_modbus_get.py:187 read p1_power ret is:[15557, 40648]
DEBUG   2025-08-29 15:05:10,831  pymodbus.logging:transaction.py:184 Current transaction state - TRANSACTION_COMPLETE
DEBUG   2025-08-29 15:05:10,831  pymodbus.logging:transaction.py:193 Running transaction 0
DEBUG   2025-08-29 15:05:10,831  pymodbus.logging:transaction.py:293 SEND: 0x1 0x3 0x30 0xa 0x0 0x2 0xeb 0x9
DEBUG   2025-08-29 15:05:10,831  pymodbus.logging:serial.py:271 Changing state to IDLE - Last Frame End - 1756451110.831786 Current Time stamp - 1756451110.831786
DEBUG   2025-08-29 15:05:10,831  pymodbus.logging:serial.py:279 Waiting for 3.5 char before next send - 1.823 ms
DEBUG   2025-08-29 15:05:10,834  pymodbus.logging:base.py:250 New Transaction state "SENDING"
DEBUG   2025-08-29 15:05:10,834  pymodbus.logging:transaction.py:317 Changing transaction state from "SENDING" to "WAITING FOR REPLY"
DEBUG   2025-08-29 15:05:10,863  pymodbus.logging:transaction.py:419 Changing transaction state from "WAITING FOR REPLY" to "PROCESSING REPLY"
DEBUG   2025-08-29 15:05:10,863  pymodbus.logging:transaction.py:324 RECV: 0x1 0x3 0x4 0x3c 0xc7 0x44 0x82 0xf4 0xff
DEBUG   2025-08-29 15:05:10,863  pymodbus.logging:base.py:92 Processing: 0x1 0x3 0x4 0x3c 0xc7 0x44 0x82 0xf4 0xff
DEBUG   2025-08-29 15:05:10,863  pymodbus.logging:decoders.py:103 decode PDU for 3
DEBUG   2025-08-29 15:05:10,863  pymodbus.logging:base.py:102 Frame advanced, resetting header!!
DEBUG   2025-08-29 15:05:10,863  pymodbus.logging:transaction.py:67 Adding transaction 0
DEBUG   2025-08-29 15:05:10,863  pymodbus.logging:transaction.py:78 Getting transaction 0
DEBUG   2025-08-29 15:05:10,863  pymodbus.logging:transaction.py:258 Changing transaction state from "PROCESSING REPLY" to "TRANSACTION_COMPLETE"
INFO    2025-08-29 15:05:10,863  root:modbus_rtu_tcp.py:44 read_measurement ret is:ReadHoldingRegistersResponse (2)
INFO    2025-08-29 15:05:10,863  root:acudc260_modbus_get.py:201 read p2_power ret is:[15559, 17538]
DEBUG   2025-08-29 15:05:10,863  pymodbus.logging:transaction.py:184 Current transaction state - TRANSACTION_COMPLETE
DEBUG   2025-08-29 15:05:10,863  pymodbus.logging:transaction.py:193 Running transaction 0
DEBUG   2025-08-29 15:05:10,863  pymodbus.logging:transaction.py:293 SEND: 0x1 0x3 0x30 0xc 0x0 0x2 0xb 0x8
DEBUG   2025-08-29 15:05:10,863  pymodbus.logging:serial.py:271 Changing state to IDLE - Last Frame End - 1756451110.863248 Current Time stamp - 1756451110.863248
DEBUG   2025-08-29 15:05:10,863  pymodbus.logging:serial.py:279 Waiting for 3.5 char before next send - 1.823 ms
DEBUG   2025-08-29 15:05:10,866  pymodbus.logging:base.py:250 New Transaction state "SENDING"
DEBUG   2025-08-29 15:05:10,866  pymodbus.logging:transaction.py:317 Changing transaction state from "SENDING" to "WAITING FOR REPLY"
DEBUG   2025-08-29 15:05:10,894  pymodbus.logging:transaction.py:419 Changing transaction state from "WAITING FOR REPLY" to "PROCESSING REPLY"
DEBUG   2025-08-29 15:05:10,894  pymodbus.logging:transaction.py:324 RECV: 0x1 0x3 0x4 0x3d 0x43 0xc1 0xb3 0x16 0x6e
DEBUG   2025-08-29 15:05:10,894  pymodbus.logging:base.py:92 Processing: 0x1 0x3 0x4 0x3d 0x43 0xc1 0xb3 0x16 0x6e
DEBUG   2025-08-29 15:05:10,894  pymodbus.logging:decoders.py:103 decode PDU for 3
DEBUG   2025-08-29 15:05:10,894  pymodbus.logging:base.py:102 Frame advanced, resetting header!!
DEBUG   2025-08-29 15:05:10,894  pymodbus.logging:transaction.py:67 Adding transaction 0
DEBUG   2025-08-29 15:05:10,894  pymodbus.logging:transaction.py:78 Getting transaction 0
DEBUG   2025-08-29 15:05:10,894  pymodbus.logging:transaction.py:258 Changing transaction state from "PROCESSING REPLY" to "TRANSACTION_COMPLETE"
INFO    2025-08-29 15:05:10,894  root:modbus_rtu_tcp.py:44 read_measurement ret is:ReadHoldingRegistersResponse (2)
INFO    2025-08-29 15:05:10,894  root:acudc260_modbus_get.py:215 read p_sum_power ret is:[15683, 49587]
DEBUG   2025-08-29 15:05:10,995  pymodbus.logging:transaction.py:184 Current transaction state - TRANSACTION_COMPLETE
DEBUG   2025-08-29 15:05:10,995  pymodbus.logging:transaction.py:193 Running transaction 0
DEBUG   2025-08-29 15:05:10,995  pymodbus.logging:transaction.py:293 SEND: 0x1 0x3 0x30 0x0 0x0 0x2 0xcb 0xb
DEBUG   2025-08-29 15:05:10,995  pymodbus.logging:serial.py:271 Changing state to IDLE - Last Frame End - 1756451110.894968 Current Time stamp - 1756451110.995935
DEBUG   2025-08-29 15:05:10,995  pymodbus.logging:base.py:250 New Transaction state "SENDING"
DEBUG   2025-08-29 15:05:10,995  pymodbus.logging:transaction.py:317 Changing transaction state from "SENDING" to "WAITING FOR REPLY"
DEBUG   2025-08-29 15:05:11,022  pymodbus.logging:transaction.py:419 Changing transaction state from "WAITING FOR REPLY" to "PROCESSING REPLY"
DEBUG   2025-08-29 15:05:11,022  pymodbus.logging:transaction.py:324 RECV: 0x1 0x3 0x4 0x42 0x70 0x3 0x3f 0xaf 0x70
DEBUG   2025-08-29 15:05:11,022  pymodbus.logging:base.py:92 Processing: 0x1 0x3 0x4 0x42 0x70 0x3 0x3f 0xaf 0x70
DEBUG   2025-08-29 15:05:11,022  pymodbus.logging:decoders.py:103 decode PDU for 3
DEBUG   2025-08-29 15:05:11,022  pymodbus.logging:base.py:102 Frame advanced, resetting header!!
DEBUG   2025-08-29 15:05:11,022  pymodbus.logging:transaction.py:67 Adding transaction 0
DEBUG   2025-08-29 15:05:11,022  pymodbus.logging:transaction.py:78 Getting transaction 0
DEBUG   2025-08-29 15:05:11,022  pymodbus.logging:transaction.py:258 Changing transaction state from "PROCESSING REPLY" to "TRANSACTION_COMPLETE"
INFO    2025-08-29 15:05:11,022  root:modbus_rtu_tcp.py:44 read_measurement ret is:ReadHoldingRegistersResponse (2)
INFO    2025-08-29 15:05:11,022  root:acudc260_modbus_get.py:131 read u_voltage ret is:[17008, 831]
DEBUG   2025-08-29 15:05:11,022  pymodbus.logging:transaction.py:184 Current transaction state - TRANSACTION_COMPLETE
DEBUG   2025-08-29 15:05:11,023  pymodbus.logging:transaction.py:193 Running transaction 0
DEBUG   2025-08-29 15:05:11,023  pymodbus.logging:transaction.py:293 SEND: 0x1 0x3 0x30 0x2 0x0 0x2 0x6a 0xcb
DEBUG   2025-08-29 15:05:11,023  pymodbus.logging:serial.py:271 Changing state to IDLE - Last Frame End - 1756451111.022676 Current Time stamp - 1756451111.023704
DEBUG   2025-08-29 15:05:11,023  pymodbus.logging:serial.py:279 Waiting for 3.5 char before next send - 1.823 ms
DEBUG   2025-08-29 15:05:11,026  pymodbus.logging:base.py:250 New Transaction state "SENDING"
DEBUG   2025-08-29 15:05:11,026  pymodbus.logging:transaction.py:317 Changing transaction state from "SENDING" to "WAITING FOR REPLY"
DEBUG   2025-08-29 15:05:11,054  pymodbus.logging:transaction.py:419 Changing transaction state from "WAITING FOR REPLY" to "PROCESSING REPLY"
DEBUG   2025-08-29 15:05:11,054  pymodbus.logging:transaction.py:324 RECV: 0x1 0x3 0x4 0x3e 0xd0 0xec 0xa 0x3a 0xe5
DEBUG   2025-08-29 15:05:11,054  pymodbus.logging:base.py:92 Processing: 0x1 0x3 0x4 0x3e 0xd0 0xec 0xa 0x3a 0xe5
DEBUG   2025-08-29 15:05:11,054  pymodbus.logging:decoders.py:103 decode PDU for 3
DEBUG   2025-08-29 15:05:11,054  pymodbus.logging:base.py:102 Frame advanced, resetting header!!
DEBUG   2025-08-29 15:05:11,054  pymodbus.logging:transaction.py:67 Adding transaction 0
DEBUG   2025-08-29 15:05:11,054  pymodbus.logging:transaction.py:78 Getting transaction 0
DEBUG   2025-08-29 15:05:11,054  pymodbus.logging:transaction.py:258 Changing transaction state from "PROCESSING REPLY" to "TRANSACTION_COMPLETE"
INFO    2025-08-29 15:05:11,054  root:modbus_rtu_tcp.py:44 read_measurement ret is:ReadHoldingRegistersResponse (2)
INFO    2025-08-29 15:05:11,054  root:acudc260_modbus_get.py:145 read i1_current ret is:[16080, 60426]
DEBUG   2025-08-29 15:05:11,054  pymodbus.logging:transaction.py:184 Current transaction state - TRANSACTION_COMPLETE
DEBUG   2025-08-29 15:05:11,054  pymodbus.logging:transaction.py:193 Running transaction 0
DEBUG   2025-08-29 15:05:11,054  pymodbus.logging:transaction.py:293 SEND: 0x1 0x3 0x30 0x4 0x0 0x2 0x8a 0xca
DEBUG   2025-08-29 15:05:11,054  pymodbus.logging:serial.py:271 Changing state to IDLE - Last Frame End - 1756451111.054373 Current Time stamp - 1756451111.054373
DEBUG   2025-08-29 15:05:11,054  pymodbus.logging:serial.py:279 Waiting for 3.5 char before next send - 1.823 ms
DEBUG   2025-08-29 15:05:11,057  pymodbus.logging:base.py:250 New Transaction state "SENDING"
DEBUG   2025-08-29 15:05:11,057  pymodbus.logging:transaction.py:317 Changing transaction state from "SENDING" to "WAITING FOR REPLY"
DEBUG   2025-08-29 15:05:11,088  pymodbus.logging:transaction.py:419 Changing transaction state from "WAITING FOR REPLY" to "PROCESSING REPLY"
DEBUG   2025-08-29 15:05:11,088  pymodbus.logging:transaction.py:324 RECV: 0x1 0x3 0x4 0x3e 0xcd 0x71 0xad 0x83 0xc9
DEBUG   2025-08-29 15:05:11,088  pymodbus.logging:base.py:92 Processing: 0x1 0x3 0x4 0x3e 0xcd 0x71 0xad 0x83 0xc9
DEBUG   2025-08-29 15:05:11,088  pymodbus.logging:decoders.py:103 decode PDU for 3
DEBUG   2025-08-29 15:05:11,088  pymodbus.logging:base.py:102 Frame advanced, resetting header!!
DEBUG   2025-08-29 15:05:11,088  pymodbus.logging:transaction.py:67 Adding transaction 0
DEBUG   2025-08-29 15:05:11,088  pymodbus.logging:transaction.py:78 Getting transaction 0
DEBUG   2025-08-29 15:05:11,088  pymodbus.logging:transaction.py:258 Changing transaction state from "PROCESSING REPLY" to "TRANSACTION_COMPLETE"
INFO    2025-08-29 15:05:11,088  root:modbus_rtu_tcp.py:44 read_measurement ret is:ReadHoldingRegistersResponse (2)
INFO    2025-08-29 15:05:11,088  root:acudc260_modbus_get.py:159 read i2_current ret is:[16077, 29101]
DEBUG   2025-08-29 15:05:11,088  pymodbus.logging:transaction.py:184 Current transaction state - TRANSACTION_COMPLETE
DEBUG   2025-08-29 15:05:11,088  pymodbus.logging:transaction.py:193 Running transaction 0
DEBUG   2025-08-29 15:05:11,088  pymodbus.logging:transaction.py:293 SEND: 0x1 0x3 0x30 0x6 0x0 0x2 0x2b 0xa
DEBUG   2025-08-29 15:05:11,089  pymodbus.logging:serial.py:271 Changing state to IDLE - Last Frame End - 1756451111.088063 Current Time stamp - 1756451111.089168
DEBUG   2025-08-29 15:05:11,089  pymodbus.logging:serial.py:279 Waiting for 3.5 char before next send - 1.823 ms
DEBUG   2025-08-29 15:05:11,091  pymodbus.logging:base.py:250 New Transaction state "SENDING"
DEBUG   2025-08-29 15:05:11,091  pymodbus.logging:transaction.py:317 Changing transaction state from "SENDING" to "WAITING FOR REPLY"
DEBUG   2025-08-29 15:05:11,120  pymodbus.logging:transaction.py:419 Changing transaction state from "WAITING FOR REPLY" to "PROCESSING REPLY"
DEBUG   2025-08-29 15:05:11,120  pymodbus.logging:transaction.py:324 RECV: 0x1 0x3 0x4 0x3f 0x51 0xb5 0xc5 0x11 0x35
DEBUG   2025-08-29 15:05:11,120  pymodbus.logging:base.py:92 Processing: 0x1 0x3 0x4 0x3f 0x51 0xb5 0xc5 0x11 0x35
DEBUG   2025-08-29 15:05:11,120  pymodbus.logging:decoders.py:103 decode PDU for 3
DEBUG   2025-08-29 15:05:11,120  pymodbus.logging:base.py:102 Frame advanced, resetting header!!
DEBUG   2025-08-29 15:05:11,120  pymodbus.logging:transaction.py:67 Adding transaction 0
DEBUG   2025-08-29 15:05:11,120  pymodbus.logging:transaction.py:78 Getting transaction 0
DEBUG   2025-08-29 15:05:11,120  pymodbus.logging:transaction.py:258 Changing transaction state from "PROCESSING REPLY" to "TRANSACTION_COMPLETE"
INFO    2025-08-29 15:05:11,120  root:modbus_rtu_tcp.py:44 read_measurement ret is:ReadHoldingRegistersResponse (2)
INFO    2025-08-29 15:05:11,120  root:acudc260_modbus_get.py:173 read i_sum_current ret is:[16209, 46533]
DEBUG   2025-08-29 15:05:11,120  pymodbus.logging:transaction.py:184 Current transaction state - TRANSACTION_COMPLETE
DEBUG   2025-08-29 15:05:11,120  pymodbus.logging:transaction.py:193 Running transaction 0
DEBUG   2025-08-29 15:05:11,120  pymodbus.logging:transaction.py:293 SEND: 0x1 0x3 0x30 0x8 0x0 0x2 0x4a 0xc9
DEBUG   2025-08-29 15:05:11,120  pymodbus.logging:serial.py:271 Changing state to IDLE - Last Frame End - 1756451111.120793 Current Time stamp - 1756451111.120793
DEBUG   2025-08-29 15:05:11,121  pymodbus.logging:serial.py:279 Waiting for 3.5 char before next send - 1.823 ms
DEBUG   2025-08-29 15:05:11,123  pymodbus.logging:base.py:250 New Transaction state "SENDING"
DEBUG   2025-08-29 15:05:11,123  pymodbus.logging:transaction.py:317 Changing transaction state from "SENDING" to "WAITING FOR REPLY"
DEBUG   2025-08-29 15:05:11,150  pymodbus.logging:transaction.py:419 Changing transaction state from "WAITING FOR REPLY" to "PROCESSING REPLY"
DEBUG   2025-08-29 15:05:11,150  pymodbus.logging:transaction.py:324 RECV: 0x1 0x3 0x4 0x3c 0xcd 0x7a 0x41 0x84 0xcc
DEBUG   2025-08-29 15:05:11,150  pymodbus.logging:base.py:92 Processing: 0x1 0x3 0x4 0x3c 0xcd 0x7a 0x41 0x84 0xcc
DEBUG   2025-08-29 15:05:11,150  pymodbus.logging:decoders.py:103 decode PDU for 3
DEBUG   2025-08-29 15:05:11,150  pymodbus.logging:base.py:102 Frame advanced, resetting header!!
DEBUG   2025-08-29 15:05:11,150  pymodbus.logging:transaction.py:67 Adding transaction 0
DEBUG   2025-08-29 15:05:11,150  pymodbus.logging:transaction.py:78 Getting transaction 0
DEBUG   2025-08-29 15:05:11,150  pymodbus.logging:transaction.py:258 Changing transaction state from "PROCESSING REPLY" to "TRANSACTION_COMPLETE"
INFO    2025-08-29 15:05:11,150  root:modbus_rtu_tcp.py:44 read_measurement ret is:ReadHoldingRegistersResponse (2)
INFO    2025-08-29 15:05:11,150  root:acudc260_modbus_get.py:187 read p1_power ret is:[15565, 31297]
DEBUG   2025-08-29 15:05:11,150  pymodbus.logging:transaction.py:184 Current transaction state - TRANSACTION_COMPLETE
DEBUG   2025-08-29 15:05:11,150  pymodbus.logging:transaction.py:193 Running transaction 0
DEBUG   2025-08-29 15:05:11,150  pymodbus.logging:transaction.py:293 SEND: 0x1 0x3 0x30 0xa 0x0 0x2 0xeb 0x9
DEBUG   2025-08-29 15:05:11,150  pymodbus.logging:serial.py:271 Changing state to IDLE - Last Frame End - 1756451111.150681 Current Time stamp - 1756451111.150681
DEBUG   2025-08-29 15:05:11,151  pymodbus.logging:serial.py:279 Waiting for 3.5 char before next send - 1.823 ms
DEBUG   2025-08-29 15:05:11,153  pymodbus.logging:base.py:250 New Transaction state "SENDING"
DEBUG   2025-08-29 15:05:11,153  pymodbus.logging:transaction.py:317 Changing transaction state from "SENDING" to "WAITING FOR REPLY"
DEBUG   2025-08-29 15:05:11,182  pymodbus.logging:transaction.py:419 Changing transaction state from "WAITING FOR REPLY" to "PROCESSING REPLY"
DEBUG   2025-08-29 15:05:11,182  pymodbus.logging:transaction.py:324 RECV: 0x1 0x3 0x4 0x3c 0xbe 0xfa 0xf8 0xd5 0x65
DEBUG   2025-08-29 15:05:11,182  pymodbus.logging:base.py:92 Processing: 0x1 0x3 0x4 0x3c 0xbe 0xfa 0xf8 0xd5 0x65
DEBUG   2025-08-29 15:05:11,182  pymodbus.logging:decoders.py:103 decode PDU for 3
DEBUG   2025-08-29 15:05:11,182  pymodbus.logging:base.py:102 Frame advanced, resetting header!!
DEBUG   2025-08-29 15:05:11,182  pymodbus.logging:transaction.py:67 Adding transaction 0
DEBUG   2025-08-29 15:05:11,182  pymodbus.logging:transaction.py:78 Getting transaction 0
DEBUG   2025-08-29 15:05:11,182  pymodbus.logging:transaction.py:258 Changing transaction state from "PROCESSING REPLY" to "TRANSACTION_COMPLETE"
INFO    2025-08-29 15:05:11,182  root:modbus_rtu_tcp.py:44 read_measurement ret is:ReadHoldingRegistersResponse (2)
INFO    2025-08-29 15:05:11,182  root:acudc260_modbus_get.py:201 read p2_power ret is:[15550, 64248]
DEBUG   2025-08-29 15:05:11,182  pymodbus.logging:transaction.py:184 Current transaction state - TRANSACTION_COMPLETE
DEBUG   2025-08-29 15:05:11,182  pymodbus.logging:transaction.py:193 Running transaction 0
DEBUG   2025-08-29 15:05:11,182  pymodbus.logging:transaction.py:293 SEND: 0x1 0x3 0x30 0xc 0x0 0x2 0xb 0x8
DEBUG   2025-08-29 15:05:11,182  pymodbus.logging:serial.py:271 Changing state to IDLE - Last Frame End - 1756451111.18277 Current Time stamp - 1756451111.18277
DEBUG   2025-08-29 15:05:11,182  pymodbus.logging:serial.py:279 Waiting for 3.5 char before next send - 1.823 ms
DEBUG   2025-08-29 15:05:11,185  pymodbus.logging:base.py:250 New Transaction state "SENDING"
DEBUG   2025-08-29 15:05:11,185  pymodbus.logging:transaction.py:317 Changing transaction state from "SENDING" to "WAITING FOR REPLY"
DEBUG   2025-08-29 15:05:11,214  pymodbus.logging:transaction.py:419 Changing transaction state from "WAITING FOR REPLY" to "PROCESSING REPLY"
DEBUG   2025-08-29 15:05:11,214  pymodbus.logging:transaction.py:324 RECV: 0x1 0x3 0x4 0x3d 0x45 0xd3 0x59 0x7b 0x40
DEBUG   2025-08-29 15:05:11,214  pymodbus.logging:base.py:92 Processing: 0x1 0x3 0x4 0x3d 0x45 0xd3 0x59 0x7b 0x40
DEBUG   2025-08-29 15:05:11,214  pymodbus.logging:decoders.py:103 decode PDU for 3
DEBUG   2025-08-29 15:05:11,214  pymodbus.logging:base.py:102 Frame advanced, resetting header!!
DEBUG   2025-08-29 15:05:11,214  pymodbus.logging:transaction.py:67 Adding transaction 0
DEBUG   2025-08-29 15:05:11,214  pymodbus.logging:transaction.py:78 Getting transaction 0
DEBUG   2025-08-29 15:05:11,214  pymodbus.logging:transaction.py:258 Changing transaction state from "PROCESSING REPLY" to "TRANSACTION_COMPLETE"
INFO    2025-08-29 15:05:11,214  root:modbus_rtu_tcp.py:44 read_measurement ret is:ReadHoldingRegistersResponse (2)
INFO    2025-08-29 15:05:11,214  root:acudc260_modbus_get.py:215 read p_sum_power ret is:[15685, 54105]
DEBUG   2025-08-29 15:05:11,315  pymodbus.logging:transaction.py:184 Current transaction state - TRANSACTION_COMPLETE
DEBUG   2025-08-29 15:05:11,315  pymodbus.logging:transaction.py:193 Running transaction 0
DEBUG   2025-08-29 15:05:11,315  pymodbus.logging:transaction.py:293 SEND: 0x1 0x3 0x30 0x0 0x0 0x2 0xcb 0xb
DEBUG   2025-08-29 15:05:11,315  pymodbus.logging:serial.py:271 Changing state to IDLE - Last Frame End - 1756451111.21453 Current Time stamp - 1756451111.315681
DEBUG   2025-08-29 15:05:11,315  pymodbus.logging:base.py:250 New Transaction state "SENDING"
DEBUG   2025-08-29 15:05:11,315  pymodbus.logging:transaction.py:317 Changing transaction state from "SENDING" to "WAITING FOR REPLY"
DEBUG   2025-08-29 15:05:11,343  pymodbus.logging:transaction.py:419 Changing transaction state from "WAITING FOR REPLY" to "PROCESSING REPLY"
DEBUG   2025-08-29 15:05:11,343  pymodbus.logging:transaction.py:324 RECV: 0x1 0x3 0x4 0x42 0x70 0x2 0x4f 0xaf 0x4
DEBUG   2025-08-29 15:05:11,343  pymodbus.logging:base.py:92 Processing: 0x1 0x3 0x4 0x42 0x70 0x2 0x4f 0xaf 0x4
DEBUG   2025-08-29 15:05:11,343  pymodbus.logging:decoders.py:103 decode PDU for 3
DEBUG   2025-08-29 15:05:11,344  pymodbus.logging:base.py:102 Frame advanced, resetting header!!
DEBUG   2025-08-29 15:05:11,344  pymodbus.logging:transaction.py:67 Adding transaction 0
DEBUG   2025-08-29 15:05:11,344  pymodbus.logging:transaction.py:78 Getting transaction 0
DEBUG   2025-08-29 15:05:11,344  pymodbus.logging:transaction.py:258 Changing transaction state from "PROCESSING REPLY" to "TRANSACTION_COMPLETE"
INFO    2025-08-29 15:05:11,344  root:modbus_rtu_tcp.py:44 read_measurement ret is:ReadHoldingRegistersResponse (2)
INFO    2025-08-29 15:05:11,344  root:acudc260_modbus_get.py:131 read u_voltage ret is:[17008, 591]
DEBUG   2025-08-29 15:05:11,344  pymodbus.logging:transaction.py:184 Current transaction state - TRANSACTION_COMPLETE
DEBUG   2025-08-29 15:05:11,344  pymodbus.logging:transaction.py:193 Running transaction 0
DEBUG   2025-08-29 15:05:11,344  pymodbus.logging:transaction.py:293 SEND: 0x1 0x3 0x30 0x2 0x0 0x2 0x6a 0xcb
DEBUG   2025-08-29 15:05:11,344  pymodbus.logging:serial.py:271 Changing state to IDLE - Last Frame End - 1756451111.343616 Current Time stamp - 1756451111.344221
DEBUG   2025-08-29 15:05:11,344  pymodbus.logging:serial.py:279 Waiting for 3.5 char before next send - 1.823 ms
DEBUG   2025-08-29 15:05:11,346  pymodbus.logging:base.py:250 New Transaction state "SENDING"
DEBUG   2025-08-29 15:05:11,346  pymodbus.logging:transaction.py:317 Changing transaction state from "SENDING" to "WAITING FOR REPLY"
DEBUG   2025-08-29 15:05:11,375  pymodbus.logging:transaction.py:419 Changing transaction state from "WAITING FOR REPLY" to "PROCESSING REPLY"
DEBUG   2025-08-29 15:05:11,375  pymodbus.logging:transaction.py:324 RECV: 0x1 0x3 0x4 0x3e 0xd7 0x57 0xc6 0xf9 0x81
DEBUG   2025-08-29 15:05:11,375  pymodbus.logging:base.py:92 Processing: 0x1 0x3 0x4 0x3e 0xd7 0x57 0xc6 0xf9 0x81
DEBUG   2025-08-29 15:05:11,375  pymodbus.logging:decoders.py:103 decode PDU for 3
DEBUG   2025-08-29 15:05:11,375  pymodbus.logging:base.py:102 Frame advanced, resetting header!!
DEBUG   2025-08-29 15:05:11,375  pymodbus.logging:transaction.py:67 Adding transaction 0
DEBUG   2025-08-29 15:05:11,375  pymodbus.logging:transaction.py:78 Getting transaction 0
DEBUG   2025-08-29 15:05:11,375  pymodbus.logging:transaction.py:258 Changing transaction state from "PROCESSING REPLY" to "TRANSACTION_COMPLETE"
INFO    2025-08-29 15:05:11,375  root:modbus_rtu_tcp.py:44 read_measurement ret is:ReadHoldingRegistersResponse (2)
INFO    2025-08-29 15:05:11,375  root:acudc260_modbus_get.py:145 read i1_current ret is:[16087, 22470]
DEBUG   2025-08-29 15:05:11,375  pymodbus.logging:transaction.py:184 Current transaction state - TRANSACTION_COMPLETE
DEBUG   2025-08-29 15:05:11,375  pymodbus.logging:transaction.py:193 Running transaction 0
DEBUG   2025-08-29 15:05:11,375  pymodbus.logging:transaction.py:293 SEND: 0x1 0x3 0x30 0x4 0x0 0x2 0x8a 0xca
DEBUG   2025-08-29 15:05:11,375  pymodbus.logging:serial.py:271 Changing state to IDLE - Last Frame End - 1756451111.375903 Current Time stamp - 1756451111.375903
DEBUG   2025-08-29 15:05:11,377  pymodbus.logging:serial.py:279 Waiting for 3.5 char before next send - 1.823 ms
DEBUG   2025-08-29 15:05:11,379  pymodbus.logging:base.py:250 New Transaction state "SENDING"
DEBUG   2025-08-29 15:05:11,379  pymodbus.logging:transaction.py:317 Changing transaction state from "SENDING" to "WAITING FOR REPLY"
DEBUG   2025-08-29 15:05:11,406  pymodbus.logging:transaction.py:419 Changing transaction state from "WAITING FOR REPLY" to "PROCESSING REPLY"
DEBUG   2025-08-29 15:05:11,406  pymodbus.logging:transaction.py:324 RECV: 0x1 0x3 0x4 0x3e 0xd2 0x5d 0x4d 0xaf 0x47
DEBUG   2025-08-29 15:05:11,406  pymodbus.logging:base.py:92 Processing: 0x1 0x3 0x4 0x3e 0xd2 0x5d 0x4d 0xaf 0x47
DEBUG   2025-08-29 15:05:11,406  pymodbus.logging:decoders.py:103 decode PDU for 3
DEBUG   2025-08-29 15:05:11,406  pymodbus.logging:base.py:102 Frame advanced, resetting header!!
DEBUG   2025-08-29 15:05:11,406  pymodbus.logging:transaction.py:67 Adding transaction 0
DEBUG   2025-08-29 15:05:11,406  pymodbus.logging:transaction.py:78 Getting transaction 0
DEBUG   2025-08-29 15:05:11,406  pymodbus.logging:transaction.py:258 Changing transaction state from "PROCESSING REPLY" to "TRANSACTION_COMPLETE"
INFO    2025-08-29 15:05:11,406  root:modbus_rtu_tcp.py:44 read_measurement ret is:ReadHoldingRegistersResponse (2)
INFO    2025-08-29 15:05:11,406  root:acudc260_modbus_get.py:159 read i2_current ret is:[16082, 23885]
DEBUG   2025-08-29 15:05:11,406  pymodbus.logging:transaction.py:184 Current transaction state - TRANSACTION_COMPLETE
DEBUG   2025-08-29 15:05:11,406  pymodbus.logging:transaction.py:193 Running transaction 0
DEBUG   2025-08-29 15:05:11,406  pymodbus.logging:transaction.py:293 SEND: 0x1 0x3 0x30 0x6 0x0 0x2 0x2b 0xa
DEBUG   2025-08-29 15:05:11,406  pymodbus.logging:serial.py:271 Changing state to IDLE - Last Frame End - 1756451111.406497 Current Time stamp - 1756451111.406497
DEBUG   2025-08-29 15:05:11,407  pymodbus.logging:serial.py:279 Waiting for 3.5 char before next send - 1.823 ms
DEBUG   2025-08-29 15:05:11,409  pymodbus.logging:base.py:250 New Transaction state "SENDING"
DEBUG   2025-08-29 15:05:11,409  pymodbus.logging:transaction.py:317 Changing transaction state from "SENDING" to "WAITING FOR REPLY"
DEBUG   2025-08-29 15:05:11,439  pymodbus.logging:transaction.py:419 Changing transaction state from "WAITING FOR REPLY" to "PROCESSING REPLY"
DEBUG   2025-08-29 15:05:11,439  pymodbus.logging:transaction.py:324 RECV: 0x1 0x3 0x4 0x3f 0x54 0xda 0x8a 0x6d 0x30
DEBUG   2025-08-29 15:05:11,439  pymodbus.logging:base.py:92 Processing: 0x1 0x3 0x4 0x3f 0x54 0xda 0x8a 0x6d 0x30
DEBUG   2025-08-29 15:05:11,439  pymodbus.logging:decoders.py:103 decode PDU for 3
DEBUG   2025-08-29 15:05:11,439  pymodbus.logging:base.py:102 Frame advanced, resetting header!!
DEBUG   2025-08-29 15:05:11,439  pymodbus.logging:transaction.py:67 Adding transaction 0
DEBUG   2025-08-29 15:05:11,439  pymodbus.logging:transaction.py:78 Getting transaction 0
DEBUG   2025-08-29 15:05:11,439  pymodbus.logging:transaction.py:258 Changing transaction state from "PROCESSING REPLY" to "TRANSACTION_COMPLETE"
INFO    2025-08-29 15:05:11,439  root:modbus_rtu_tcp.py:44 read_measurement ret is:ReadHoldingRegistersResponse (2)
INFO    2025-08-29 15:05:11,439  root:acudc260_modbus_get.py:173 read i_sum_current ret is:[16212, 55946]
DEBUG   2025-08-29 15:05:11,439  pymodbus.logging:transaction.py:184 Current transaction state - TRANSACTION_COMPLETE
DEBUG   2025-08-29 15:05:11,439  pymodbus.logging:transaction.py:193 Running transaction 0
DEBUG   2025-08-29 15:05:11,439  pymodbus.logging:transaction.py:293 SEND: 0x1 0x3 0x30 0x8 0x0 0x2 0x4a 0xc9
DEBUG   2025-08-29 15:05:11,439  pymodbus.logging:serial.py:271 Changing state to IDLE - Last Frame End - 1756451111.439972 Current Time stamp - 1756451111.439972
DEBUG   2025-08-29 15:05:11,439  pymodbus.logging:serial.py:279 Waiting for 3.5 char before next send - 1.823 ms
DEBUG   2025-08-29 15:05:11,443  pymodbus.logging:base.py:250 New Transaction state "SENDING"
DEBUG   2025-08-29 15:05:11,443  pymodbus.logging:transaction.py:317 Changing transaction state from "SENDING" to "WAITING FOR REPLY"
DEBUG   2025-08-29 15:05:11,470  pymodbus.logging:transaction.py:419 Changing transaction state from "WAITING FOR REPLY" to "PROCESSING REPLY"
DEBUG   2025-08-29 15:05:11,470  pymodbus.logging:transaction.py:324 RECV: 0x1 0x3 0x4 0x3c 0xce 0xc2 0xcc 0xc6 0xa9
DEBUG   2025-08-29 15:05:11,470  pymodbus.logging:base.py:92 Processing: 0x1 0x3 0x4 0x3c 0xce 0xc2 0xcc 0xc6 0xa9
DEBUG   2025-08-29 15:05:11,470  pymodbus.logging:decoders.py:103 decode PDU for 3
DEBUG   2025-08-29 15:05:11,470  pymodbus.logging:base.py:102 Frame advanced, resetting header!!
DEBUG   2025-08-29 15:05:11,470  pymodbus.logging:transaction.py:67 Adding transaction 0
DEBUG   2025-08-29 15:05:11,470  pymodbus.logging:transaction.py:78 Getting transaction 0
DEBUG   2025-08-29 15:05:11,470  pymodbus.logging:transaction.py:258 Changing transaction state from "PROCESSING REPLY" to "TRANSACTION_COMPLETE"
INFO    2025-08-29 15:05:11,470  root:modbus_rtu_tcp.py:44 read_measurement ret is:ReadHoldingRegistersResponse (2)
INFO    2025-08-29 15:05:11,470  root:acudc260_modbus_get.py:187 read p1_power ret is:[15566, 49868]
DEBUG   2025-08-29 15:05:11,470  pymodbus.logging:transaction.py:184 Current transaction state - TRANSACTION_COMPLETE
DEBUG   2025-08-29 15:05:11,470  pymodbus.logging:transaction.py:193 Running transaction 0
DEBUG   2025-08-29 15:05:11,470  pymodbus.logging:transaction.py:293 SEND: 0x1 0x3 0x30 0xa 0x0 0x2 0xeb 0x9
DEBUG   2025-08-29 15:05:11,470  pymodbus.logging:serial.py:271 Changing state to IDLE - Last Frame End - 1756451111.470819 Current Time stamp - 1756451111.470819
DEBUG   2025-08-29 15:05:11,471  pymodbus.logging:serial.py:279 Waiting for 3.5 char before next send - 1.823 ms
DEBUG   2025-08-29 15:05:11,473  pymodbus.logging:base.py:250 New Transaction state "SENDING"
DEBUG   2025-08-29 15:05:11,473  pymodbus.logging:transaction.py:317 Changing transaction state from "SENDING" to "WAITING FOR REPLY"
DEBUG   2025-08-29 15:05:11,503  pymodbus.logging:transaction.py:419 Changing transaction state from "WAITING FOR REPLY" to "PROCESSING REPLY"
DEBUG   2025-08-29 15:05:11,511  pymodbus.logging:transaction.py:324 RECV: 0x1 0x3 0x4 0x3c 0xc1 0x18 0xd3 0xec 0x2
DEBUG   2025-08-29 15:05:11,511  pymodbus.logging:base.py:92 Processing: 0x1 0x3 0x4 0x3c 0xc1 0x18 0xd3 0xec 0x2
DEBUG   2025-08-29 15:05:11,512  pymodbus.logging:decoders.py:103 decode PDU for 3
DEBUG   2025-08-29 15:05:11,512  pymodbus.logging:base.py:102 Frame advanced, resetting header!!
DEBUG   2025-08-29 15:05:11,512  pymodbus.logging:transaction.py:67 Adding transaction 0
DEBUG   2025-08-29 15:05:11,512  pymodbus.logging:transaction.py:78 Getting transaction 0
DEBUG   2025-08-29 15:05:11,512  pymodbus.logging:transaction.py:258 Changing transaction state from "PROCESSING REPLY" to "TRANSACTION_COMPLETE"
INFO    2025-08-29 15:05:11,512  root:modbus_rtu_tcp.py:44 read_measurement ret is:ReadHoldingRegistersResponse (2)
INFO    2025-08-29 15:05:11,512  root:acudc260_modbus_get.py:201 read p2_power ret is:[15553, 6355]
DEBUG   2025-08-29 15:05:11,512  pymodbus.logging:transaction.py:184 Current transaction state - TRANSACTION_COMPLETE
DEBUG   2025-08-29 15:05:11,512  pymodbus.logging:transaction.py:193 Running transaction 0
DEBUG   2025-08-29 15:05:11,512  pymodbus.logging:transaction.py:293 SEND: 0x1 0x3 0x30 0xc 0x0 0x2 0xb 0x8
DEBUG   2025-08-29 15:05:11,512  pymodbus.logging:serial.py:271 Changing state to IDLE - Last Frame End - 1756451111.503794 Current Time stamp - 1756451111.5121
DEBUG   2025-08-29 15:05:11,512  pymodbus.logging:base.py:250 New Transaction state "SENDING"
DEBUG   2025-08-29 15:05:11,513  pymodbus.logging:transaction.py:317 Changing transaction state from "SENDING" to "WAITING FOR REPLY"
DEBUG   2025-08-29 15:05:11,534  pymodbus.logging:transaction.py:419 Changing transaction state from "WAITING FOR REPLY" to "PROCESSING REPLY"
DEBUG   2025-08-29 15:05:11,534  pymodbus.logging:transaction.py:324 RECV: 0x1 0x3 0x4 0x3d 0x44 0x1f 0x73 0xfe 0x5f
DEBUG   2025-08-29 15:05:11,534  pymodbus.logging:base.py:92 Processing: 0x1 0x3 0x4 0x3d 0x44 0x1f 0x73 0xfe 0x5f
DEBUG   2025-08-29 15:05:11,534  pymodbus.logging:decoders.py:103 decode PDU for 3
DEBUG   2025-08-29 15:05:11,535  pymodbus.logging:base.py:102 Frame advanced, resetting header!!
DEBUG   2025-08-29 15:05:11,535  pymodbus.logging:transaction.py:67 Adding transaction 0
DEBUG   2025-08-29 15:05:11,535  pymodbus.logging:transaction.py:78 Getting transaction 0
DEBUG   2025-08-29 15:05:11,535  pymodbus.logging:transaction.py:258 Changing transaction state from "PROCESSING REPLY" to "TRANSACTION_COMPLETE"
INFO    2025-08-29 15:05:11,535  root:modbus_rtu_tcp.py:44 read_measurement ret is:ReadHoldingRegistersResponse (2)
INFO    2025-08-29 15:05:11,535  root:acudc260_modbus_get.py:215 read p_sum_power ret is:[15684, 8051]
DEBUG   2025-08-29 15:05:11,636  pymodbus.logging:transaction.py:184 Current transaction state - TRANSACTION_COMPLETE
DEBUG   2025-08-29 15:05:11,636  pymodbus.logging:transaction.py:193 Running transaction 0
DEBUG   2025-08-29 15:05:11,636  pymodbus.logging:transaction.py:293 SEND: 0x1 0x3 0x30 0x0 0x0 0x2 0xcb 0xb
DEBUG   2025-08-29 15:05:11,636  pymodbus.logging:serial.py:271 Changing state to IDLE - Last Frame End - 1756451111.534967 Current Time stamp - 1756451111.636215
DEBUG   2025-08-29 15:05:11,636  pymodbus.logging:base.py:250 New Transaction state "SENDING"
DEBUG   2025-08-29 15:05:11,636  pymodbus.logging:transaction.py:317 Changing transaction state from "SENDING" to "WAITING FOR REPLY"
DEBUG   2025-08-29 15:05:11,664  pymodbus.logging:transaction.py:419 Changing transaction state from "WAITING FOR REPLY" to "PROCESSING REPLY"
DEBUG   2025-08-29 15:05:11,664  pymodbus.logging:transaction.py:324 RECV: 0x1 0x3 0x4 0x42 0x70 0x4 0xae 0x6c 0xec
DEBUG   2025-08-29 15:05:11,664  pymodbus.logging:base.py:92 Processing: 0x1 0x3 0x4 0x42 0x70 0x4 0xae 0x6c 0xec
DEBUG   2025-08-29 15:05:11,664  pymodbus.logging:decoders.py:103 decode PDU for 3
DEBUG   2025-08-29 15:05:11,664  pymodbus.logging:base.py:102 Frame advanced, resetting header!!
DEBUG   2025-08-29 15:05:11,664  pymodbus.logging:transaction.py:67 Adding transaction 0
DEBUG   2025-08-29 15:05:11,664  pymodbus.logging:transaction.py:78 Getting transaction 0
DEBUG   2025-08-29 15:05:11,664  pymodbus.logging:transaction.py:258 Changing transaction state from "PROCESSING REPLY" to "TRANSACTION_COMPLETE"
INFO    2025-08-29 15:05:11,664  root:modbus_rtu_tcp.py:44 read_measurement ret is:ReadHoldingRegistersResponse (2)
INFO    2025-08-29 15:05:11,664  root:acudc260_modbus_get.py:131 read u_voltage ret is:[17008, 1198]
DEBUG   2025-08-29 15:05:11,664  pymodbus.logging:transaction.py:184 Current transaction state - TRANSACTION_COMPLETE
DEBUG   2025-08-29 15:05:11,664  pymodbus.logging:transaction.py:193 Running transaction 0
DEBUG   2025-08-29 15:05:11,664  pymodbus.logging:transaction.py:293 SEND: 0x1 0x3 0x30 0x2 0x0 0x2 0x6a 0xcb
DEBUG   2025-08-29 15:05:11,664  pymodbus.logging:serial.py:271 Changing state to IDLE - Last Frame End - 1756451111.664247 Current Time stamp - 1756451111.664901
DEBUG   2025-08-29 15:05:11,664  pymodbus.logging:serial.py:279 Waiting for 3.5 char before next send - 1.823 ms
DEBUG   2025-08-29 15:05:11,667  pymodbus.logging:base.py:250 New Transaction state "SENDING"
DEBUG   2025-08-29 15:05:11,667  pymodbus.logging:transaction.py:317 Changing transaction state from "SENDING" to "WAITING FOR REPLY"
DEBUG   2025-08-29 15:05:11,696  pymodbus.logging:transaction.py:419 Changing transaction state from "WAITING FOR REPLY" to "PROCESSING REPLY"
DEBUG   2025-08-29 15:05:11,696  pymodbus.logging:transaction.py:324 RECV: 0x1 0x3 0x4 0x3e 0xd5 0x51 0x4d 0x1b 0x86
DEBUG   2025-08-29 15:05:11,696  pymodbus.logging:base.py:92 Processing: 0x1 0x3 0x4 0x3e 0xd5 0x51 0x4d 0x1b 0x86
DEBUG   2025-08-29 15:05:11,696  pymodbus.logging:decoders.py:103 decode PDU for 3
DEBUG   2025-08-29 15:05:11,696  pymodbus.logging:base.py:102 Frame advanced, resetting header!!
DEBUG   2025-08-29 15:05:11,696  pymodbus.logging:transaction.py:67 Adding transaction 0
DEBUG   2025-08-29 15:05:11,696  pymodbus.logging:transaction.py:78 Getting transaction 0
DEBUG   2025-08-29 15:05:11,696  pymodbus.logging:transaction.py:258 Changing transaction state from "PROCESSING REPLY" to "TRANSACTION_COMPLETE"
INFO    2025-08-29 15:05:11,696  root:modbus_rtu_tcp.py:44 read_measurement ret is:ReadHoldingRegistersResponse (2)
INFO    2025-08-29 15:05:11,696  root:acudc260_modbus_get.py:145 read i1_current ret is:[16085, 20813]
DEBUG   2025-08-29 15:05:11,696  pymodbus.logging:transaction.py:184 Current transaction state - TRANSACTION_COMPLETE
DEBUG   2025-08-29 15:05:11,696  pymodbus.logging:transaction.py:193 Running transaction 0
DEBUG   2025-08-29 15:05:11,697  pymodbus.logging:transaction.py:293 SEND: 0x1 0x3 0x30 0x4 0x0 0x2 0x8a 0xca
DEBUG   2025-08-29 15:05:11,697  pymodbus.logging:serial.py:271 Changing state to IDLE - Last Frame End - 1756451111.696812 Current Time stamp - 1756451111.697824
DEBUG   2025-08-29 15:05:11,697  pymodbus.logging:serial.py:279 Waiting for 3.5 char before next send - 1.823 ms
DEBUG   2025-08-29 15:05:11,699  pymodbus.logging:base.py:250 New Transaction state "SENDING"
DEBUG   2025-08-29 15:05:11,699  pymodbus.logging:transaction.py:317 Changing transaction state from "SENDING" to "WAITING FOR REPLY"
DEBUG   2025-08-29 15:05:11,727  pymodbus.logging:transaction.py:419 Changing transaction state from "WAITING FOR REPLY" to "PROCESSING REPLY"
DEBUG   2025-08-29 15:05:11,727  pymodbus.logging:transaction.py:324 RECV: 0x1 0x3 0x4 0x3e 0xca 0xe5 0xd0 0x9c 0xe9
DEBUG   2025-08-29 15:05:11,727  pymodbus.logging:base.py:92 Processing: 0x1 0x3 0x4 0x3e 0xca 0xe5 0xd0 0x9c 0xe9
DEBUG   2025-08-29 15:05:11,727  pymodbus.logging:decoders.py:103 decode PDU for 3
DEBUG   2025-08-29 15:05:11,727  pymodbus.logging:base.py:102 Frame advanced, resetting header!!
DEBUG   2025-08-29 15:05:11,727  pymodbus.logging:transaction.py:67 Adding transaction 0
DEBUG   2025-08-29 15:05:11,727  pymodbus.logging:transaction.py:78 Getting transaction 0
DEBUG   2025-08-29 15:05:11,727  pymodbus.logging:transaction.py:258 Changing transaction state from "PROCESSING REPLY" to "TRANSACTION_COMPLETE"
INFO    2025-08-29 15:05:11,727  root:modbus_rtu_tcp.py:44 read_measurement ret is:ReadHoldingRegistersResponse (2)
INFO    2025-08-29 15:05:11,727  root:acudc260_modbus_get.py:159 read i2_current ret is:[16074, 58832]
DEBUG   2025-08-29 15:05:11,727  pymodbus.logging:transaction.py:184 Current transaction state - TRANSACTION_COMPLETE
DEBUG   2025-08-29 15:05:11,727  pymodbus.logging:transaction.py:193 Running transaction 0
DEBUG   2025-08-29 15:05:11,727  pymodbus.logging:transaction.py:293 SEND: 0x1 0x3 0x30 0x6 0x0 0x2 0x2b 0xa
DEBUG   2025-08-29 15:05:11,727  pymodbus.logging:serial.py:271 Changing state to IDLE - Last Frame End - 1756451111.727856 Current Time stamp - 1756451111.727856
DEBUG   2025-08-29 15:05:11,728  pymodbus.logging:serial.py:279 Waiting for 3.5 char before next send - 1.823 ms
DEBUG   2025-08-29 15:05:11,730  pymodbus.logging:base.py:250 New Transaction state "SENDING"
DEBUG   2025-08-29 15:05:11,730  pymodbus.logging:transaction.py:317 Changing transaction state from "SENDING" to "WAITING FOR REPLY"
DEBUG   2025-08-29 15:05:11,759  pymodbus.logging:transaction.py:419 Changing transaction state from "WAITING FOR REPLY" to "PROCESSING REPLY"
DEBUG   2025-08-29 15:05:11,759  pymodbus.logging:transaction.py:324 RECV: 0x1 0x3 0x4 0x3f 0x50 0x1b 0x8e 0x7c 0xa2
DEBUG   2025-08-29 15:05:11,759  pymodbus.logging:base.py:92 Processing: 0x1 0x3 0x4 0x3f 0x50 0x1b 0x8e 0x7c 0xa2
DEBUG   2025-08-29 15:05:11,759  pymodbus.logging:decoders.py:103 decode PDU for 3
DEBUG   2025-08-29 15:05:11,759  pymodbus.logging:base.py:102 Frame advanced, resetting header!!
DEBUG   2025-08-29 15:05:11,759  pymodbus.logging:transaction.py:67 Adding transaction 0
DEBUG   2025-08-29 15:05:11,759  pymodbus.logging:transaction.py:78 Getting transaction 0
DEBUG   2025-08-29 15:05:11,759  pymodbus.logging:transaction.py:258 Changing transaction state from "PROCESSING REPLY" to "TRANSACTION_COMPLETE"
INFO    2025-08-29 15:05:11,759  root:modbus_rtu_tcp.py:44 read_measurement ret is:ReadHoldingRegistersResponse (2)
INFO    2025-08-29 15:05:11,759  root:acudc260_modbus_get.py:173 read i_sum_current ret is:[16208, 7054]
DEBUG   2025-08-29 15:05:11,759  pymodbus.logging:transaction.py:184 Current transaction state - TRANSACTION_COMPLETE
DEBUG   2025-08-29 15:05:11,759  pymodbus.logging:transaction.py:193 Running transaction 0
DEBUG   2025-08-29 15:05:11,759  pymodbus.logging:transaction.py:293 SEND: 0x1 0x3 0x30 0x8 0x0 0x2 0x4a 0xc9
DEBUG   2025-08-29 15:05:11,759  pymodbus.logging:serial.py:271 Changing state to IDLE - Last Frame End - 1756451111.759888 Current Time stamp - 1756451111.759888
DEBUG   2025-08-29 15:05:11,760  pymodbus.logging:serial.py:279 Waiting for 3.5 char before next send - 1.823 ms
DEBUG   2025-08-29 15:05:11,763  pymodbus.logging:base.py:250 New Transaction state "SENDING"
DEBUG   2025-08-29 15:05:11,763  pymodbus.logging:transaction.py:317 Changing transaction state from "SENDING" to "WAITING FOR REPLY"
DEBUG   2025-08-29 15:05:11,792  pymodbus.logging:transaction.py:419 Changing transaction state from "WAITING FOR REPLY" to "PROCESSING REPLY"
DEBUG   2025-08-29 15:05:11,792  pymodbus.logging:transaction.py:324 RECV: 0x1 0x3 0x4 0x3c 0xbf 0x8c 0xf3 0xe3 0x2
DEBUG   2025-08-29 15:05:11,792  pymodbus.logging:base.py:92 Processing: 0x1 0x3 0x4 0x3c 0xbf 0x8c 0xf3 0xe3 0x2
DEBUG   2025-08-29 15:05:11,792  pymodbus.logging:decoders.py:103 decode PDU for 3
DEBUG   2025-08-29 15:05:11,792  pymodbus.logging:base.py:102 Frame advanced, resetting header!!
DEBUG   2025-08-29 15:05:11,792  pymodbus.logging:transaction.py:67 Adding transaction 0
DEBUG   2025-08-29 15:05:11,792  pymodbus.logging:transaction.py:78 Getting transaction 0
DEBUG   2025-08-29 15:05:11,792  pymodbus.logging:transaction.py:258 Changing transaction state from "PROCESSING REPLY" to "TRANSACTION_COMPLETE"
INFO    2025-08-29 15:05:11,792  root:modbus_rtu_tcp.py:44 read_measurement ret is:ReadHoldingRegistersResponse (2)
INFO    2025-08-29 15:05:11,792  root:acudc260_modbus_get.py:187 read p1_power ret is:[15551, 36083]
DEBUG   2025-08-29 15:05:11,792  pymodbus.logging:transaction.py:184 Current transaction state - TRANSACTION_COMPLETE
DEBUG   2025-08-29 15:05:11,792  pymodbus.logging:transaction.py:193 Running transaction 0
DEBUG   2025-08-29 15:05:11,792  pymodbus.logging:transaction.py:293 SEND: 0x1 0x3 0x30 0xa 0x0 0x2 0xeb 0x9
DEBUG   2025-08-29 15:05:11,792  pymodbus.logging:serial.py:271 Changing state to IDLE - Last Frame End - 1756451111.792248 Current Time stamp - 1756451111.792248
DEBUG   2025-08-29 15:05:11,792  pymodbus.logging:serial.py:279 Waiting for 3.5 char before next send - 1.823 ms
DEBUG   2025-08-29 15:05:11,795  pymodbus.logging:base.py:250 New Transaction state "SENDING"
DEBUG   2025-08-29 15:05:11,795  pymodbus.logging:transaction.py:317 Changing transaction state from "SENDING" to "WAITING FOR REPLY"
DEBUG   2025-08-29 15:05:11,823  pymodbus.logging:transaction.py:419 Changing transaction state from "WAITING FOR REPLY" to "PROCESSING REPLY"
DEBUG   2025-08-29 15:05:11,823  pymodbus.logging:transaction.py:324 RECV: 0x1 0x3 0x4 0x3c 0xbf 0xbf 0xda 0x36 0x2c
DEBUG   2025-08-29 15:05:11,823  pymodbus.logging:base.py:92 Processing: 0x1 0x3 0x4 0x3c 0xbf 0xbf 0xda 0x36 0x2c
DEBUG   2025-08-29 15:05:11,823  pymodbus.logging:decoders.py:103 decode PDU for 3
DEBUG   2025-08-29 15:05:11,823  pymodbus.logging:base.py:102 Frame advanced, resetting header!!
DEBUG   2025-08-29 15:05:11,823  pymodbus.logging:transaction.py:67 Adding transaction 0
DEBUG   2025-08-29 15:05:11,823  pymodbus.logging:transaction.py:78 Getting transaction 0
DEBUG   2025-08-29 15:05:11,823  pymodbus.logging:transaction.py:258 Changing transaction state from "PROCESSING REPLY" to "TRANSACTION_COMPLETE"
INFO    2025-08-29 15:05:11,823  root:modbus_rtu_tcp.py:44 read_measurement ret is:ReadHoldingRegistersResponse (2)
INFO    2025-08-29 15:05:11,823  root:acudc260_modbus_get.py:201 read p2_power ret is:[15551, 49114]
DEBUG   2025-08-29 15:05:11,823  pymodbus.logging:transaction.py:184 Current transaction state - TRANSACTION_COMPLETE
DEBUG   2025-08-29 15:05:11,823  pymodbus.logging:transaction.py:193 Running transaction 0
DEBUG   2025-08-29 15:05:11,824  pymodbus.logging:transaction.py:293 SEND: 0x1 0x3 0x30 0xc 0x0 0x2 0xb 0x8
DEBUG   2025-08-29 15:05:11,824  pymodbus.logging:serial.py:271 Changing state to IDLE - Last Frame End - 1756451111.823086 Current Time stamp - 1756451111.824098
DEBUG   2025-08-29 15:05:11,824  pymodbus.logging:serial.py:279 Waiting for 3.5 char before next send - 1.823 ms
DEBUG   2025-08-29 15:05:11,826  pymodbus.logging:base.py:250 New Transaction state "SENDING"
DEBUG   2025-08-29 15:05:11,826  pymodbus.logging:transaction.py:317 Changing transaction state from "SENDING" to "WAITING FOR REPLY"
DEBUG   2025-08-29 15:05:11,854  pymodbus.logging:transaction.py:419 Changing transaction state from "WAITING FOR REPLY" to "PROCESSING REPLY"
DEBUG   2025-08-29 15:05:11,854  pymodbus.logging:transaction.py:324 RECV: 0x1 0x3 0x4 0x3d 0x3f 0xa6 0x67 0xfd 0xd9
DEBUG   2025-08-29 15:05:11,854  pymodbus.logging:base.py:92 Processing: 0x1 0x3 0x4 0x3d 0x3f 0xa6 0x67 0xfd 0xd9
DEBUG   2025-08-29 15:05:11,854  pymodbus.logging:decoders.py:103 decode PDU for 3
DEBUG   2025-08-29 15:05:11,854  pymodbus.logging:base.py:102 Frame advanced, resetting header!!
DEBUG   2025-08-29 15:05:11,854  pymodbus.logging:transaction.py:67 Adding transaction 0
DEBUG   2025-08-29 15:05:11,854  pymodbus.logging:transaction.py:78 Getting transaction 0
DEBUG   2025-08-29 15:05:11,854  pymodbus.logging:transaction.py:258 Changing transaction state from "PROCESSING REPLY" to "TRANSACTION_COMPLETE"
INFO    2025-08-29 15:05:11,854  root:modbus_rtu_tcp.py:44 read_measurement ret is:ReadHoldingRegistersResponse (2)
INFO    2025-08-29 15:05:11,854  root:acudc260_modbus_get.py:215 read p_sum_power ret is:[15679, 42599]
DEBUG   2025-08-29 15:05:11,955  pymodbus.logging:transaction.py:184 Current transaction state - TRANSACTION_COMPLETE
DEBUG   2025-08-29 15:05:11,955  pymodbus.logging:transaction.py:193 Running transaction 0
DEBUG   2025-08-29 15:05:11,955  pymodbus.logging:transaction.py:293 SEND: 0x1 0x3 0x30 0x0 0x0 0x2 0xcb 0xb
DEBUG   2025-08-29 15:05:11,955  pymodbus.logging:serial.py:271 Changing state to IDLE - Last Frame End - 1756451111.854027 Current Time stamp - 1756451111.95511
DEBUG   2025-08-29 15:05:11,955  pymodbus.logging:base.py:250 New Transaction state "SENDING"
DEBUG   2025-08-29 15:05:11,955  pymodbus.logging:transaction.py:317 Changing transaction state from "SENDING" to "WAITING FOR REPLY"
DEBUG   2025-08-29 15:05:11,983  pymodbus.logging:transaction.py:419 Changing transaction state from "WAITING FOR REPLY" to "PROCESSING REPLY"
DEBUG   2025-08-29 15:05:11,983  pymodbus.logging:transaction.py:324 RECV: 0x1 0x3 0x4 0x42 0x70 0x5 0xac 0xec 0xbd
DEBUG   2025-08-29 15:05:11,983  pymodbus.logging:base.py:92 Processing: 0x1 0x3 0x4 0x42 0x70 0x5 0xac 0xec 0xbd
DEBUG   2025-08-29 15:05:11,983  pymodbus.logging:decoders.py:103 decode PDU for 3
DEBUG   2025-08-29 15:05:11,983  pymodbus.logging:base.py:102 Frame advanced, resetting header!!
DEBUG   2025-08-29 15:05:11,983  pymodbus.logging:transaction.py:67 Adding transaction 0
DEBUG   2025-08-29 15:05:11,983  pymodbus.logging:transaction.py:78 Getting transaction 0
DEBUG   2025-08-29 15:05:11,983  pymodbus.logging:transaction.py:258 Changing transaction state from "PROCESSING REPLY" to "TRANSACTION_COMPLETE"
INFO    2025-08-29 15:05:11,983  root:modbus_rtu_tcp.py:44 read_measurement ret is:ReadHoldingRegistersResponse (2)
INFO    2025-08-29 15:05:11,983  root:acudc260_modbus_get.py:131 read u_voltage ret is:[17008, 1452]
DEBUG   2025-08-29 15:05:11,983  pymodbus.logging:transaction.py:184 Current transaction state - TRANSACTION_COMPLETE
DEBUG   2025-08-29 15:05:11,983  pymodbus.logging:transaction.py:193 Running transaction 0
DEBUG   2025-08-29 15:05:11,983  pymodbus.logging:transaction.py:293 SEND: 0x1 0x3 0x30 0x2 0x0 0x2 0x6a 0xcb
DEBUG   2025-08-29 15:05:11,983  pymodbus.logging:serial.py:271 Changing state to IDLE - Last Frame End - 1756451111.983176 Current Time stamp - 1756451111.983176
DEBUG   2025-08-29 15:05:11,983  pymodbus.logging:serial.py:279 Waiting for 3.5 char before next send - 1.823 ms
DEBUG   2025-08-29 15:05:11,986  pymodbus.logging:base.py:250 New Transaction state "SENDING"
DEBUG   2025-08-29 15:05:11,986  pymodbus.logging:transaction.py:317 Changing transaction state from "SENDING" to "WAITING FOR REPLY"
DEBUG   2025-08-29 15:05:12,015  pymodbus.logging:transaction.py:419 Changing transaction state from "WAITING FOR REPLY" to "PROCESSING REPLY"
DEBUG   2025-08-29 15:05:12,015  pymodbus.logging:transaction.py:324 RECV: 0x1 0x3 0x4 0x3e 0xca 0xe3 0x86 0x1f 0x77
DEBUG   2025-08-29 15:05:12,015  pymodbus.logging:base.py:92 Processing: 0x1 0x3 0x4 0x3e 0xca 0xe3 0x86 0x1f 0x77
DEBUG   2025-08-29 15:05:12,015  pymodbus.logging:decoders.py:103 decode PDU for 3
DEBUG   2025-08-29 15:05:12,015  pymodbus.logging:base.py:102 Frame advanced, resetting header!!
DEBUG   2025-08-29 15:05:12,015  pymodbus.logging:transaction.py:67 Adding transaction 0
DEBUG   2025-08-29 15:05:12,015  pymodbus.logging:transaction.py:78 Getting transaction 0
DEBUG   2025-08-29 15:05:12,015  pymodbus.logging:transaction.py:258 Changing transaction state from "PROCESSING REPLY" to "TRANSACTION_COMPLETE"
INFO    2025-08-29 15:05:12,015  root:modbus_rtu_tcp.py:44 read_measurement ret is:ReadHoldingRegistersResponse (2)
INFO    2025-08-29 15:05:12,015  root:acudc260_modbus_get.py:145 read i1_current ret is:[16074, 58246]
DEBUG   2025-08-29 15:05:12,015  pymodbus.logging:transaction.py:184 Current transaction state - TRANSACTION_COMPLETE
DEBUG   2025-08-29 15:05:12,015  pymodbus.logging:transaction.py:193 Running transaction 0
DEBUG   2025-08-29 15:05:12,015  pymodbus.logging:transaction.py:293 SEND: 0x1 0x3 0x30 0x4 0x0 0x2 0x8a 0xca
DEBUG   2025-08-29 15:05:12,015  pymodbus.logging:serial.py:271 Changing state to IDLE - Last Frame End - 1756451112.015575 Current Time stamp - 1756451112.015575
DEBUG   2025-08-29 15:05:12,015  pymodbus.logging:serial.py:279 Waiting for 3.5 char before next send - 1.823 ms
DEBUG   2025-08-29 15:05:12,018  pymodbus.logging:base.py:250 New Transaction state "SENDING"
DEBUG   2025-08-29 15:05:12,018  pymodbus.logging:transaction.py:317 Changing transaction state from "SENDING" to "WAITING FOR REPLY"
DEBUG   2025-08-29 15:05:12,042  pymodbus.logging:transaction.py:419 Changing transaction state from "WAITING FOR REPLY" to "PROCESSING REPLY"
DEBUG   2025-08-29 15:05:12,042  pymodbus.logging:transaction.py:324 RECV: 0x1 0x3 0x4 0x3e 0xce 0x8b 0x13 0xb1 0x19
DEBUG   2025-08-29 15:05:12,042  pymodbus.logging:base.py:92 Processing: 0x1 0x3 0x4 0x3e 0xce 0x8b 0x13 0xb1 0x19
DEBUG   2025-08-29 15:05:12,042  pymodbus.logging:decoders.py:103 decode PDU for 3
DEBUG   2025-08-29 15:05:12,042  pymodbus.logging:base.py:102 Frame advanced, resetting header!!
DEBUG   2025-08-29 15:05:12,043  pymodbus.logging:transaction.py:67 Adding transaction 0
DEBUG   2025-08-29 15:05:12,043  pymodbus.logging:transaction.py:78 Getting transaction 0
DEBUG   2025-08-29 15:05:12,043  pymodbus.logging:transaction.py:258 Changing transaction state from "PROCESSING REPLY" to "TRANSACTION_COMPLETE"
INFO    2025-08-29 15:05:12,043  root:modbus_rtu_tcp.py:44 read_measurement ret is:ReadHoldingRegistersResponse (2)
INFO    2025-08-29 15:05:12,043  root:acudc260_modbus_get.py:159 read i2_current ret is:[16078, 35603]
DEBUG   2025-08-29 15:05:12,043  pymodbus.logging:transaction.py:184 Current transaction state - TRANSACTION_COMPLETE
DEBUG   2025-08-29 15:05:12,043  pymodbus.logging:transaction.py:193 Running transaction 0
DEBUG   2025-08-29 15:05:12,043  pymodbus.logging:transaction.py:293 SEND: 0x1 0x3 0x30 0x6 0x0 0x2 0x2b 0xa
DEBUG   2025-08-29 15:05:12,043  pymodbus.logging:serial.py:271 Changing state to IDLE - Last Frame End - 1756451112.042714 Current Time stamp - 1756451112.043714
DEBUG   2025-08-29 15:05:12,043  pymodbus.logging:serial.py:279 Waiting for 3.5 char before next send - 1.823 ms
DEBUG   2025-08-29 15:05:12,046  pymodbus.logging:base.py:250 New Transaction state "SENDING"
DEBUG   2025-08-29 15:05:12,046  pymodbus.logging:transaction.py:317 Changing transaction state from "SENDING" to "WAITING FOR REPLY"
DEBUG   2025-08-29 15:05:12,078  pymodbus.logging:transaction.py:419 Changing transaction state from "WAITING FOR REPLY" to "PROCESSING REPLY"
DEBUG   2025-08-29 15:05:12,078  pymodbus.logging:transaction.py:324 RECV: 0x1 0x3 0x4 0x3f 0x4c 0xb7 0x4c 0x41 0xf5
DEBUG   2025-08-29 15:05:12,078  pymodbus.logging:base.py:92 Processing: 0x1 0x3 0x4 0x3f 0x4c 0xb7 0x4c 0x41 0xf5
DEBUG   2025-08-29 15:05:12,078  pymodbus.logging:decoders.py:103 decode PDU for 3
DEBUG   2025-08-29 15:05:12,078  pymodbus.logging:base.py:102 Frame advanced, resetting header!!
DEBUG   2025-08-29 15:05:12,078  pymodbus.logging:transaction.py:67 Adding transaction 0
DEBUG   2025-08-29 15:05:12,078  pymodbus.logging:transaction.py:78 Getting transaction 0
DEBUG   2025-08-29 15:05:12,078  pymodbus.logging:transaction.py:258 Changing transaction state from "PROCESSING REPLY" to "TRANSACTION_COMPLETE"
INFO    2025-08-29 15:05:12,078  root:modbus_rtu_tcp.py:44 read_measurement ret is:ReadHoldingRegistersResponse (2)
INFO    2025-08-29 15:05:12,078  root:acudc260_modbus_get.py:173 read i_sum_current ret is:[16204, 46924]
DEBUG   2025-08-29 15:05:12,078  pymodbus.logging:transaction.py:184 Current transaction state - TRANSACTION_COMPLETE
DEBUG   2025-08-29 15:05:12,078  pymodbus.logging:transaction.py:193 Running transaction 0
DEBUG   2025-08-29 15:05:12,078  pymodbus.logging:transaction.py:293 SEND: 0x1 0x3 0x30 0x8 0x0 0x2 0x4a 0xc9
DEBUG   2025-08-29 15:05:12,078  pymodbus.logging:serial.py:271 Changing state to IDLE - Last Frame End - 1756451112.078489 Current Time stamp - 1756451112.078489
DEBUG   2025-08-29 15:05:12,078  pymodbus.logging:serial.py:279 Waiting for 3.5 char before next send - 1.823 ms
DEBUG   2025-08-29 15:05:12,081  pymodbus.logging:base.py:250 New Transaction state "SENDING"
DEBUG   2025-08-29 15:05:12,081  pymodbus.logging:transaction.py:317 Changing transaction state from "SENDING" to "WAITING FOR REPLY"
DEBUG   2025-08-29 15:05:12,109  pymodbus.logging:transaction.py:419 Changing transaction state from "WAITING FOR REPLY" to "PROCESSING REPLY"
DEBUG   2025-08-29 15:05:12,109  pymodbus.logging:transaction.py:324 RECV: 0x1 0x3 0x4 0x3c 0xc8 0x80 0x65 0xd6 0x76
DEBUG   2025-08-29 15:05:12,109  pymodbus.logging:base.py:92 Processing: 0x1 0x3 0x4 0x3c 0xc8 0x80 0x65 0xd6 0x76
DEBUG   2025-08-29 15:05:12,109  pymodbus.logging:decoders.py:103 decode PDU for 3
DEBUG   2025-08-29 15:05:12,109  pymodbus.logging:base.py:102 Frame advanced, resetting header!!
DEBUG   2025-08-29 15:05:12,109  pymodbus.logging:transaction.py:67 Adding transaction 0
DEBUG   2025-08-29 15:05:12,109  pymodbus.logging:transaction.py:78 Getting transaction 0
DEBUG   2025-08-29 15:05:12,111  pymodbus.logging:transaction.py:258 Changing transaction state from "PROCESSING REPLY" to "TRANSACTION_COMPLETE"
INFO    2025-08-29 15:05:12,111  root:modbus_rtu_tcp.py:44 read_measurement ret is:ReadHoldingRegistersResponse (2)
INFO    2025-08-29 15:05:12,111  root:acudc260_modbus_get.py:187 read p1_power ret is:[15560, 32869]
DEBUG   2025-08-29 15:05:12,111  pymodbus.logging:transaction.py:184 Current transaction state - TRANSACTION_COMPLETE
DEBUG   2025-08-29 15:05:12,111  pymodbus.logging:transaction.py:193 Running transaction 0
DEBUG   2025-08-29 15:05:12,111  pymodbus.logging:transaction.py:293 SEND: 0x1 0x3 0x30 0xa 0x0 0x2 0xeb 0x9
DEBUG   2025-08-29 15:05:12,111  pymodbus.logging:serial.py:271 Changing state to IDLE - Last Frame End - 1756451112.10999 Current Time stamp - 1756451112.111106
DEBUG   2025-08-29 15:05:12,111  pymodbus.logging:serial.py:279 Waiting for 3.5 char before next send - 1.823 ms
DEBUG   2025-08-29 15:05:12,113  pymodbus.logging:base.py:250 New Transaction state "SENDING"
DEBUG   2025-08-29 15:05:12,113  pymodbus.logging:transaction.py:317 Changing transaction state from "SENDING" to "WAITING FOR REPLY"
DEBUG   2025-08-29 15:05:12,142  pymodbus.logging:transaction.py:419 Changing transaction state from "WAITING FOR REPLY" to "PROCESSING REPLY"
DEBUG   2025-08-29 15:05:12,142  pymodbus.logging:transaction.py:324 RECV: 0x1 0x3 0x4 0x3c 0xc3 0x99 0xa 0xec 0x8
DEBUG   2025-08-29 15:05:12,142  pymodbus.logging:base.py:92 Processing: 0x1 0x3 0x4 0x3c 0xc3 0x99 0xa 0xec 0x8
DEBUG   2025-08-29 15:05:12,142  pymodbus.logging:decoders.py:103 decode PDU for 3
DEBUG   2025-08-29 15:05:12,142  pymodbus.logging:base.py:102 Frame advanced, resetting header!!
DEBUG   2025-08-29 15:05:12,142  pymodbus.logging:transaction.py:67 Adding transaction 0
DEBUG   2025-08-29 15:05:12,142  pymodbus.logging:transaction.py:78 Getting transaction 0
DEBUG   2025-08-29 15:05:12,142  pymodbus.logging:transaction.py:258 Changing transaction state from "PROCESSING REPLY" to "TRANSACTION_COMPLETE"
INFO    2025-08-29 15:05:12,142  root:modbus_rtu_tcp.py:44 read_measurement ret is:ReadHoldingRegistersResponse (2)
INFO    2025-08-29 15:05:12,142  root:acudc260_modbus_get.py:201 read p2_power ret is:[15555, 39178]
DEBUG   2025-08-29 15:05:12,142  pymodbus.logging:transaction.py:184 Current transaction state - TRANSACTION_COMPLETE
DEBUG   2025-08-29 15:05:12,142  pymodbus.logging:transaction.py:193 Running transaction 0
DEBUG   2025-08-29 15:05:12,142  pymodbus.logging:transaction.py:293 SEND: 0x1 0x3 0x30 0xc 0x0 0x2 0xb 0x8
DEBUG   2025-08-29 15:05:12,142  pymodbus.logging:serial.py:271 Changing state to IDLE - Last Frame End - 1756451112.142347 Current Time stamp - 1756451112.142347
DEBUG   2025-08-29 15:05:12,142  pymodbus.logging:serial.py:279 Waiting for 3.5 char before next send - 1.823 ms
DEBUG   2025-08-29 15:05:12,145  pymodbus.logging:base.py:250 New Transaction state "SENDING"
DEBUG   2025-08-29 15:05:12,145  pymodbus.logging:transaction.py:317 Changing transaction state from "SENDING" to "WAITING FOR REPLY"
DEBUG   2025-08-29 15:05:12,175  pymodbus.logging:transaction.py:419 Changing transaction state from "WAITING FOR REPLY" to "PROCESSING REPLY"
DEBUG   2025-08-29 15:05:12,175  pymodbus.logging:transaction.py:324 RECV: 0x1 0x3 0x4 0x3d 0x46 0xc 0xb8 0x13 0x38
DEBUG   2025-08-29 15:05:12,175  pymodbus.logging:base.py:92 Processing: 0x1 0x3 0x4 0x3d 0x46 0xc 0xb8 0x13 0x38
DEBUG   2025-08-29 15:05:12,175  pymodbus.logging:decoders.py:103 decode PDU for 3
DEBUG   2025-08-29 15:05:12,175  pymodbus.logging:base.py:102 Frame advanced, resetting header!!
DEBUG   2025-08-29 15:05:12,175  pymodbus.logging:transaction.py:67 Adding transaction 0
DEBUG   2025-08-29 15:05:12,175  pymodbus.logging:transaction.py:78 Getting transaction 0
DEBUG   2025-08-29 15:05:12,175  pymodbus.logging:transaction.py:258 Changing transaction state from "PROCESSING REPLY" to "TRANSACTION_COMPLETE"
INFO    2025-08-29 15:05:12,175  root:modbus_rtu_tcp.py:44 read_measurement ret is:ReadHoldingRegistersResponse (2)
INFO    2025-08-29 15:05:12,175  root:acudc260_modbus_get.py:215 read p_sum_power ret is:[15686, 3256]
DEBUG   2025-08-29 15:05:12,277  pymodbus.logging:transaction.py:184 Current transaction state - TRANSACTION_COMPLETE
DEBUG   2025-08-29 15:05:12,277  pymodbus.logging:transaction.py:193 Running transaction 0
DEBUG   2025-08-29 15:05:12,277  pymodbus.logging:transaction.py:293 SEND: 0x1 0x3 0x30 0x0 0x0 0x2 0xcb 0xb
DEBUG   2025-08-29 15:05:12,277  pymodbus.logging:serial.py:271 Changing state to IDLE - Last Frame End - 1756451112.175967 Current Time stamp - 1756451112.277598
DEBUG   2025-08-29 15:05:12,277  pymodbus.logging:base.py:250 New Transaction state "SENDING"
DEBUG   2025-08-29 15:05:12,277  pymodbus.logging:transaction.py:317 Changing transaction state from "SENDING" to "WAITING FOR REPLY"
DEBUG   2025-08-29 15:05:12,303  pymodbus.logging:transaction.py:419 Changing transaction state from "WAITING FOR REPLY" to "PROCESSING REPLY"
DEBUG   2025-08-29 15:05:12,303  pymodbus.logging:transaction.py:324 RECV: 0x1 0x3 0x4 0x42 0x70 0x5 0x6f 0xac 0xec
DEBUG   2025-08-29 15:05:12,303  pymodbus.logging:base.py:92 Processing: 0x1 0x3 0x4 0x42 0x70 0x5 0x6f 0xac 0xec
DEBUG   2025-08-29 15:05:12,303  pymodbus.logging:decoders.py:103 decode PDU for 3
DEBUG   2025-08-29 15:05:12,303  pymodbus.logging:base.py:102 Frame advanced, resetting header!!
DEBUG   2025-08-29 15:05:12,303  pymodbus.logging:transaction.py:67 Adding transaction 0
DEBUG   2025-08-29 15:05:12,303  pymodbus.logging:transaction.py:78 Getting transaction 0
DEBUG   2025-08-29 15:05:12,303  pymodbus.logging:transaction.py:258 Changing transaction state from "PROCESSING REPLY" to "TRANSACTION_COMPLETE"
INFO    2025-08-29 15:05:12,303  root:modbus_rtu_tcp.py:44 read_measurement ret is:ReadHoldingRegistersResponse (2)
INFO    2025-08-29 15:05:12,303  root:acudc260_modbus_get.py:131 read u_voltage ret is:[17008, 1391]
DEBUG   2025-08-29 15:05:12,304  pymodbus.logging:transaction.py:184 Current transaction state - TRANSACTION_COMPLETE
DEBUG   2025-08-29 15:05:12,304  pymodbus.logging:transaction.py:193 Running transaction 0
DEBUG   2025-08-29 15:05:12,304  pymodbus.logging:transaction.py:293 SEND: 0x1 0x3 0x30 0x2 0x0 0x2 0x6a 0xcb
DEBUG   2025-08-29 15:05:12,304  pymodbus.logging:serial.py:271 Changing state to IDLE - Last Frame End - 1756451112.303428 Current Time stamp - 1756451112.30407
DEBUG   2025-08-29 15:05:12,304  pymodbus.logging:serial.py:279 Waiting for 3.5 char before next send - 1.823 ms
DEBUG   2025-08-29 15:05:12,306  pymodbus.logging:base.py:250 New Transaction state "SENDING"
DEBUG   2025-08-29 15:05:12,306  pymodbus.logging:transaction.py:317 Changing transaction state from "SENDING" to "WAITING FOR REPLY"
DEBUG   2025-08-29 15:05:12,336  pymodbus.logging:transaction.py:419 Changing transaction state from "WAITING FOR REPLY" to "PROCESSING REPLY"
DEBUG   2025-08-29 15:05:12,336  pymodbus.logging:transaction.py:324 RECV: 0x1 0x3 0x4 0x3e 0xcb 0x33 0xa0 0x92 0xad
DEBUG   2025-08-29 15:05:12,336  pymodbus.logging:base.py:92 Processing: 0x1 0x3 0x4 0x3e 0xcb 0x33 0xa0 0x92 0xad
DEBUG   2025-08-29 15:05:12,336  pymodbus.logging:decoders.py:103 decode PDU for 3
DEBUG   2025-08-29 15:05:12,336  pymodbus.logging:base.py:102 Frame advanced, resetting header!!
DEBUG   2025-08-29 15:05:12,336  pymodbus.logging:transaction.py:67 Adding transaction 0
DEBUG   2025-08-29 15:05:12,336  pymodbus.logging:transaction.py:78 Getting transaction 0
DEBUG   2025-08-29 15:05:12,336  pymodbus.logging:transaction.py:258 Changing transaction state from "PROCESSING REPLY" to "TRANSACTION_COMPLETE"
INFO    2025-08-29 15:05:12,336  root:modbus_rtu_tcp.py:44 read_measurement ret is:ReadHoldingRegistersResponse (2)
INFO    2025-08-29 15:05:12,336  root:acudc260_modbus_get.py:145 read i1_current ret is:[16075, 13216]
DEBUG   2025-08-29 15:05:12,336  pymodbus.logging:transaction.py:184 Current transaction state - TRANSACTION_COMPLETE
DEBUG   2025-08-29 15:05:12,336  pymodbus.logging:transaction.py:193 Running transaction 0
DEBUG   2025-08-29 15:05:12,336  pymodbus.logging:transaction.py:293 SEND: 0x1 0x3 0x30 0x4 0x0 0x2 0x8a 0xca
DEBUG   2025-08-29 15:05:12,336  pymodbus.logging:serial.py:271 Changing state to IDLE - Last Frame End - 1756451112.336086 Current Time stamp - 1756451112.336695
DEBUG   2025-08-29 15:05:12,336  pymodbus.logging:serial.py:279 Waiting for 3.5 char before next send - 1.823 ms
DEBUG   2025-08-29 15:05:12,339  pymodbus.logging:base.py:250 New Transaction state "SENDING"
DEBUG   2025-08-29 15:05:12,339  pymodbus.logging:transaction.py:317 Changing transaction state from "SENDING" to "WAITING FOR REPLY"
DEBUG   2025-08-29 15:05:12,368  pymodbus.logging:transaction.py:419 Changing transaction state from "WAITING FOR REPLY" to "PROCESSING REPLY"
DEBUG   2025-08-29 15:05:12,368  pymodbus.logging:transaction.py:324 RECV: 0x1 0x3 0x4 0x3e 0xcc 0x6 0x26 0xb5 0x9e
DEBUG   2025-08-29 15:05:12,368  pymodbus.logging:base.py:92 Processing: 0x1 0x3 0x4 0x3e 0xcc 0x6 0x26 0xb5 0x9e
DEBUG   2025-08-29 15:05:12,368  pymodbus.logging:decoders.py:103 decode PDU for 3
DEBUG   2025-08-29 15:05:12,368  pymodbus.logging:base.py:102 Frame advanced, resetting header!!
DEBUG   2025-08-29 15:05:12,368  pymodbus.logging:transaction.py:67 Adding transaction 0
DEBUG   2025-08-29 15:05:12,368  pymodbus.logging:transaction.py:78 Getting transaction 0
DEBUG   2025-08-29 15:05:12,368  pymodbus.logging:transaction.py:258 Changing transaction state from "PROCESSING REPLY" to "TRANSACTION_COMPLETE"
INFO    2025-08-29 15:05:12,368  root:modbus_rtu_tcp.py:44 read_measurement ret is:ReadHoldingRegistersResponse (2)
INFO    2025-08-29 15:05:12,368  root:acudc260_modbus_get.py:159 read i2_current ret is:[16076, 1574]
DEBUG   2025-08-29 15:05:12,368  pymodbus.logging:transaction.py:184 Current transaction state - TRANSACTION_COMPLETE
DEBUG   2025-08-29 15:05:12,368  pymodbus.logging:transaction.py:193 Running transaction 0
DEBUG   2025-08-29 15:05:12,368  pymodbus.logging:transaction.py:293 SEND: 0x1 0x3 0x30 0x6 0x0 0x2 0x2b 0xa
DEBUG   2025-08-29 15:05:12,368  pymodbus.logging:serial.py:271 Changing state to IDLE - Last Frame End - 1756451112.368782 Current Time stamp - 1756451112.368782
DEBUG   2025-08-29 15:05:12,369  pymodbus.logging:serial.py:279 Waiting for 3.5 char before next send - 1.823 ms
DEBUG   2025-08-29 15:05:12,371  pymodbus.logging:base.py:250 New Transaction state "SENDING"
DEBUG   2025-08-29 15:05:12,371  pymodbus.logging:transaction.py:317 Changing transaction state from "SENDING" to "WAITING FOR REPLY"
DEBUG   2025-08-29 15:05:12,399  pymodbus.logging:transaction.py:419 Changing transaction state from "WAITING FOR REPLY" to "PROCESSING REPLY"
DEBUG   2025-08-29 15:05:12,399  pymodbus.logging:transaction.py:324 RECV: 0x1 0x3 0x4 0x3f 0x4d 0xd5 0x16 0xb9 0x6e
DEBUG   2025-08-29 15:05:12,399  pymodbus.logging:base.py:92 Processing: 0x1 0x3 0x4 0x3f 0x4d 0xd5 0x16 0xb9 0x6e
DEBUG   2025-08-29 15:05:12,399  pymodbus.logging:decoders.py:103 decode PDU for 3
DEBUG   2025-08-29 15:05:12,399  pymodbus.logging:base.py:102 Frame advanced, resetting header!!
DEBUG   2025-08-29 15:05:12,399  pymodbus.logging:transaction.py:67 Adding transaction 0
DEBUG   2025-08-29 15:05:12,399  pymodbus.logging:transaction.py:78 Getting transaction 0
DEBUG   2025-08-29 15:05:12,399  pymodbus.logging:transaction.py:258 Changing transaction state from "PROCESSING REPLY" to "TRANSACTION_COMPLETE"
INFO    2025-08-29 15:05:12,399  root:modbus_rtu_tcp.py:44 read_measurement ret is:ReadHoldingRegistersResponse (2)
INFO    2025-08-29 15:05:12,399  root:acudc260_modbus_get.py:173 read i_sum_current ret is:[16205, 54550]
DEBUG   2025-08-29 15:05:12,399  pymodbus.logging:transaction.py:184 Current transaction state - TRANSACTION_COMPLETE
DEBUG   2025-08-29 15:05:12,399  pymodbus.logging:transaction.py:193 Running transaction 0
DEBUG   2025-08-29 15:05:12,399  pymodbus.logging:transaction.py:293 SEND: 0x1 0x3 0x30 0x8 0x0 0x2 0x4a 0xc9
DEBUG   2025-08-29 15:05:12,399  pymodbus.logging:serial.py:271 Changing state to IDLE - Last Frame End - 1756451112.39946 Current Time stamp - 1756451112.39946
DEBUG   2025-08-29 15:05:12,399  pymodbus.logging:serial.py:279 Waiting for 3.5 char before next send - 1.823 ms
DEBUG   2025-08-29 15:05:12,402  pymodbus.logging:base.py:250 New Transaction state "SENDING"
DEBUG   2025-08-29 15:05:12,402  pymodbus.logging:transaction.py:317 Changing transaction state from "SENDING" to "WAITING FOR REPLY"
DEBUG   2025-08-29 15:05:12,429  pymodbus.logging:transaction.py:419 Changing transaction state from "WAITING FOR REPLY" to "PROCESSING REPLY"
DEBUG   2025-08-29 15:05:12,429  pymodbus.logging:transaction.py:324 RECV: 0x1 0x3 0x4 0x3c 0xc9 0xc6 0x99 0xb5 0x97
DEBUG   2025-08-29 15:05:12,429  pymodbus.logging:base.py:92 Processing: 0x1 0x3 0x4 0x3c 0xc9 0xc6 0x99 0xb5 0x97
DEBUG   2025-08-29 15:05:12,429  pymodbus.logging:decoders.py:103 decode PDU for 3
DEBUG   2025-08-29 15:05:12,429  pymodbus.logging:base.py:102 Frame advanced, resetting header!!
DEBUG   2025-08-29 15:05:12,429  pymodbus.logging:transaction.py:67 Adding transaction 0
DEBUG   2025-08-29 15:05:12,429  pymodbus.logging:transaction.py:78 Getting transaction 0
DEBUG   2025-08-29 15:05:12,429  pymodbus.logging:transaction.py:258 Changing transaction state from "PROCESSING REPLY" to "TRANSACTION_COMPLETE"
INFO    2025-08-29 15:05:12,429  root:modbus_rtu_tcp.py:44 read_measurement ret is:ReadHoldingRegistersResponse (2)
INFO    2025-08-29 15:05:12,429  root:acudc260_modbus_get.py:187 read p1_power ret is:[15561, 50841]
DEBUG   2025-08-29 15:05:12,429  pymodbus.logging:transaction.py:184 Current transaction state - TRANSACTION_COMPLETE
DEBUG   2025-08-29 15:05:12,429  pymodbus.logging:transaction.py:193 Running transaction 0
DEBUG   2025-08-29 15:05:12,429  pymodbus.logging:transaction.py:293 SEND: 0x1 0x3 0x30 0xa 0x0 0x2 0xeb 0x9
DEBUG   2025-08-29 15:05:12,429  pymodbus.logging:serial.py:271 Changing state to IDLE - Last Frame End - 1756451112.429997 Current Time stamp - 1756451112.429997
DEBUG   2025-08-29 15:05:12,429  pymodbus.logging:serial.py:279 Waiting for 3.5 char before next send - 1.823 ms
DEBUG   2025-08-29 15:05:12,433  pymodbus.logging:base.py:250 New Transaction state "SENDING"
DEBUG   2025-08-29 15:05:12,433  pymodbus.logging:transaction.py:317 Changing transaction state from "SENDING" to "WAITING FOR REPLY"
DEBUG   2025-08-29 15:05:12,464  pymodbus.logging:transaction.py:419 Changing transaction state from "WAITING FOR REPLY" to "PROCESSING REPLY"
DEBUG   2025-08-29 15:05:12,464  pymodbus.logging:transaction.py:324 RECV: 0x1 0x3 0x4 0x3c 0xc1 0x84 0x87 0x84 0xfd
DEBUG   2025-08-29 15:05:12,464  pymodbus.logging:base.py:92 Processing: 0x1 0x3 0x4 0x3c 0xc1 0x84 0x87 0x84 0xfd
DEBUG   2025-08-29 15:05:12,464  pymodbus.logging:decoders.py:103 decode PDU for 3
DEBUG   2025-08-29 15:05:12,464  pymodbus.logging:base.py:102 Frame advanced, resetting header!!
DEBUG   2025-08-29 15:05:12,464  pymodbus.logging:transaction.py:67 Adding transaction 0
DEBUG   2025-08-29 15:05:12,464  pymodbus.logging:transaction.py:78 Getting transaction 0
DEBUG   2025-08-29 15:05:12,464  pymodbus.logging:transaction.py:258 Changing transaction state from "PROCESSING REPLY" to "TRANSACTION_COMPLETE"
INFO    2025-08-29 15:05:12,464  root:modbus_rtu_tcp.py:44 read_measurement ret is:ReadHoldingRegistersResponse (2)
INFO    2025-08-29 15:05:12,464  root:acudc260_modbus_get.py:201 read p2_power ret is:[15553, 33927]
DEBUG   2025-08-29 15:05:12,464  pymodbus.logging:transaction.py:184 Current transaction state - TRANSACTION_COMPLETE
DEBUG   2025-08-29 15:05:12,464  pymodbus.logging:transaction.py:193 Running transaction 0
DEBUG   2025-08-29 15:05:12,464  pymodbus.logging:transaction.py:293 SEND: 0x1 0x3 0x30 0xc 0x0 0x2 0xb 0x8
DEBUG   2025-08-29 15:05:12,464  pymodbus.logging:serial.py:271 Changing state to IDLE - Last Frame End - 1756451112.464217 Current Time stamp - 1756451112.464217
DEBUG   2025-08-29 15:05:12,464  pymodbus.logging:serial.py:279 Waiting for 3.5 char before next send - 1.823 ms
DEBUG   2025-08-29 15:05:12,467  pymodbus.logging:base.py:250 New Transaction state "SENDING"
DEBUG   2025-08-29 15:05:12,467  pymodbus.logging:transaction.py:317 Changing transaction state from "SENDING" to "WAITING FOR REPLY"
DEBUG   2025-08-29 15:05:12,495  pymodbus.logging:transaction.py:419 Changing transaction state from "WAITING FOR REPLY" to "PROCESSING REPLY"
DEBUG   2025-08-29 15:05:12,495  pymodbus.logging:transaction.py:324 RECV: 0x1 0x3 0x4 0x3d 0x46 0x8f 0x16 0xf3 0xb4
DEBUG   2025-08-29 15:05:12,495  pymodbus.logging:base.py:92 Processing: 0x1 0x3 0x4 0x3d 0x46 0x8f 0x16 0xf3 0xb4
DEBUG   2025-08-29 15:05:12,495  pymodbus.logging:decoders.py:103 decode PDU for 3
DEBUG   2025-08-29 15:05:12,495  pymodbus.logging:base.py:102 Frame advanced, resetting header!!
DEBUG   2025-08-29 15:05:12,495  pymodbus.logging:transaction.py:67 Adding transaction 0
DEBUG   2025-08-29 15:05:12,495  pymodbus.logging:transaction.py:78 Getting transaction 0
DEBUG   2025-08-29 15:05:12,495  pymodbus.logging:transaction.py:258 Changing transaction state from "PROCESSING REPLY" to "TRANSACTION_COMPLETE"
INFO    2025-08-29 15:05:12,495  root:modbus_rtu_tcp.py:44 read_measurement ret is:ReadHoldingRegistersResponse (2)
INFO    2025-08-29 15:05:12,495  root:acudc260_modbus_get.py:215 read p_sum_power ret is:[15686, 36630]
DEBUG   2025-08-29 15:05:12,596  pymodbus.logging:transaction.py:184 Current transaction state - TRANSACTION_COMPLETE
DEBUG   2025-08-29 15:05:12,596  pymodbus.logging:transaction.py:193 Running transaction 0
DEBUG   2025-08-29 15:05:12,596  pymodbus.logging:transaction.py:293 SEND: 0x1 0x3 0x30 0x0 0x0 0x2 0xcb 0xb
DEBUG   2025-08-29 15:05:12,596  pymodbus.logging:serial.py:271 Changing state to IDLE - Last Frame End - 1756451112.495418 Current Time stamp - 1756451112.596563
DEBUG   2025-08-29 15:05:12,596  pymodbus.logging:base.py:250 New Transaction state "SENDING"
DEBUG   2025-08-29 15:05:12,596  pymodbus.logging:transaction.py:317 Changing transaction state from "SENDING" to "WAITING FOR REPLY"
DEBUG   2025-08-29 15:05:12,622  pymodbus.logging:transaction.py:419 Changing transaction state from "WAITING FOR REPLY" to "PROCESSING REPLY"
DEBUG   2025-08-29 15:05:12,622  pymodbus.logging:transaction.py:324 RECV: 0x1 0x3 0x4 0x42 0x70 0x3 0xae 0x6e 0xdc
DEBUG   2025-08-29 15:05:12,622  pymodbus.logging:base.py:92 Processing: 0x1 0x3 0x4 0x42 0x70 0x3 0xae 0x6e 0xdc
DEBUG   2025-08-29 15:05:12,622  pymodbus.logging:decoders.py:103 decode PDU for 3
DEBUG   2025-08-29 15:05:12,622  pymodbus.logging:base.py:102 Frame advanced, resetting header!!
DEBUG   2025-08-29 15:05:12,622  pymodbus.logging:transaction.py:67 Adding transaction 0
DEBUG   2025-08-29 15:05:12,622  pymodbus.logging:transaction.py:78 Getting transaction 0
DEBUG   2025-08-29 15:05:12,622  pymodbus.logging:transaction.py:258 Changing transaction state from "PROCESSING REPLY" to "TRANSACTION_COMPLETE"
INFO    2025-08-29 15:05:12,622  root:modbus_rtu_tcp.py:44 read_measurement ret is:ReadHoldingRegistersResponse (2)
INFO    2025-08-29 15:05:12,622  root:acudc260_modbus_get.py:131 read u_voltage ret is:[17008, 942]
DEBUG   2025-08-29 15:05:12,622  pymodbus.logging:transaction.py:184 Current transaction state - TRANSACTION_COMPLETE
DEBUG   2025-08-29 15:05:12,622  pymodbus.logging:transaction.py:193 Running transaction 0
DEBUG   2025-08-29 15:05:12,622  pymodbus.logging:transaction.py:293 SEND: 0x1 0x3 0x30 0x2 0x0 0x2 0x6a 0xcb
DEBUG   2025-08-29 15:05:12,622  pymodbus.logging:serial.py:271 Changing state to IDLE - Last Frame End - 1756451112.622849 Current Time stamp - 1756451112.622849
DEBUG   2025-08-29 15:05:12,622  pymodbus.logging:serial.py:279 Waiting for 3.5 char before next send - 1.823 ms
DEBUG   2025-08-29 15:05:12,625  pymodbus.logging:base.py:250 New Transaction state "SENDING"
DEBUG   2025-08-29 15:05:12,625  pymodbus.logging:transaction.py:317 Changing transaction state from "SENDING" to "WAITING FOR REPLY"
DEBUG   2025-08-29 15:05:12,656  pymodbus.logging:transaction.py:419 Changing transaction state from "WAITING FOR REPLY" to "PROCESSING REPLY"
DEBUG   2025-08-29 15:05:12,656  pymodbus.logging:transaction.py:324 RECV: 0x1 0x3 0x4 0x3e 0xd4 0xa0 0xca 0x4f 0xb4
DEBUG   2025-08-29 15:05:12,656  pymodbus.logging:base.py:92 Processing: 0x1 0x3 0x4 0x3e 0xd4 0xa0 0xca 0x4f 0xb4
DEBUG   2025-08-29 15:05:12,656  pymodbus.logging:decoders.py:103 decode PDU for 3
DEBUG   2025-08-29 15:05:12,656  pymodbus.logging:base.py:102 Frame advanced, resetting header!!
DEBUG   2025-08-29 15:05:12,656  pymodbus.logging:transaction.py:67 Adding transaction 0
DEBUG   2025-08-29 15:05:12,656  pymodbus.logging:transaction.py:78 Getting transaction 0
DEBUG   2025-08-29 15:05:12,656  pymodbus.logging:transaction.py:258 Changing transaction state from "PROCESSING REPLY" to "TRANSACTION_COMPLETE"
INFO    2025-08-29 15:05:12,656  root:modbus_rtu_tcp.py:44 read_measurement ret is:ReadHoldingRegistersResponse (2)
INFO    2025-08-29 15:05:12,656  root:acudc260_modbus_get.py:145 read i1_current ret is:[16084, 41162]
DEBUG   2025-08-29 15:05:12,656  pymodbus.logging:transaction.py:184 Current transaction state - TRANSACTION_COMPLETE
DEBUG   2025-08-29 15:05:12,656  pymodbus.logging:transaction.py:193 Running transaction 0
DEBUG   2025-08-29 15:05:12,656  pymodbus.logging:transaction.py:293 SEND: 0x1 0x3 0x30 0x4 0x0 0x2 0x8a 0xca
DEBUG   2025-08-29 15:05:12,656  pymodbus.logging:serial.py:271 Changing state to IDLE - Last Frame End - 1756451112.656135 Current Time stamp - 1756451112.656742
DEBUG   2025-08-29 15:05:12,656  pymodbus.logging:serial.py:279 Waiting for 3.5 char before next send - 1.823 ms
DEBUG   2025-08-29 15:05:12,659  pymodbus.logging:base.py:250 New Transaction state "SENDING"
DEBUG   2025-08-29 15:05:12,659  pymodbus.logging:transaction.py:317 Changing transaction state from "SENDING" to "WAITING FOR REPLY"
DEBUG   2025-08-29 15:05:12,686  pymodbus.logging:transaction.py:419 Changing transaction state from "WAITING FOR REPLY" to "PROCESSING REPLY"
DEBUG   2025-08-29 15:05:12,686  pymodbus.logging:transaction.py:324 RECV: 0x1 0x3 0x4 0x3e 0xd1 0xdc 0x60 0xff 0xa
DEBUG   2025-08-29 15:05:12,686  pymodbus.logging:base.py:92 Processing: 0x1 0x3 0x4 0x3e 0xd1 0xdc 0x60 0xff 0xa
DEBUG   2025-08-29 15:05:12,686  pymodbus.logging:decoders.py:103 decode PDU for 3
DEBUG   2025-08-29 15:05:12,686  pymodbus.logging:base.py:102 Frame advanced, resetting header!!
DEBUG   2025-08-29 15:05:12,686  pymodbus.logging:transaction.py:67 Adding transaction 0
DEBUG   2025-08-29 15:05:12,686  pymodbus.logging:transaction.py:78 Getting transaction 0
DEBUG   2025-08-29 15:05:12,686  pymodbus.logging:transaction.py:258 Changing transaction state from "PROCESSING REPLY" to "TRANSACTION_COMPLETE"
INFO    2025-08-29 15:05:12,686  root:modbus_rtu_tcp.py:44 read_measurement ret is:ReadHoldingRegistersResponse (2)
INFO    2025-08-29 15:05:12,686  root:acudc260_modbus_get.py:159 read i2_current ret is:[16081, 56416]
DEBUG   2025-08-29 15:05:12,686  pymodbus.logging:transaction.py:184 Current transaction state - TRANSACTION_COMPLETE
DEBUG   2025-08-29 15:05:12,686  pymodbus.logging:transaction.py:193 Running transaction 0
DEBUG   2025-08-29 15:05:12,687  pymodbus.logging:transaction.py:293 SEND: 0x1 0x3 0x30 0x6 0x0 0x2 0x2b 0xa
DEBUG   2025-08-29 15:05:12,687  pymodbus.logging:serial.py:271 Changing state to IDLE - Last Frame End - 1756451112.686155 Current Time stamp - 1756451112.687267
DEBUG   2025-08-29 15:05:12,687  pymodbus.logging:serial.py:279 Waiting for 3.5 char before next send - 1.823 ms
DEBUG   2025-08-29 15:05:12,689  pymodbus.logging:base.py:250 New Transaction state "SENDING"
