INFO    2025-08-29 09:04:07,613  root:acudc260_fast_test.py:363 测试进度:['test_case', 'Voltage', 'Current_1', 'Current_2', '等待时间(h)', 'voltage_accuracy', 'current_accuracy', 'power_accuracy', '采样次数', '采样间隔'],执行时间:2025_08_29 09:04:07
INFO    2025-08-29 09:04:07,614  root:source_control.py:26 <源输出>
    电压检定点:6.0%;
    电流检定点:0.10400000000000001%;
    电压纹波比例:0%;
    电流纹波比例:0%;
    电压纹波相位:0度;
    电流纹波相位:0度;
    纹波频率:300Hz;
    电能方向:正向;
    <End>
INFO    2025-08-29 09:04:09,227  root:source_control.py:30 recv_data ret is:<源输出应答>
电压总值:60.000000V;
电流总值:0.520000A;
功率总值:31.199999W;
电压直流:60.000000V;
电流直流:0.520000A;
功率直流:31.199999W;
电压纹波:0.000000V;
电流纹波:0.000000A;
功率纹波:0.000000W;
<End>
DEBUG   2025-08-29 09:04:19,329  pymodbus.logging:transaction.py:184 Current transaction state - IDLE
DEBUG   2025-08-29 09:04:19,329  pymodbus.logging:transaction.py:193 Running transaction 0
DEBUG   2025-08-29 09:04:19,329  pymodbus.logging:transaction.py:293 SEND: 0x1 0x3 0x30 0x0 0x0 0x2 0xcb 0xb
DEBUG   2025-08-29 09:04:19,329  pymodbus.logging:base.py:250 New Transaction state "SENDING"
DEBUG   2025-08-29 09:04:19,330  pymodbus.logging:transaction.py:317 Changing transaction state from "SENDING" to "WAITING FOR REPLY"
DEBUG   2025-08-29 09:04:19,357  pymodbus.logging:transaction.py:419 Changing transaction state from "WAITING FOR REPLY" to "PROCESSING REPLY"
DEBUG   2025-08-29 09:04:19,357  pymodbus.logging:transaction.py:324 RECV: 0x1 0x3 0x4 0x42 0x6f 0xfe 0xab 0xdf 0x89
DEBUG   2025-08-29 09:04:19,357  pymodbus.logging:base.py:92 Processing: 0x1 0x3 0x4 0x42 0x6f 0xfe 0xab 0xdf 0x89
DEBUG   2025-08-29 09:04:19,357  pymodbus.logging:decoders.py:103 decode PDU for 3
DEBUG   2025-08-29 09:04:19,357  pymodbus.logging:base.py:102 Frame advanced, resetting header!!
DEBUG   2025-08-29 09:04:19,357  pymodbus.logging:transaction.py:67 Adding transaction 0
DEBUG   2025-08-29 09:04:19,357  pymodbus.logging:transaction.py:78 Getting transaction 0
DEBUG   2025-08-29 09:04:19,357  pymodbus.logging:transaction.py:258 Changing transaction state from "PROCESSING REPLY" to "TRANSACTION_COMPLETE"
INFO    2025-08-29 09:04:19,357  root:modbus_rtu_tcp.py:44 read_measurement ret is:ReadHoldingRegistersResponse (2)
INFO    2025-08-29 09:04:19,357  root:acudc260_modbus_get.py:131 read u_voltage ret is:[17007, 65195]
DEBUG   2025-08-29 09:04:19,357  pymodbus.logging:transaction.py:184 Current transaction state - TRANSACTION_COMPLETE
DEBUG   2025-08-29 09:04:19,357  pymodbus.logging:transaction.py:193 Running transaction 0
DEBUG   2025-08-29 09:04:19,358  pymodbus.logging:transaction.py:293 SEND: 0x1 0x3 0x30 0x2 0x0 0x2 0x6a 0xcb
DEBUG   2025-08-29 09:04:19,358  pymodbus.logging:serial.py:271 Changing state to IDLE - Last Frame End - 1756429459.357557 Current Time stamp - 1756429459.358568
DEBUG   2025-08-29 09:04:19,358  pymodbus.logging:serial.py:279 Waiting for 3.5 char before next send - 1.823 ms
DEBUG   2025-08-29 09:04:19,360  pymodbus.logging:base.py:250 New Transaction state "SENDING"
DEBUG   2025-08-29 09:04:19,360  pymodbus.logging:transaction.py:317 Changing transaction state from "SENDING" to "WAITING FOR REPLY"
DEBUG   2025-08-29 09:04:19,390  pymodbus.logging:transaction.py:419 Changing transaction state from "WAITING FOR REPLY" to "PROCESSING REPLY"
DEBUG   2025-08-29 09:04:19,390  pymodbus.logging:transaction.py:324 RECV: 0x1 0x3 0x4 0x3f 0x5 0x71 0x6e 0x43 0x9a
DEBUG   2025-08-29 09:04:19,390  pymodbus.logging:base.py:92 Processing: 0x1 0x3 0x4 0x3f 0x5 0x71 0x6e 0x43 0x9a
DEBUG   2025-08-29 09:04:19,390  pymodbus.logging:decoders.py:103 decode PDU for 3
DEBUG   2025-08-29 09:04:19,390  pymodbus.logging:base.py:102 Frame advanced, resetting header!!
DEBUG   2025-08-29 09:04:19,390  pymodbus.logging:transaction.py:67 Adding transaction 0
DEBUG   2025-08-29 09:04:19,390  pymodbus.logging:transaction.py:78 Getting transaction 0
DEBUG   2025-08-29 09:04:19,390  pymodbus.logging:transaction.py:258 Changing transaction state from "PROCESSING REPLY" to "TRANSACTION_COMPLETE"
INFO    2025-08-29 09:04:19,390  root:modbus_rtu_tcp.py:44 read_measurement ret is:ReadHoldingRegistersResponse (2)
INFO    2025-08-29 09:04:19,390  root:acudc260_modbus_get.py:145 read i1_current ret is:[16133, 29038]
DEBUG   2025-08-29 09:04:19,390  pymodbus.logging:transaction.py:184 Current transaction state - TRANSACTION_COMPLETE
DEBUG   2025-08-29 09:04:19,390  pymodbus.logging:transaction.py:193 Running transaction 0
DEBUG   2025-08-29 09:04:19,390  pymodbus.logging:transaction.py:293 SEND: 0x1 0x3 0x30 0x4 0x0 0x2 0x8a 0xca
DEBUG   2025-08-29 09:04:19,391  pymodbus.logging:serial.py:271 Changing state to IDLE - Last Frame End - 1756429459.390332 Current Time stamp - 1756429459.391343
DEBUG   2025-08-29 09:04:19,391  pymodbus.logging:serial.py:279 Waiting for 3.5 char before next send - 1.823 ms
DEBUG   2025-08-29 09:04:19,393  pymodbus.logging:base.py:250 New Transaction state "SENDING"
DEBUG   2025-08-29 09:04:19,393  pymodbus.logging:transaction.py:317 Changing transaction state from "SENDING" to "WAITING FOR REPLY"
DEBUG   2025-08-29 09:04:19,422  pymodbus.logging:transaction.py:419 Changing transaction state from "WAITING FOR REPLY" to "PROCESSING REPLY"
DEBUG   2025-08-29 09:04:19,422  pymodbus.logging:transaction.py:324 RECV: 0x1 0x3 0x4 0x3f 0x5 0xcb 0xa3 0xf1 0x6f
DEBUG   2025-08-29 09:04:19,422  pymodbus.logging:base.py:92 Processing: 0x1 0x3 0x4 0x3f 0x5 0xcb 0xa3 0xf1 0x6f
DEBUG   2025-08-29 09:04:19,422  pymodbus.logging:decoders.py:103 decode PDU for 3
DEBUG   2025-08-29 09:04:19,422  pymodbus.logging:base.py:102 Frame advanced, resetting header!!
DEBUG   2025-08-29 09:04:19,422  pymodbus.logging:transaction.py:67 Adding transaction 0
DEBUG   2025-08-29 09:04:19,422  pymodbus.logging:transaction.py:78 Getting transaction 0
DEBUG   2025-08-29 09:04:19,422  pymodbus.logging:transaction.py:258 Changing transaction state from "PROCESSING REPLY" to "TRANSACTION_COMPLETE"
INFO    2025-08-29 09:04:19,422  root:modbus_rtu_tcp.py:44 read_measurement ret is:ReadHoldingRegistersResponse (2)
INFO    2025-08-29 09:04:19,422  root:acudc260_modbus_get.py:159 read i2_current ret is:[16133, 52131]
DEBUG   2025-08-29 09:04:19,422  pymodbus.logging:transaction.py:184 Current transaction state - TRANSACTION_COMPLETE
DEBUG   2025-08-29 09:04:19,422  pymodbus.logging:transaction.py:193 Running transaction 0
DEBUG   2025-08-29 09:04:19,422  pymodbus.logging:transaction.py:293 SEND: 0x1 0x3 0x30 0x6 0x0 0x2 0x2b 0xa
DEBUG   2025-08-29 09:04:19,422  pymodbus.logging:serial.py:271 Changing state to IDLE - Last Frame End - 1756429459.422747 Current Time stamp - 1756429459.422747
DEBUG   2025-08-29 09:04:19,423  pymodbus.logging:serial.py:279 Waiting for 3.5 char before next send - 1.823 ms
DEBUG   2025-08-29 09:04:19,425  pymodbus.logging:base.py:250 New Transaction state "SENDING"
DEBUG   2025-08-29 09:04:19,425  pymodbus.logging:transaction.py:317 Changing transaction state from "SENDING" to "WAITING FOR REPLY"
DEBUG   2025-08-29 09:04:19,452  pymodbus.logging:transaction.py:419 Changing transaction state from "WAITING FOR REPLY" to "PROCESSING REPLY"
DEBUG   2025-08-29 09:04:19,452  pymodbus.logging:transaction.py:324 RECV: 0x1 0x3 0x4 0x3f 0x85 0x9e 0x88 0x8f 0xc8
DEBUG   2025-08-29 09:04:19,452  pymodbus.logging:base.py:92 Processing: 0x1 0x3 0x4 0x3f 0x85 0x9e 0x88 0x8f 0xc8
DEBUG   2025-08-29 09:04:19,452  pymodbus.logging:decoders.py:103 decode PDU for 3
DEBUG   2025-08-29 09:04:19,452  pymodbus.logging:base.py:102 Frame advanced, resetting header!!
DEBUG   2025-08-29 09:04:19,452  pymodbus.logging:transaction.py:67 Adding transaction 0
DEBUG   2025-08-29 09:04:19,452  pymodbus.logging:transaction.py:78 Getting transaction 0
DEBUG   2025-08-29 09:04:19,452  pymodbus.logging:transaction.py:258 Changing transaction state from "PROCESSING REPLY" to "TRANSACTION_COMPLETE"
INFO    2025-08-29 09:04:19,452  root:modbus_rtu_tcp.py:44 read_measurement ret is:ReadHoldingRegistersResponse (2)
INFO    2025-08-29 09:04:19,452  root:acudc260_modbus_get.py:173 read i_sum_current ret is:[16261, 40584]
DEBUG   2025-08-29 09:04:19,452  pymodbus.logging:transaction.py:184 Current transaction state - TRANSACTION_COMPLETE
DEBUG   2025-08-29 09:04:19,452  pymodbus.logging:transaction.py:193 Running transaction 0
DEBUG   2025-08-29 09:04:19,453  pymodbus.logging:transaction.py:293 SEND: 0x1 0x3 0x30 0x8 0x0 0x2 0x4a 0xc9
DEBUG   2025-08-29 09:04:19,453  pymodbus.logging:serial.py:271 Changing state to IDLE - Last Frame End - 1756429459.452956 Current Time stamp - 1756429459.453968
DEBUG   2025-08-29 09:04:19,453  pymodbus.logging:serial.py:279 Waiting for 3.5 char before next send - 1.823 ms
DEBUG   2025-08-29 09:04:19,456  pymodbus.logging:base.py:250 New Transaction state "SENDING"
DEBUG   2025-08-29 09:04:19,456  pymodbus.logging:transaction.py:317 Changing transaction state from "SENDING" to "WAITING FOR REPLY"
DEBUG   2025-08-29 09:04:19,485  pymodbus.logging:transaction.py:419 Changing transaction state from "WAITING FOR REPLY" to "PROCESSING REPLY"
DEBUG   2025-08-29 09:04:19,485  pymodbus.logging:transaction.py:324 RECV: 0x1 0x3 0x4 0x3d 0x0 0x13 0x30 0xfa 0xbb
DEBUG   2025-08-29 09:04:19,485  pymodbus.logging:base.py:92 Processing: 0x1 0x3 0x4 0x3d 0x0 0x13 0x30 0xfa 0xbb
DEBUG   2025-08-29 09:04:19,485  pymodbus.logging:decoders.py:103 decode PDU for 3
DEBUG   2025-08-29 09:04:19,485  pymodbus.logging:base.py:102 Frame advanced, resetting header!!
DEBUG   2025-08-29 09:04:19,485  pymodbus.logging:transaction.py:67 Adding transaction 0
DEBUG   2025-08-29 09:04:19,485  pymodbus.logging:transaction.py:78 Getting transaction 0
DEBUG   2025-08-29 09:04:19,485  pymodbus.logging:transaction.py:258 Changing transaction state from "PROCESSING REPLY" to "TRANSACTION_COMPLETE"
INFO    2025-08-29 09:04:19,485  root:modbus_rtu_tcp.py:44 read_measurement ret is:ReadHoldingRegistersResponse (2)
INFO    2025-08-29 09:04:19,485  root:acudc260_modbus_get.py:187 read p1_power ret is:[15616, 4912]
DEBUG   2025-08-29 09:04:19,485  pymodbus.logging:transaction.py:184 Current transaction state - TRANSACTION_COMPLETE
DEBUG   2025-08-29 09:04:19,485  pymodbus.logging:transaction.py:193 Running transaction 0
DEBUG   2025-08-29 09:04:19,485  pymodbus.logging:transaction.py:293 SEND: 0x1 0x3 0x30 0xa 0x0 0x2 0xeb 0x9
DEBUG   2025-08-29 09:04:19,485  pymodbus.logging:serial.py:271 Changing state to IDLE - Last Frame End - 1756429459.485673 Current Time stamp - 1756429459.485673
DEBUG   2025-08-29 09:04:19,485  pymodbus.logging:serial.py:279 Waiting for 3.5 char before next send - 1.823 ms
DEBUG   2025-08-29 09:04:19,488  pymodbus.logging:base.py:250 New Transaction state "SENDING"
DEBUG   2025-08-29 09:04:19,489  pymodbus.logging:transaction.py:317 Changing transaction state from "SENDING" to "WAITING FOR REPLY"
DEBUG   2025-08-29 09:04:19,518  pymodbus.logging:transaction.py:419 Changing transaction state from "WAITING FOR REPLY" to "PROCESSING REPLY"
DEBUG   2025-08-29 09:04:19,518  pymodbus.logging:transaction.py:324 RECV: 0x1 0x3 0x4 0x3d 0x4 0xa3 0xb1 0xe 0xda
DEBUG   2025-08-29 09:04:19,518  pymodbus.logging:base.py:92 Processing: 0x1 0x3 0x4 0x3d 0x4 0xa3 0xb1 0xe 0xda
DEBUG   2025-08-29 09:04:19,518  pymodbus.logging:decoders.py:103 decode PDU for 3
DEBUG   2025-08-29 09:04:19,518  pymodbus.logging:base.py:102 Frame advanced, resetting header!!
DEBUG   2025-08-29 09:04:19,518  pymodbus.logging:transaction.py:67 Adding transaction 0
DEBUG   2025-08-29 09:04:19,518  pymodbus.logging:transaction.py:78 Getting transaction 0
DEBUG   2025-08-29 09:04:19,518  pymodbus.logging:transaction.py:258 Changing transaction state from "PROCESSING REPLY" to "TRANSACTION_COMPLETE"
INFO    2025-08-29 09:04:19,518  root:modbus_rtu_tcp.py:44 read_measurement ret is:ReadHoldingRegistersResponse (2)
INFO    2025-08-29 09:04:19,518  root:acudc260_modbus_get.py:201 read p2_power ret is:[15620, 41905]
DEBUG   2025-08-29 09:04:19,518  pymodbus.logging:transaction.py:184 Current transaction state - TRANSACTION_COMPLETE
DEBUG   2025-08-29 09:04:19,518  pymodbus.logging:transaction.py:193 Running transaction 0
DEBUG   2025-08-29 09:04:19,518  pymodbus.logging:transaction.py:293 SEND: 0x1 0x3 0x30 0xc 0x0 0x2 0xb 0x8
DEBUG   2025-08-29 09:04:19,518  pymodbus.logging:serial.py:271 Changing state to IDLE - Last Frame End - 1756429459.518821 Current Time stamp - 1756429459.518821
DEBUG   2025-08-29 09:04:19,519  pymodbus.logging:serial.py:279 Waiting for 3.5 char before next send - 1.823 ms
DEBUG   2025-08-29 09:04:19,521  pymodbus.logging:base.py:250 New Transaction state "SENDING"
DEBUG   2025-08-29 09:04:19,521  pymodbus.logging:transaction.py:317 Changing transaction state from "SENDING" to "WAITING FOR REPLY"
DEBUG   2025-08-29 09:04:19,548  pymodbus.logging:transaction.py:419 Changing transaction state from "WAITING FOR REPLY" to "PROCESSING REPLY"
DEBUG   2025-08-29 09:04:19,557  pymodbus.logging:transaction.py:324 RECV: 0x1 0x3 0x4 0x3d 0x84 0x35 0xbc 0xa1 0x57
DEBUG   2025-08-29 09:04:19,557  pymodbus.logging:base.py:92 Processing: 0x1 0x3 0x4 0x3d 0x84 0x35 0xbc 0xa1 0x57
DEBUG   2025-08-29 09:04:19,557  pymodbus.logging:decoders.py:103 decode PDU for 3
DEBUG   2025-08-29 09:04:19,557  pymodbus.logging:base.py:102 Frame advanced, resetting header!!
DEBUG   2025-08-29 09:04:19,557  pymodbus.logging:transaction.py:67 Adding transaction 0
DEBUG   2025-08-29 09:04:19,557  pymodbus.logging:transaction.py:78 Getting transaction 0
DEBUG   2025-08-29 09:04:19,557  pymodbus.logging:transaction.py:258 Changing transaction state from "PROCESSING REPLY" to "TRANSACTION_COMPLETE"
INFO    2025-08-29 09:04:19,557  root:modbus_rtu_tcp.py:44 read_measurement ret is:ReadHoldingRegistersResponse (2)
INFO    2025-08-29 09:04:19,557  root:acudc260_modbus_get.py:215 read p_sum_power ret is:[15748, 13756]
DEBUG   2025-08-29 09:04:19,657  pymodbus.logging:transaction.py:184 Current transaction state - TRANSACTION_COMPLETE
DEBUG   2025-08-29 09:04:19,657  pymodbus.logging:transaction.py:193 Running transaction 0
DEBUG   2025-08-29 09:04:19,657  pymodbus.logging:transaction.py:293 SEND: 0x1 0x3 0x30 0x0 0x0 0x2 0xcb 0xb
DEBUG   2025-08-29 09:04:19,658  pymodbus.logging:serial.py:271 Changing state to IDLE - Last Frame End - 1756429459.548914 Current Time stamp - 1756429459.65786
DEBUG   2025-08-29 09:04:19,658  pymodbus.logging:base.py:250 New Transaction state "SENDING"
DEBUG   2025-08-29 09:04:19,658  pymodbus.logging:transaction.py:317 Changing transaction state from "SENDING" to "WAITING FOR REPLY"
DEBUG   2025-08-29 09:04:19,692  pymodbus.logging:transaction.py:419 Changing transaction state from "WAITING FOR REPLY" to "PROCESSING REPLY"
DEBUG   2025-08-29 09:04:19,692  pymodbus.logging:transaction.py:324 RECV: 0x1 0x3 0x4 0x42 0x6f 0xfc 0x2b 0xdf 0x49
DEBUG   2025-08-29 09:04:19,692  pymodbus.logging:base.py:92 Processing: 0x1 0x3 0x4 0x42 0x6f 0xfc 0x2b 0xdf 0x49
DEBUG   2025-08-29 09:04:19,692  pymodbus.logging:decoders.py:103 decode PDU for 3
DEBUG   2025-08-29 09:04:19,692  pymodbus.logging:base.py:102 Frame advanced, resetting header!!
DEBUG   2025-08-29 09:04:19,692  pymodbus.logging:transaction.py:67 Adding transaction 0
DEBUG   2025-08-29 09:04:19,692  pymodbus.logging:transaction.py:78 Getting transaction 0
DEBUG   2025-08-29 09:04:19,692  pymodbus.logging:transaction.py:258 Changing transaction state from "PROCESSING REPLY" to "TRANSACTION_COMPLETE"
INFO    2025-08-29 09:04:19,692  root:modbus_rtu_tcp.py:44 read_measurement ret is:ReadHoldingRegistersResponse (2)
INFO    2025-08-29 09:04:19,692  root:acudc260_modbus_get.py:131 read u_voltage ret is:[17007, 64555]
DEBUG   2025-08-29 09:04:19,692  pymodbus.logging:transaction.py:184 Current transaction state - TRANSACTION_COMPLETE
DEBUG   2025-08-29 09:04:19,692  pymodbus.logging:transaction.py:193 Running transaction 0
DEBUG   2025-08-29 09:04:19,692  pymodbus.logging:transaction.py:293 SEND: 0x1 0x3 0x30 0x2 0x0 0x2 0x6a 0xcb
DEBUG   2025-08-29 09:04:19,692  pymodbus.logging:serial.py:271 Changing state to IDLE - Last Frame End - 1756429459.6921 Current Time stamp - 1756429459.6921
DEBUG   2025-08-29 09:04:19,693  pymodbus.logging:serial.py:279 Waiting for 3.5 char before next send - 1.823 ms
DEBUG   2025-08-29 09:04:19,695  pymodbus.logging:base.py:250 New Transaction state "SENDING"
DEBUG   2025-08-29 09:04:19,695  pymodbus.logging:transaction.py:317 Changing transaction state from "SENDING" to "WAITING FOR REPLY"
DEBUG   2025-08-29 09:04:19,725  pymodbus.logging:transaction.py:419 Changing transaction state from "WAITING FOR REPLY" to "PROCESSING REPLY"
DEBUG   2025-08-29 09:04:19,725  pymodbus.logging:transaction.py:324 RECV: 0x1 0x3 0x4 0x3f 0x8 0xed 0xb0 0x3b 0x1
DEBUG   2025-08-29 09:04:19,725  pymodbus.logging:base.py:92 Processing: 0x1 0x3 0x4 0x3f 0x8 0xed 0xb0 0x3b 0x1
DEBUG   2025-08-29 09:04:19,725  pymodbus.logging:decoders.py:103 decode PDU for 3
DEBUG   2025-08-29 09:04:19,725  pymodbus.logging:base.py:102 Frame advanced, resetting header!!
DEBUG   2025-08-29 09:04:19,725  pymodbus.logging:transaction.py:67 Adding transaction 0
DEBUG   2025-08-29 09:04:19,725  pymodbus.logging:transaction.py:78 Getting transaction 0
DEBUG   2025-08-29 09:04:19,725  pymodbus.logging:transaction.py:258 Changing transaction state from "PROCESSING REPLY" to "TRANSACTION_COMPLETE"
INFO    2025-08-29 09:04:19,725  root:modbus_rtu_tcp.py:44 read_measurement ret is:ReadHoldingRegistersResponse (2)
INFO    2025-08-29 09:04:19,725  root:acudc260_modbus_get.py:145 read i1_current ret is:[16136, 60848]
DEBUG   2025-08-29 09:04:19,725  pymodbus.logging:transaction.py:184 Current transaction state - TRANSACTION_COMPLETE
DEBUG   2025-08-29 09:04:19,725  pymodbus.logging:transaction.py:193 Running transaction 0
DEBUG   2025-08-29 09:04:19,725  pymodbus.logging:transaction.py:293 SEND: 0x1 0x3 0x30 0x4 0x0 0x2 0x8a 0xca
DEBUG   2025-08-29 09:04:19,725  pymodbus.logging:serial.py:271 Changing state to IDLE - Last Frame End - 1756429459.725874 Current Time stamp - 1756429459.725874
DEBUG   2025-08-29 09:04:19,725  pymodbus.logging:serial.py:279 Waiting for 3.5 char before next send - 1.823 ms
DEBUG   2025-08-29 09:04:19,728  pymodbus.logging:base.py:250 New Transaction state "SENDING"
DEBUG   2025-08-29 09:04:19,728  pymodbus.logging:transaction.py:317 Changing transaction state from "SENDING" to "WAITING FOR REPLY"
DEBUG   2025-08-29 09:04:19,758  pymodbus.logging:transaction.py:419 Changing transaction state from "WAITING FOR REPLY" to "PROCESSING REPLY"
DEBUG   2025-08-29 09:04:19,758  pymodbus.logging:transaction.py:324 RECV: 0x1 0x3 0x4 0x3f 0x0 0xf4 0x0 0xb0 0xe7
DEBUG   2025-08-29 09:04:19,758  pymodbus.logging:base.py:92 Processing: 0x1 0x3 0x4 0x3f 0x0 0xf4 0x0 0xb0 0xe7
DEBUG   2025-08-29 09:04:19,758  pymodbus.logging:decoders.py:103 decode PDU for 3
DEBUG   2025-08-29 09:04:19,758  pymodbus.logging:base.py:102 Frame advanced, resetting header!!
DEBUG   2025-08-29 09:04:19,758  pymodbus.logging:transaction.py:67 Adding transaction 0
DEBUG   2025-08-29 09:04:19,758  pymodbus.logging:transaction.py:78 Getting transaction 0
DEBUG   2025-08-29 09:04:19,758  pymodbus.logging:transaction.py:258 Changing transaction state from "PROCESSING REPLY" to "TRANSACTION_COMPLETE"
INFO    2025-08-29 09:04:19,758  root:modbus_rtu_tcp.py:44 read_measurement ret is:ReadHoldingRegistersResponse (2)
INFO    2025-08-29 09:04:19,758  root:acudc260_modbus_get.py:159 read i2_current ret is:[16128, 62464]
DEBUG   2025-08-29 09:04:19,758  pymodbus.logging:transaction.py:184 Current transaction state - TRANSACTION_COMPLETE
DEBUG   2025-08-29 09:04:19,758  pymodbus.logging:transaction.py:193 Running transaction 0
DEBUG   2025-08-29 09:04:19,758  pymodbus.logging:transaction.py:293 SEND: 0x1 0x3 0x30 0x6 0x0 0x2 0x2b 0xa
DEBUG   2025-08-29 09:04:19,758  pymodbus.logging:serial.py:271 Changing state to IDLE - Last Frame End - 1756429459.758426 Current Time stamp - 1756429459.758426
DEBUG   2025-08-29 09:04:19,758  pymodbus.logging:serial.py:279 Waiting for 3.5 char before next send - 1.823 ms
DEBUG   2025-08-29 09:04:19,761  pymodbus.logging:base.py:250 New Transaction state "SENDING"
DEBUG   2025-08-29 09:04:19,761  pymodbus.logging:transaction.py:317 Changing transaction state from "SENDING" to "WAITING FOR REPLY"
DEBUG   2025-08-29 09:04:19,789  pymodbus.logging:transaction.py:419 Changing transaction state from "WAITING FOR REPLY" to "PROCESSING REPLY"
DEBUG   2025-08-29 09:04:19,789  pymodbus.logging:transaction.py:324 RECV: 0x1 0x3 0x4 0x3f 0x85 0x11 0x59 0x2b 0xa4
DEBUG   2025-08-29 09:04:19,789  pymodbus.logging:base.py:92 Processing: 0x1 0x3 0x4 0x3f 0x85 0x11 0x59 0x2b 0xa4
DEBUG   2025-08-29 09:04:19,789  pymodbus.logging:decoders.py:103 decode PDU for 3
DEBUG   2025-08-29 09:04:19,789  pymodbus.logging:base.py:102 Frame advanced, resetting header!!
DEBUG   2025-08-29 09:04:19,789  pymodbus.logging:transaction.py:67 Adding transaction 0
DEBUG   2025-08-29 09:04:19,789  pymodbus.logging:transaction.py:78 Getting transaction 0
DEBUG   2025-08-29 09:04:19,789  pymodbus.logging:transaction.py:258 Changing transaction state from "PROCESSING REPLY" to "TRANSACTION_COMPLETE"
INFO    2025-08-29 09:04:19,789  root:modbus_rtu_tcp.py:44 read_measurement ret is:ReadHoldingRegistersResponse (2)
INFO    2025-08-29 09:04:19,789  root:acudc260_modbus_get.py:173 read i_sum_current ret is:[16261, 4441]
DEBUG   2025-08-29 09:04:19,789  pymodbus.logging:transaction.py:184 Current transaction state - TRANSACTION_COMPLETE
DEBUG   2025-08-29 09:04:19,789  pymodbus.logging:transaction.py:193 Running transaction 0
DEBUG   2025-08-29 09:04:19,789  pymodbus.logging:transaction.py:293 SEND: 0x1 0x3 0x30 0x8 0x0 0x2 0x4a 0xc9
DEBUG   2025-08-29 09:04:19,789  pymodbus.logging:serial.py:271 Changing state to IDLE - Last Frame End - 1756429459.789356 Current Time stamp - 1756429459.789356
DEBUG   2025-08-29 09:04:19,789  pymodbus.logging:serial.py:279 Waiting for 3.5 char before next send - 1.823 ms
DEBUG   2025-08-29 09:04:19,792  pymodbus.logging:base.py:250 New Transaction state "SENDING"
DEBUG   2025-08-29 09:04:19,792  pymodbus.logging:transaction.py:317 Changing transaction state from "SENDING" to "WAITING FOR REPLY"
DEBUG   2025-08-29 09:04:19,822  pymodbus.logging:transaction.py:419 Changing transaction state from "WAITING FOR REPLY" to "PROCESSING REPLY"
DEBUG   2025-08-29 09:04:19,822  pymodbus.logging:transaction.py:324 RECV: 0x1 0x3 0x4 0x3d 0x2 0x34 0xba 0xc1 0x2c
DEBUG   2025-08-29 09:04:19,822  pymodbus.logging:base.py:92 Processing: 0x1 0x3 0x4 0x3d 0x2 0x34 0xba 0xc1 0x2c
DEBUG   2025-08-29 09:04:19,822  pymodbus.logging:decoders.py:103 decode PDU for 3
DEBUG   2025-08-29 09:04:19,822  pymodbus.logging:base.py:102 Frame advanced, resetting header!!
DEBUG   2025-08-29 09:04:19,822  pymodbus.logging:transaction.py:67 Adding transaction 0
DEBUG   2025-08-29 09:04:19,822  pymodbus.logging:transaction.py:78 Getting transaction 0
DEBUG   2025-08-29 09:04:19,822  pymodbus.logging:transaction.py:258 Changing transaction state from "PROCESSING REPLY" to "TRANSACTION_COMPLETE"
INFO    2025-08-29 09:04:19,822  root:modbus_rtu_tcp.py:44 read_measurement ret is:ReadHoldingRegistersResponse (2)
INFO    2025-08-29 09:04:19,822  root:acudc260_modbus_get.py:187 read p1_power ret is:[15618, 13498]
DEBUG   2025-08-29 09:04:19,822  pymodbus.logging:transaction.py:184 Current transaction state - TRANSACTION_COMPLETE
DEBUG   2025-08-29 09:04:19,822  pymodbus.logging:transaction.py:193 Running transaction 0
DEBUG   2025-08-29 09:04:19,822  pymodbus.logging:transaction.py:293 SEND: 0x1 0x3 0x30 0xa 0x0 0x2 0xeb 0x9
DEBUG   2025-08-29 09:04:19,822  pymodbus.logging:serial.py:271 Changing state to IDLE - Last Frame End - 1756429459.822166 Current Time stamp - 1756429459.822166
DEBUG   2025-08-29 09:04:19,822  pymodbus.logging:serial.py:279 Waiting for 3.5 char before next send - 1.823 ms
DEBUG   2025-08-29 09:04:19,825  pymodbus.logging:base.py:250 New Transaction state "SENDING"
DEBUG   2025-08-29 09:04:19,825  pymodbus.logging:transaction.py:317 Changing transaction state from "SENDING" to "WAITING FOR REPLY"
DEBUG   2025-08-29 09:04:19,854  pymodbus.logging:transaction.py:419 Changing transaction state from "WAITING FOR REPLY" to "PROCESSING REPLY"
DEBUG   2025-08-29 09:04:19,854  pymodbus.logging:transaction.py:324 RECV: 0x1 0x3 0x4 0x3c 0xfa 0x85 0xea 0x35 0x4d
DEBUG   2025-08-29 09:04:19,854  pymodbus.logging:base.py:92 Processing: 0x1 0x3 0x4 0x3c 0xfa 0x85 0xea 0x35 0x4d
DEBUG   2025-08-29 09:04:19,854  pymodbus.logging:decoders.py:103 decode PDU for 3
DEBUG   2025-08-29 09:04:19,854  pymodbus.logging:base.py:102 Frame advanced, resetting header!!
DEBUG   2025-08-29 09:04:19,854  pymodbus.logging:transaction.py:67 Adding transaction 0
DEBUG   2025-08-29 09:04:19,854  pymodbus.logging:transaction.py:78 Getting transaction 0
DEBUG   2025-08-29 09:04:19,854  pymodbus.logging:transaction.py:258 Changing transaction state from "PROCESSING REPLY" to "TRANSACTION_COMPLETE"
INFO    2025-08-29 09:04:19,854  root:modbus_rtu_tcp.py:44 read_measurement ret is:ReadHoldingRegistersResponse (2)
INFO    2025-08-29 09:04:19,854  root:acudc260_modbus_get.py:201 read p2_power ret is:[15610, 34282]
DEBUG   2025-08-29 09:04:19,854  pymodbus.logging:transaction.py:184 Current transaction state - TRANSACTION_COMPLETE
DEBUG   2025-08-29 09:04:19,854  pymodbus.logging:transaction.py:193 Running transaction 0
DEBUG   2025-08-29 09:04:19,854  pymodbus.logging:transaction.py:293 SEND: 0x1 0x3 0x30 0xc 0x0 0x2 0xb 0x8
DEBUG   2025-08-29 09:04:19,854  pymodbus.logging:serial.py:271 Changing state to IDLE - Last Frame End - 1756429459.85411 Current Time stamp - 1756429459.85411
DEBUG   2025-08-29 09:04:19,854  pymodbus.logging:serial.py:279 Waiting for 3.5 char before next send - 1.823 ms
DEBUG   2025-08-29 09:04:19,856  pymodbus.logging:base.py:250 New Transaction state "SENDING"
DEBUG   2025-08-29 09:04:19,856  pymodbus.logging:transaction.py:317 Changing transaction state from "SENDING" to "WAITING FOR REPLY"
DEBUG   2025-08-29 09:04:19,885  pymodbus.logging:transaction.py:419 Changing transaction state from "WAITING FOR REPLY" to "PROCESSING REPLY"
DEBUG   2025-08-29 09:04:19,885  pymodbus.logging:transaction.py:324 RECV: 0x1 0x3 0x4 0x3d 0x7f 0x77 0xaf 0xa1 0xcb
DEBUG   2025-08-29 09:04:19,885  pymodbus.logging:base.py:92 Processing: 0x1 0x3 0x4 0x3d 0x7f 0x77 0xaf 0xa1 0xcb
DEBUG   2025-08-29 09:04:19,885  pymodbus.logging:decoders.py:103 decode PDU for 3
DEBUG   2025-08-29 09:04:19,885  pymodbus.logging:base.py:102 Frame advanced, resetting header!!
DEBUG   2025-08-29 09:04:19,885  pymodbus.logging:transaction.py:67 Adding transaction 0
DEBUG   2025-08-29 09:04:19,885  pymodbus.logging:transaction.py:78 Getting transaction 0
DEBUG   2025-08-29 09:04:19,885  pymodbus.logging:transaction.py:258 Changing transaction state from "PROCESSING REPLY" to "TRANSACTION_COMPLETE"
INFO    2025-08-29 09:04:19,885  root:modbus_rtu_tcp.py:44 read_measurement ret is:ReadHoldingRegistersResponse (2)
INFO    2025-08-29 09:04:19,885  root:acudc260_modbus_get.py:215 read p_sum_power ret is:[15743, 30639]
DEBUG   2025-08-29 09:04:19,986  pymodbus.logging:transaction.py:184 Current transaction state - TRANSACTION_COMPLETE
DEBUG   2025-08-29 09:04:19,986  pymodbus.logging:transaction.py:193 Running transaction 0
DEBUG   2025-08-29 09:04:19,986  pymodbus.logging:transaction.py:293 SEND: 0x1 0x3 0x30 0x0 0x0 0x2 0xcb 0xb
DEBUG   2025-08-29 09:04:19,986  pymodbus.logging:serial.py:271 Changing state to IDLE - Last Frame End - 1756429459.885862 Current Time stamp - 1756429459.98648
DEBUG   2025-08-29 09:04:19,986  pymodbus.logging:base.py:250 New Transaction state "SENDING"
DEBUG   2025-08-29 09:04:19,987  pymodbus.logging:transaction.py:317 Changing transaction state from "SENDING" to "WAITING FOR REPLY"
DEBUG   2025-08-29 09:04:20,013  pymodbus.logging:transaction.py:419 Changing transaction state from "WAITING FOR REPLY" to "PROCESSING REPLY"
DEBUG   2025-08-29 09:04:20,013  pymodbus.logging:transaction.py:324 RECV: 0x1 0x3 0x4 0x42 0x6f 0xfb 0xc1 0x5c 0xf6
DEBUG   2025-08-29 09:04:20,013  pymodbus.logging:base.py:92 Processing: 0x1 0x3 0x4 0x42 0x6f 0xfb 0xc1 0x5c 0xf6
DEBUG   2025-08-29 09:04:20,013  pymodbus.logging:decoders.py:103 decode PDU for 3
DEBUG   2025-08-29 09:04:20,013  pymodbus.logging:base.py:102 Frame advanced, resetting header!!
DEBUG   2025-08-29 09:04:20,013  pymodbus.logging:transaction.py:67 Adding transaction 0
DEBUG   2025-08-29 09:04:20,013  pymodbus.logging:transaction.py:78 Getting transaction 0
DEBUG   2025-08-29 09:04:20,013  pymodbus.logging:transaction.py:258 Changing transaction state from "PROCESSING REPLY" to "TRANSACTION_COMPLETE"
INFO    2025-08-29 09:04:20,013  root:modbus_rtu_tcp.py:44 read_measurement ret is:ReadHoldingRegistersResponse (2)
INFO    2025-08-29 09:04:20,013  root:acudc260_modbus_get.py:131 read u_voltage ret is:[17007, 64449]
DEBUG   2025-08-29 09:04:20,013  pymodbus.logging:transaction.py:184 Current transaction state - TRANSACTION_COMPLETE
DEBUG   2025-08-29 09:04:20,013  pymodbus.logging:transaction.py:193 Running transaction 0
DEBUG   2025-08-29 09:04:20,013  pymodbus.logging:transaction.py:293 SEND: 0x1 0x3 0x30 0x2 0x0 0x2 0x6a 0xcb
DEBUG   2025-08-29 09:04:20,013  pymodbus.logging:serial.py:271 Changing state to IDLE - Last Frame End - 1756429460.013206 Current Time stamp - 1756429460.013206
DEBUG   2025-08-29 09:04:20,013  pymodbus.logging:serial.py:279 Waiting for 3.5 char before next send - 1.823 ms
DEBUG   2025-08-29 09:04:20,016  pymodbus.logging:base.py:250 New Transaction state "SENDING"
DEBUG   2025-08-29 09:04:20,016  pymodbus.logging:transaction.py:317 Changing transaction state from "SENDING" to "WAITING FOR REPLY"
DEBUG   2025-08-29 09:04:20,045  pymodbus.logging:transaction.py:419 Changing transaction state from "WAITING FOR REPLY" to "PROCESSING REPLY"
DEBUG   2025-08-29 09:04:20,045  pymodbus.logging:transaction.py:324 RECV: 0x1 0x3 0x4 0x3f 0x7 0xb1 0xc0 0x33 0xe6
DEBUG   2025-08-29 09:04:20,045  pymodbus.logging:base.py:92 Processing: 0x1 0x3 0x4 0x3f 0x7 0xb1 0xc0 0x33 0xe6
DEBUG   2025-08-29 09:04:20,045  pymodbus.logging:decoders.py:103 decode PDU for 3
DEBUG   2025-08-29 09:04:20,045  pymodbus.logging:base.py:102 Frame advanced, resetting header!!
DEBUG   2025-08-29 09:04:20,045  pymodbus.logging:transaction.py:67 Adding transaction 0
DEBUG   2025-08-29 09:04:20,045  pymodbus.logging:transaction.py:78 Getting transaction 0
DEBUG   2025-08-29 09:04:20,045  pymodbus.logging:transaction.py:258 Changing transaction state from "PROCESSING REPLY" to "TRANSACTION_COMPLETE"
INFO    2025-08-29 09:04:20,045  root:modbus_rtu_tcp.py:44 read_measurement ret is:ReadHoldingRegistersResponse (2)
INFO    2025-08-29 09:04:20,045  root:acudc260_modbus_get.py:145 read i1_current ret is:[16135, 45504]
DEBUG   2025-08-29 09:04:20,045  pymodbus.logging:transaction.py:184 Current transaction state - TRANSACTION_COMPLETE
DEBUG   2025-08-29 09:04:20,045  pymodbus.logging:transaction.py:193 Running transaction 0
DEBUG   2025-08-29 09:04:20,045  pymodbus.logging:transaction.py:293 SEND: 0x1 0x3 0x30 0x4 0x0 0x2 0x8a 0xca
DEBUG   2025-08-29 09:04:20,045  pymodbus.logging:serial.py:271 Changing state to IDLE - Last Frame End - 1756429460.045712 Current Time stamp - 1756429460.045712
DEBUG   2025-08-29 09:04:20,045  pymodbus.logging:serial.py:279 Waiting for 3.5 char before next send - 1.823 ms
DEBUG   2025-08-29 09:04:20,048  pymodbus.logging:base.py:250 New Transaction state "SENDING"
DEBUG   2025-08-29 09:04:20,049  pymodbus.logging:transaction.py:317 Changing transaction state from "SENDING" to "WAITING FOR REPLY"
DEBUG   2025-08-29 09:04:20,078  pymodbus.logging:transaction.py:419 Changing transaction state from "WAITING FOR REPLY" to "PROCESSING REPLY"
DEBUG   2025-08-29 09:04:20,078  pymodbus.logging:transaction.py:324 RECV: 0x1 0x3 0x4 0x3f 0x8 0x82 0x92 0x96 0xe8
DEBUG   2025-08-29 09:04:20,078  pymodbus.logging:base.py:92 Processing: 0x1 0x3 0x4 0x3f 0x8 0x82 0x92 0x96 0xe8
DEBUG   2025-08-29 09:04:20,078  pymodbus.logging:decoders.py:103 decode PDU for 3
DEBUG   2025-08-29 09:04:20,078  pymodbus.logging:base.py:102 Frame advanced, resetting header!!
DEBUG   2025-08-29 09:04:20,078  pymodbus.logging:transaction.py:67 Adding transaction 0
DEBUG   2025-08-29 09:04:20,078  pymodbus.logging:transaction.py:78 Getting transaction 0
DEBUG   2025-08-29 09:04:20,078  pymodbus.logging:transaction.py:258 Changing transaction state from "PROCESSING REPLY" to "TRANSACTION_COMPLETE"
INFO    2025-08-29 09:04:20,078  root:modbus_rtu_tcp.py:44 read_measurement ret is:ReadHoldingRegistersResponse (2)
INFO    2025-08-29 09:04:20,078  root:acudc260_modbus_get.py:159 read i2_current ret is:[16136, 33426]
DEBUG   2025-08-29 09:04:20,078  pymodbus.logging:transaction.py:184 Current transaction state - TRANSACTION_COMPLETE
DEBUG   2025-08-29 09:04:20,078  pymodbus.logging:transaction.py:193 Running transaction 0
DEBUG   2025-08-29 09:04:20,078  pymodbus.logging:transaction.py:293 SEND: 0x1 0x3 0x30 0x6 0x0 0x2 0x2b 0xa
DEBUG   2025-08-29 09:04:20,078  pymodbus.logging:serial.py:271 Changing state to IDLE - Last Frame End - 1756429460.078086 Current Time stamp - 1756429460.078086
DEBUG   2025-08-29 09:04:20,079  pymodbus.logging:serial.py:279 Waiting for 3.5 char before next send - 1.823 ms
DEBUG   2025-08-29 09:04:20,081  pymodbus.logging:base.py:250 New Transaction state "SENDING"
DEBUG   2025-08-29 09:04:20,081  pymodbus.logging:transaction.py:317 Changing transaction state from "SENDING" to "WAITING FOR REPLY"
DEBUG   2025-08-29 09:04:20,108  pymodbus.logging:transaction.py:419 Changing transaction state from "WAITING FOR REPLY" to "PROCESSING REPLY"
DEBUG   2025-08-29 09:04:20,108  pymodbus.logging:transaction.py:324 RECV: 0x1 0x3 0x4 0x3f 0x89 0x4e 0x98 0x13 0xc7
DEBUG   2025-08-29 09:04:20,108  pymodbus.logging:base.py:92 Processing: 0x1 0x3 0x4 0x3f 0x89 0x4e 0x98 0x13 0xc7
DEBUG   2025-08-29 09:04:20,108  pymodbus.logging:decoders.py:103 decode PDU for 3
DEBUG   2025-08-29 09:04:20,108  pymodbus.logging:base.py:102 Frame advanced, resetting header!!
DEBUG   2025-08-29 09:04:20,108  pymodbus.logging:transaction.py:67 Adding transaction 0
DEBUG   2025-08-29 09:04:20,108  pymodbus.logging:transaction.py:78 Getting transaction 0
DEBUG   2025-08-29 09:04:20,108  pymodbus.logging:transaction.py:258 Changing transaction state from "PROCESSING REPLY" to "TRANSACTION_COMPLETE"
INFO    2025-08-29 09:04:20,108  root:modbus_rtu_tcp.py:44 read_measurement ret is:ReadHoldingRegistersResponse (2)
INFO    2025-08-29 09:04:20,108  root:acudc260_modbus_get.py:173 read i_sum_current ret is:[16265, 20120]
DEBUG   2025-08-29 09:04:20,108  pymodbus.logging:transaction.py:184 Current transaction state - TRANSACTION_COMPLETE
DEBUG   2025-08-29 09:04:20,108  pymodbus.logging:transaction.py:193 Running transaction 0
DEBUG   2025-08-29 09:04:20,108  pymodbus.logging:transaction.py:293 SEND: 0x1 0x3 0x30 0x8 0x0 0x2 0x4a 0xc9
DEBUG   2025-08-29 09:04:20,108  pymodbus.logging:serial.py:271 Changing state to IDLE - Last Frame End - 1756429460.108476 Current Time stamp - 1756429460.108476
DEBUG   2025-08-29 09:04:20,108  pymodbus.logging:serial.py:279 Waiting for 3.5 char before next send - 1.823 ms
DEBUG   2025-08-29 09:04:20,111  pymodbus.logging:base.py:250 New Transaction state "SENDING"
DEBUG   2025-08-29 09:04:20,111  pymodbus.logging:transaction.py:317 Changing transaction state from "SENDING" to "WAITING FOR REPLY"
DEBUG   2025-08-29 09:04:20,137  pymodbus.logging:transaction.py:419 Changing transaction state from "WAITING FOR REPLY" to "PROCESSING REPLY"
DEBUG   2025-08-29 09:04:20,137  pymodbus.logging:transaction.py:324 RECV: 0x1 0x3 0x4 0x3d 0x5 0x3d 0x35 0x37 0x19
DEBUG   2025-08-29 09:04:20,137  pymodbus.logging:base.py:92 Processing: 0x1 0x3 0x4 0x3d 0x5 0x3d 0x35 0x37 0x19
DEBUG   2025-08-29 09:04:20,137  pymodbus.logging:decoders.py:103 decode PDU for 3
DEBUG   2025-08-29 09:04:20,137  pymodbus.logging:base.py:102 Frame advanced, resetting header!!
DEBUG   2025-08-29 09:04:20,137  pymodbus.logging:transaction.py:67 Adding transaction 0
DEBUG   2025-08-29 09:04:20,137  pymodbus.logging:transaction.py:78 Getting transaction 0
DEBUG   2025-08-29 09:04:20,137  pymodbus.logging:transaction.py:258 Changing transaction state from "PROCESSING REPLY" to "TRANSACTION_COMPLETE"
INFO    2025-08-29 09:04:20,137  root:modbus_rtu_tcp.py:44 read_measurement ret is:ReadHoldingRegistersResponse (2)
INFO    2025-08-29 09:04:20,137  root:acudc260_modbus_get.py:187 read p1_power ret is:[15621, 15669]
DEBUG   2025-08-29 09:04:20,137  pymodbus.logging:transaction.py:184 Current transaction state - TRANSACTION_COMPLETE
DEBUG   2025-08-29 09:04:20,137  pymodbus.logging:transaction.py:193 Running transaction 0
DEBUG   2025-08-29 09:04:20,138  pymodbus.logging:transaction.py:293 SEND: 0x1 0x3 0x30 0xa 0x0 0x2 0xeb 0x9
DEBUG   2025-08-29 09:04:20,138  pymodbus.logging:serial.py:271 Changing state to IDLE - Last Frame End - 1756429460.137368 Current Time stamp - 1756429460.138471
DEBUG   2025-08-29 09:04:20,138  pymodbus.logging:serial.py:279 Waiting for 3.5 char before next send - 1.823 ms
DEBUG   2025-08-29 09:04:20,141  pymodbus.logging:base.py:250 New Transaction state "SENDING"
DEBUG   2025-08-29 09:04:20,141  pymodbus.logging:transaction.py:317 Changing transaction state from "SENDING" to "WAITING FOR REPLY"
DEBUG   2025-08-29 09:04:20,174  pymodbus.logging:transaction.py:419 Changing transaction state from "WAITING FOR REPLY" to "PROCESSING REPLY"
DEBUG   2025-08-29 09:04:20,174  pymodbus.logging:transaction.py:324 RECV: 0x1 0x3 0x4 0x3d 0x2 0x65 0xb 0x3c 0xc8
DEBUG   2025-08-29 09:04:20,174  pymodbus.logging:base.py:92 Processing: 0x1 0x3 0x4 0x3d 0x2 0x65 0xb 0x3c 0xc8
DEBUG   2025-08-29 09:04:20,174  pymodbus.logging:decoders.py:103 decode PDU for 3
DEBUG   2025-08-29 09:04:20,174  pymodbus.logging:base.py:102 Frame advanced, resetting header!!
DEBUG   2025-08-29 09:04:20,174  pymodbus.logging:transaction.py:67 Adding transaction 0
DEBUG   2025-08-29 09:04:20,174  pymodbus.logging:transaction.py:78 Getting transaction 0
DEBUG   2025-08-29 09:04:20,174  pymodbus.logging:transaction.py:258 Changing transaction state from "PROCESSING REPLY" to "TRANSACTION_COMPLETE"
INFO    2025-08-29 09:04:20,174  root:modbus_rtu_tcp.py:44 read_measurement ret is:ReadHoldingRegistersResponse (2)
INFO    2025-08-29 09:04:20,174  root:acudc260_modbus_get.py:201 read p2_power ret is:[15618, 25867]
DEBUG   2025-08-29 09:04:20,174  pymodbus.logging:transaction.py:184 Current transaction state - TRANSACTION_COMPLETE
DEBUG   2025-08-29 09:04:20,174  pymodbus.logging:transaction.py:193 Running transaction 0
DEBUG   2025-08-29 09:04:20,174  pymodbus.logging:transaction.py:293 SEND: 0x1 0x3 0x30 0xc 0x0 0x2 0xb 0x8
DEBUG   2025-08-29 09:04:20,174  pymodbus.logging:serial.py:271 Changing state to IDLE - Last Frame End - 1756429460.174051 Current Time stamp - 1756429460.174051
DEBUG   2025-08-29 09:04:20,174  pymodbus.logging:serial.py:279 Waiting for 3.5 char before next send - 1.823 ms
DEBUG   2025-08-29 09:04:20,176  pymodbus.logging:base.py:250 New Transaction state "SENDING"
DEBUG   2025-08-29 09:04:20,177  pymodbus.logging:transaction.py:317 Changing transaction state from "SENDING" to "WAITING FOR REPLY"
DEBUG   2025-08-29 09:04:20,205  pymodbus.logging:transaction.py:419 Changing transaction state from "WAITING FOR REPLY" to "PROCESSING REPLY"
DEBUG   2025-08-29 09:04:20,205  pymodbus.logging:transaction.py:324 RECV: 0x1 0x3 0x4 0x3d 0x79 0xf3 0xe 0xe3 0x72
DEBUG   2025-08-29 09:04:20,205  pymodbus.logging:base.py:92 Processing: 0x1 0x3 0x4 0x3d 0x79 0xf3 0xe 0xe3 0x72
DEBUG   2025-08-29 09:04:20,205  pymodbus.logging:decoders.py:103 decode PDU for 3
DEBUG   2025-08-29 09:04:20,205  pymodbus.logging:base.py:102 Frame advanced, resetting header!!
DEBUG   2025-08-29 09:04:20,205  pymodbus.logging:transaction.py:67 Adding transaction 0
DEBUG   2025-08-29 09:04:20,205  pymodbus.logging:transaction.py:78 Getting transaction 0
DEBUG   2025-08-29 09:04:20,205  pymodbus.logging:transaction.py:258 Changing transaction state from "PROCESSING REPLY" to "TRANSACTION_COMPLETE"
INFO    2025-08-29 09:04:20,206  root:modbus_rtu_tcp.py:44 read_measurement ret is:ReadHoldingRegistersResponse (2)
INFO    2025-08-29 09:04:20,206  root:acudc260_modbus_get.py:215 read p_sum_power ret is:[15737, 62222]
DEBUG   2025-08-29 09:04:20,306  pymodbus.logging:transaction.py:184 Current transaction state - TRANSACTION_COMPLETE
DEBUG   2025-08-29 09:04:20,306  pymodbus.logging:transaction.py:193 Running transaction 0
DEBUG   2025-08-29 09:04:20,306  pymodbus.logging:transaction.py:293 SEND: 0x1 0x3 0x30 0x0 0x0 0x2 0xcb 0xb
DEBUG   2025-08-29 09:04:20,306  pymodbus.logging:serial.py:271 Changing state to IDLE - Last Frame End - 1756429460.205068 Current Time stamp - 1756429460.306805
DEBUG   2025-08-29 09:04:20,306  pymodbus.logging:base.py:250 New Transaction state "SENDING"
DEBUG   2025-08-29 09:04:20,307  pymodbus.logging:transaction.py:317 Changing transaction state from "SENDING" to "WAITING FOR REPLY"
DEBUG   2025-08-29 09:04:20,334  pymodbus.logging:transaction.py:419 Changing transaction state from "WAITING FOR REPLY" to "PROCESSING REPLY"
DEBUG   2025-08-29 09:04:20,334  pymodbus.logging:transaction.py:324 RECV: 0x1 0x3 0x4 0x42 0x6f 0xf9 0x34 0x9d 0xd1
DEBUG   2025-08-29 09:04:20,334  pymodbus.logging:base.py:92 Processing: 0x1 0x3 0x4 0x42 0x6f 0xf9 0x34 0x9d 0xd1
DEBUG   2025-08-29 09:04:20,334  pymodbus.logging:decoders.py:103 decode PDU for 3
DEBUG   2025-08-29 09:04:20,334  pymodbus.logging:base.py:102 Frame advanced, resetting header!!
DEBUG   2025-08-29 09:04:20,334  pymodbus.logging:transaction.py:67 Adding transaction 0
DEBUG   2025-08-29 09:04:20,334  pymodbus.logging:transaction.py:78 Getting transaction 0
DEBUG   2025-08-29 09:04:20,334  pymodbus.logging:transaction.py:258 Changing transaction state from "PROCESSING REPLY" to "TRANSACTION_COMPLETE"
INFO    2025-08-29 09:04:20,334  root:modbus_rtu_tcp.py:44 read_measurement ret is:ReadHoldingRegistersResponse (2)
INFO    2025-08-29 09:04:20,334  root:acudc260_modbus_get.py:131 read u_voltage ret is:[17007, 63796]
DEBUG   2025-08-29 09:04:20,334  pymodbus.logging:transaction.py:184 Current transaction state - TRANSACTION_COMPLETE
DEBUG   2025-08-29 09:04:20,334  pymodbus.logging:transaction.py:193 Running transaction 0
DEBUG   2025-08-29 09:04:20,334  pymodbus.logging:transaction.py:293 SEND: 0x1 0x3 0x30 0x2 0x0 0x2 0x6a 0xcb
DEBUG   2025-08-29 09:04:20,334  pymodbus.logging:serial.py:271 Changing state to IDLE - Last Frame End - 1756429460.33415 Current Time stamp - 1756429460.33415
DEBUG   2025-08-29 09:04:20,334  pymodbus.logging:serial.py:279 Waiting for 3.5 char before next send - 1.823 ms
DEBUG   2025-08-29 09:04:20,337  pymodbus.logging:base.py:250 New Transaction state "SENDING"
DEBUG   2025-08-29 09:04:20,337  pymodbus.logging:transaction.py:317 Changing transaction state from "SENDING" to "WAITING FOR REPLY"
DEBUG   2025-08-29 09:04:20,364  pymodbus.logging:transaction.py:419 Changing transaction state from "WAITING FOR REPLY" to "PROCESSING REPLY"
DEBUG   2025-08-29 09:04:20,364  pymodbus.logging:transaction.py:324 RECV: 0x1 0x3 0x4 0x3f 0x6 0xb7 0x40 0x60 0x26
DEBUG   2025-08-29 09:04:20,364  pymodbus.logging:base.py:92 Processing: 0x1 0x3 0x4 0x3f 0x6 0xb7 0x40 0x60 0x26
DEBUG   2025-08-29 09:04:20,364  pymodbus.logging:decoders.py:103 decode PDU for 3
DEBUG   2025-08-29 09:04:20,364  pymodbus.logging:base.py:102 Frame advanced, resetting header!!
DEBUG   2025-08-29 09:04:20,364  pymodbus.logging:transaction.py:67 Adding transaction 0
DEBUG   2025-08-29 09:04:20,364  pymodbus.logging:transaction.py:78 Getting transaction 0
DEBUG   2025-08-29 09:04:20,364  pymodbus.logging:transaction.py:258 Changing transaction state from "PROCESSING REPLY" to "TRANSACTION_COMPLETE"
INFO    2025-08-29 09:04:20,364  root:modbus_rtu_tcp.py:44 read_measurement ret is:ReadHoldingRegistersResponse (2)
INFO    2025-08-29 09:04:20,364  root:acudc260_modbus_get.py:145 read i1_current ret is:[16134, 46912]
DEBUG   2025-08-29 09:04:20,364  pymodbus.logging:transaction.py:184 Current transaction state - TRANSACTION_COMPLETE
DEBUG   2025-08-29 09:04:20,364  pymodbus.logging:transaction.py:193 Running transaction 0
DEBUG   2025-08-29 09:04:20,364  pymodbus.logging:transaction.py:293 SEND: 0x1 0x3 0x30 0x4 0x0 0x2 0x8a 0xca
DEBUG   2025-08-29 09:04:20,364  pymodbus.logging:serial.py:271 Changing state to IDLE - Last Frame End - 1756429460.364387 Current Time stamp - 1756429460.364387
DEBUG   2025-08-29 09:04:20,364  pymodbus.logging:serial.py:279 Waiting for 3.5 char before next send - 1.823 ms
DEBUG   2025-08-29 09:04:20,367  pymodbus.logging:base.py:250 New Transaction state "SENDING"
DEBUG   2025-08-29 09:04:20,367  pymodbus.logging:transaction.py:317 Changing transaction state from "SENDING" to "WAITING FOR REPLY"
DEBUG   2025-08-29 09:04:20,397  pymodbus.logging:transaction.py:419 Changing transaction state from "WAITING FOR REPLY" to "PROCESSING REPLY"
DEBUG   2025-08-29 09:04:20,397  pymodbus.logging:transaction.py:324 RECV: 0x1 0x3 0x4 0x3f 0xa 0xf 0x95 0x13 0xba
DEBUG   2025-08-29 09:04:20,397  pymodbus.logging:base.py:92 Processing: 0x1 0x3 0x4 0x3f 0xa 0xf 0x95 0x13 0xba
DEBUG   2025-08-29 09:04:20,397  pymodbus.logging:decoders.py:103 decode PDU for 3
DEBUG   2025-08-29 09:04:20,397  pymodbus.logging:base.py:102 Frame advanced, resetting header!!
DEBUG   2025-08-29 09:04:20,397  pymodbus.logging:transaction.py:67 Adding transaction 0
DEBUG   2025-08-29 09:04:20,397  pymodbus.logging:transaction.py:78 Getting transaction 0
DEBUG   2025-08-29 09:04:20,397  pymodbus.logging:transaction.py:258 Changing transaction state from "PROCESSING REPLY" to "TRANSACTION_COMPLETE"
INFO    2025-08-29 09:04:20,397  root:modbus_rtu_tcp.py:44 read_measurement ret is:ReadHoldingRegistersResponse (2)
INFO    2025-08-29 09:04:20,397  root:acudc260_modbus_get.py:159 read i2_current ret is:[16138, 3989]
DEBUG   2025-08-29 09:04:20,397  pymodbus.logging:transaction.py:184 Current transaction state - TRANSACTION_COMPLETE
DEBUG   2025-08-29 09:04:20,397  pymodbus.logging:transaction.py:193 Running transaction 0
DEBUG   2025-08-29 09:04:20,397  pymodbus.logging:transaction.py:293 SEND: 0x1 0x3 0x30 0x6 0x0 0x2 0x2b 0xa
DEBUG   2025-08-29 09:04:20,397  pymodbus.logging:serial.py:271 Changing state to IDLE - Last Frame End - 1756429460.397381 Current Time stamp - 1756429460.397381
DEBUG   2025-08-29 09:04:20,397  pymodbus.logging:serial.py:279 Waiting for 3.5 char before next send - 1.823 ms
DEBUG   2025-08-29 09:04:20,400  pymodbus.logging:base.py:250 New Transaction state "SENDING"
DEBUG   2025-08-29 09:04:20,400  pymodbus.logging:transaction.py:317 Changing transaction state from "SENDING" to "WAITING FOR REPLY"
DEBUG   2025-08-29 09:04:20,429  pymodbus.logging:transaction.py:419 Changing transaction state from "WAITING FOR REPLY" to "PROCESSING REPLY"
DEBUG   2025-08-29 09:04:20,429  pymodbus.logging:transaction.py:324 RECV: 0x1 0x3 0x4 0x3f 0x88 0xbb 0x92 0x85 0x50
DEBUG   2025-08-29 09:04:20,429  pymodbus.logging:base.py:92 Processing: 0x1 0x3 0x4 0x3f 0x88 0xbb 0x92 0x85 0x50
DEBUG   2025-08-29 09:04:20,429  pymodbus.logging:decoders.py:103 decode PDU for 3
DEBUG   2025-08-29 09:04:20,429  pymodbus.logging:base.py:102 Frame advanced, resetting header!!
DEBUG   2025-08-29 09:04:20,429  pymodbus.logging:transaction.py:67 Adding transaction 0
DEBUG   2025-08-29 09:04:20,429  pymodbus.logging:transaction.py:78 Getting transaction 0
DEBUG   2025-08-29 09:04:20,429  pymodbus.logging:transaction.py:258 Changing transaction state from "PROCESSING REPLY" to "TRANSACTION_COMPLETE"
INFO    2025-08-29 09:04:20,429  root:modbus_rtu_tcp.py:44 read_measurement ret is:ReadHoldingRegistersResponse (2)
INFO    2025-08-29 09:04:20,429  root:acudc260_modbus_get.py:173 read i_sum_current ret is:[16264, 48018]
DEBUG   2025-08-29 09:04:20,429  pymodbus.logging:transaction.py:184 Current transaction state - TRANSACTION_COMPLETE
DEBUG   2025-08-29 09:04:20,429  pymodbus.logging:transaction.py:193 Running transaction 0
DEBUG   2025-08-29 09:04:20,429  pymodbus.logging:transaction.py:293 SEND: 0x1 0x3 0x30 0x8 0x0 0x2 0x4a 0xc9
DEBUG   2025-08-29 09:04:20,429  pymodbus.logging:serial.py:271 Changing state to IDLE - Last Frame End - 1756429460.429836 Current Time stamp - 1756429460.429836
DEBUG   2025-08-29 09:04:20,429  pymodbus.logging:serial.py:279 Waiting for 3.5 char before next send - 1.823 ms
DEBUG   2025-08-29 09:04:20,432  pymodbus.logging:base.py:250 New Transaction state "SENDING"
DEBUG   2025-08-29 09:04:20,432  pymodbus.logging:transaction.py:317 Changing transaction state from "SENDING" to "WAITING FOR REPLY"
DEBUG   2025-08-29 09:04:20,459  pymodbus.logging:transaction.py:419 Changing transaction state from "WAITING FOR REPLY" to "PROCESSING REPLY"
DEBUG   2025-08-29 09:04:20,459  pymodbus.logging:transaction.py:324 RECV: 0x1 0x3 0x4 0x3d 0x1 0xfb 0x3c 0xe5 0x7e
DEBUG   2025-08-29 09:04:20,459  pymodbus.logging:base.py:92 Processing: 0x1 0x3 0x4 0x3d 0x1 0xfb 0x3c 0xe5 0x7e
DEBUG   2025-08-29 09:04:20,459  pymodbus.logging:decoders.py:103 decode PDU for 3
DEBUG   2025-08-29 09:04:20,459  pymodbus.logging:base.py:102 Frame advanced, resetting header!!
DEBUG   2025-08-29 09:04:20,459  pymodbus.logging:transaction.py:67 Adding transaction 0
DEBUG   2025-08-29 09:04:20,459  pymodbus.logging:transaction.py:78 Getting transaction 0
DEBUG   2025-08-29 09:04:20,459  pymodbus.logging:transaction.py:258 Changing transaction state from "PROCESSING REPLY" to "TRANSACTION_COMPLETE"
INFO    2025-08-29 09:04:20,459  root:modbus_rtu_tcp.py:44 read_measurement ret is:ReadHoldingRegistersResponse (2)
INFO    2025-08-29 09:04:20,459  root:acudc260_modbus_get.py:187 read p1_power ret is:[15617, 64316]
DEBUG   2025-08-29 09:04:20,459  pymodbus.logging:transaction.py:184 Current transaction state - TRANSACTION_COMPLETE
DEBUG   2025-08-29 09:04:20,459  pymodbus.logging:transaction.py:193 Running transaction 0
DEBUG   2025-08-29 09:04:20,459  pymodbus.logging:transaction.py:293 SEND: 0x1 0x3 0x30 0xa 0x0 0x2 0xeb 0x9
DEBUG   2025-08-29 09:04:20,459  pymodbus.logging:serial.py:271 Changing state to IDLE - Last Frame End - 1756429460.459776 Current Time stamp - 1756429460.459776
DEBUG   2025-08-29 09:04:20,459  pymodbus.logging:serial.py:279 Waiting for 3.5 char before next send - 1.823 ms
DEBUG   2025-08-29 09:04:20,462  pymodbus.logging:base.py:250 New Transaction state "SENDING"
DEBUG   2025-08-29 09:04:20,463  pymodbus.logging:transaction.py:317 Changing transaction state from "SENDING" to "WAITING FOR REPLY"
DEBUG   2025-08-29 09:04:20,493  pymodbus.logging:transaction.py:419 Changing transaction state from "WAITING FOR REPLY" to "PROCESSING REPLY"
DEBUG   2025-08-29 09:04:20,493  pymodbus.logging:transaction.py:324 RECV: 0x1 0x3 0x4 0x3d 0x4 0x86 0xa8 0xd5 0x80
DEBUG   2025-08-29 09:04:20,493  pymodbus.logging:base.py:92 Processing: 0x1 0x3 0x4 0x3d 0x4 0x86 0xa8 0xd5 0x80
DEBUG   2025-08-29 09:04:20,493  pymodbus.logging:decoders.py:103 decode PDU for 3
DEBUG   2025-08-29 09:04:20,493  pymodbus.logging:base.py:102 Frame advanced, resetting header!!
DEBUG   2025-08-29 09:04:20,493  pymodbus.logging:transaction.py:67 Adding transaction 0
DEBUG   2025-08-29 09:04:20,493  pymodbus.logging:transaction.py:78 Getting transaction 0
DEBUG   2025-08-29 09:04:20,493  pymodbus.logging:transaction.py:258 Changing transaction state from "PROCESSING REPLY" to "TRANSACTION_COMPLETE"
INFO    2025-08-29 09:04:20,493  root:modbus_rtu_tcp.py:44 read_measurement ret is:ReadHoldingRegistersResponse (2)
INFO    2025-08-29 09:04:20,493  root:acudc260_modbus_get.py:201 read p2_power ret is:[15620, 34472]
DEBUG   2025-08-29 09:04:20,493  pymodbus.logging:transaction.py:184 Current transaction state - TRANSACTION_COMPLETE
DEBUG   2025-08-29 09:04:20,493  pymodbus.logging:transaction.py:193 Running transaction 0
DEBUG   2025-08-29 09:04:20,493  pymodbus.logging:transaction.py:293 SEND: 0x1 0x3 0x30 0xc 0x0 0x2 0xb 0x8
DEBUG   2025-08-29 09:04:20,493  pymodbus.logging:serial.py:271 Changing state to IDLE - Last Frame End - 1756429460.493567 Current Time stamp - 1756429460.493567
DEBUG   2025-08-29 09:04:20,494  pymodbus.logging:serial.py:279 Waiting for 3.5 char before next send - 1.823 ms
DEBUG   2025-08-29 09:04:20,496  pymodbus.logging:base.py:250 New Transaction state "SENDING"
DEBUG   2025-08-29 09:04:20,497  pymodbus.logging:transaction.py:317 Changing transaction state from "SENDING" to "WAITING FOR REPLY"
DEBUG   2025-08-29 09:04:20,525  pymodbus.logging:transaction.py:419 Changing transaction state from "WAITING FOR REPLY" to "PROCESSING REPLY"
DEBUG   2025-08-29 09:04:20,525  pymodbus.logging:transaction.py:324 RECV: 0x1 0x3 0x4 0x3d 0x80 0x8d 0x34 0x92 0xf0
DEBUG   2025-08-29 09:04:20,525  pymodbus.logging:base.py:92 Processing: 0x1 0x3 0x4 0x3d 0x80 0x8d 0x34 0x92 0xf0
DEBUG   2025-08-29 09:04:20,525  pymodbus.logging:decoders.py:103 decode PDU for 3
DEBUG   2025-08-29 09:04:20,525  pymodbus.logging:base.py:102 Frame advanced, resetting header!!
DEBUG   2025-08-29 09:04:20,525  pymodbus.logging:transaction.py:67 Adding transaction 0
DEBUG   2025-08-29 09:04:20,525  pymodbus.logging:transaction.py:78 Getting transaction 0
DEBUG   2025-08-29 09:04:20,525  pymodbus.logging:transaction.py:258 Changing transaction state from "PROCESSING REPLY" to "TRANSACTION_COMPLETE"
INFO    2025-08-29 09:04:20,525  root:modbus_rtu_tcp.py:44 read_measurement ret is:ReadHoldingRegistersResponse (2)
INFO    2025-08-29 09:04:20,525  root:acudc260_modbus_get.py:215 read p_sum_power ret is:[15744, 36148]
DEBUG   2025-08-29 09:04:20,626  pymodbus.logging:transaction.py:184 Current transaction state - TRANSACTION_COMPLETE
DEBUG   2025-08-29 09:04:20,626  pymodbus.logging:transaction.py:193 Running transaction 0
DEBUG   2025-08-29 09:04:20,626  pymodbus.logging:transaction.py:293 SEND: 0x1 0x3 0x30 0x0 0x0 0x2 0xcb 0xb
DEBUG   2025-08-29 09:04:20,626  pymodbus.logging:serial.py:271 Changing state to IDLE - Last Frame End - 1756429460.525895 Current Time stamp - 1756429460.626875
DEBUG   2025-08-29 09:04:20,626  pymodbus.logging:base.py:250 New Transaction state "SENDING"
DEBUG   2025-08-29 09:04:20,627  pymodbus.logging:transaction.py:317 Changing transaction state from "SENDING" to "WAITING FOR REPLY"
DEBUG   2025-08-29 09:04:20,652  pymodbus.logging:transaction.py:419 Changing transaction state from "WAITING FOR REPLY" to "PROCESSING REPLY"
DEBUG   2025-08-29 09:04:20,652  pymodbus.logging:transaction.py:324 RECV: 0x1 0x3 0x4 0x42 0x6f 0xfc 0xd7 0xdf 0x8
DEBUG   2025-08-29 09:04:20,652  pymodbus.logging:base.py:92 Processing: 0x1 0x3 0x4 0x42 0x6f 0xfc 0xd7 0xdf 0x8
DEBUG   2025-08-29 09:04:20,652  pymodbus.logging:decoders.py:103 decode PDU for 3
DEBUG   2025-08-29 09:04:20,652  pymodbus.logging:base.py:102 Frame advanced, resetting header!!
DEBUG   2025-08-29 09:04:20,652  pymodbus.logging:transaction.py:67 Adding transaction 0
DEBUG   2025-08-29 09:04:20,652  pymodbus.logging:transaction.py:78 Getting transaction 0
DEBUG   2025-08-29 09:04:20,652  pymodbus.logging:transaction.py:258 Changing transaction state from "PROCESSING REPLY" to "TRANSACTION_COMPLETE"
INFO    2025-08-29 09:04:20,652  root:modbus_rtu_tcp.py:44 read_measurement ret is:ReadHoldingRegistersResponse (2)
INFO    2025-08-29 09:04:20,652  root:acudc260_modbus_get.py:131 read u_voltage ret is:[17007, 64727]
DEBUG   2025-08-29 09:04:20,653  pymodbus.logging:transaction.py:184 Current transaction state - TRANSACTION_COMPLETE
DEBUG   2025-08-29 09:04:20,653  pymodbus.logging:transaction.py:193 Running transaction 0
DEBUG   2025-08-29 09:04:20,653  pymodbus.logging:transaction.py:293 SEND: 0x1 0x3 0x30 0x2 0x0 0x2 0x6a 0xcb
DEBUG   2025-08-29 09:04:20,653  pymodbus.logging:serial.py:271 Changing state to IDLE - Last Frame End - 1756429460.652553 Current Time stamp - 1756429460.65366
DEBUG   2025-08-29 09:04:20,653  pymodbus.logging:serial.py:279 Waiting for 3.5 char before next send - 1.823 ms
DEBUG   2025-08-29 09:04:20,656  pymodbus.logging:base.py:250 New Transaction state "SENDING"
DEBUG   2025-08-29 09:04:20,656  pymodbus.logging:transaction.py:317 Changing transaction state from "SENDING" to "WAITING FOR REPLY"
DEBUG   2025-08-29 09:04:20,684  pymodbus.logging:transaction.py:419 Changing transaction state from "WAITING FOR REPLY" to "PROCESSING REPLY"
DEBUG   2025-08-29 09:04:20,684  pymodbus.logging:transaction.py:324 RECV: 0x1 0x3 0x4 0x3f 0x9 0x49 0xd8 0x11 0xef
DEBUG   2025-08-29 09:04:20,684  pymodbus.logging:base.py:92 Processing: 0x1 0x3 0x4 0x3f 0x9 0x49 0xd8 0x11 0xef
DEBUG   2025-08-29 09:04:20,684  pymodbus.logging:decoders.py:103 decode PDU for 3
DEBUG   2025-08-29 09:04:20,684  pymodbus.logging:base.py:102 Frame advanced, resetting header!!
DEBUG   2025-08-29 09:04:20,684  pymodbus.logging:transaction.py:67 Adding transaction 0
DEBUG   2025-08-29 09:04:20,684  pymodbus.logging:transaction.py:78 Getting transaction 0
DEBUG   2025-08-29 09:04:20,684  pymodbus.logging:transaction.py:258 Changing transaction state from "PROCESSING REPLY" to "TRANSACTION_COMPLETE"
INFO    2025-08-29 09:04:20,684  root:modbus_rtu_tcp.py:44 read_measurement ret is:ReadHoldingRegistersResponse (2)
INFO    2025-08-29 09:04:20,684  root:acudc260_modbus_get.py:145 read i1_current ret is:[16137, 18904]
DEBUG   2025-08-29 09:04:20,684  pymodbus.logging:transaction.py:184 Current transaction state - TRANSACTION_COMPLETE
DEBUG   2025-08-29 09:04:20,684  pymodbus.logging:transaction.py:193 Running transaction 0
DEBUG   2025-08-29 09:04:20,684  pymodbus.logging:transaction.py:293 SEND: 0x1 0x3 0x30 0x4 0x0 0x2 0x8a 0xca
DEBUG   2025-08-29 09:04:20,684  pymodbus.logging:serial.py:271 Changing state to IDLE - Last Frame End - 1756429460.684621 Current Time stamp - 1756429460.684621
DEBUG   2025-08-29 09:04:20,685  pymodbus.logging:serial.py:279 Waiting for 3.5 char before next send - 1.823 ms
DEBUG   2025-08-29 09:04:20,687  pymodbus.logging:base.py:250 New Transaction state "SENDING"
DEBUG   2025-08-29 09:04:20,688  pymodbus.logging:transaction.py:317 Changing transaction state from "SENDING" to "WAITING FOR REPLY"
DEBUG   2025-08-29 09:04:20,717  pymodbus.logging:transaction.py:419 Changing transaction state from "WAITING FOR REPLY" to "PROCESSING REPLY"
DEBUG   2025-08-29 09:04:20,717  pymodbus.logging:transaction.py:324 RECV: 0x1 0x3 0x4 0x3f 0x3 0x24 0xb3 0x5c 0x92
DEBUG   2025-08-29 09:04:20,717  pymodbus.logging:base.py:92 Processing: 0x1 0x3 0x4 0x3f 0x3 0x24 0xb3 0x5c 0x92
DEBUG   2025-08-29 09:04:20,717  pymodbus.logging:decoders.py:103 decode PDU for 3
DEBUG   2025-08-29 09:04:20,717  pymodbus.logging:base.py:102 Frame advanced, resetting header!!
DEBUG   2025-08-29 09:04:20,717  pymodbus.logging:transaction.py:67 Adding transaction 0
DEBUG   2025-08-29 09:04:20,717  pymodbus.logging:transaction.py:78 Getting transaction 0
DEBUG   2025-08-29 09:04:20,717  pymodbus.logging:transaction.py:258 Changing transaction state from "PROCESSING REPLY" to "TRANSACTION_COMPLETE"
INFO    2025-08-29 09:04:20,717  root:modbus_rtu_tcp.py:44 read_measurement ret is:ReadHoldingRegistersResponse (2)
INFO    2025-08-29 09:04:20,717  root:acudc260_modbus_get.py:159 read i2_current ret is:[16131, 9395]
DEBUG   2025-08-29 09:04:20,717  pymodbus.logging:transaction.py:184 Current transaction state - TRANSACTION_COMPLETE
DEBUG   2025-08-29 09:04:20,717  pymodbus.logging:transaction.py:193 Running transaction 0
DEBUG   2025-08-29 09:04:20,717  pymodbus.logging:transaction.py:293 SEND: 0x1 0x3 0x30 0x6 0x0 0x2 0x2b 0xa
DEBUG   2025-08-29 09:04:20,717  pymodbus.logging:serial.py:271 Changing state to IDLE - Last Frame End - 1756429460.717056 Current Time stamp - 1756429460.717667
DEBUG   2025-08-29 09:04:20,717  pymodbus.logging:serial.py:279 Waiting for 3.5 char before next send - 1.823 ms
DEBUG   2025-08-29 09:04:20,720  pymodbus.logging:base.py:250 New Transaction state "SENDING"
DEBUG   2025-08-29 09:04:20,720  pymodbus.logging:transaction.py:317 Changing transaction state from "SENDING" to "WAITING FOR REPLY"
DEBUG   2025-08-29 09:04:20,748  pymodbus.logging:transaction.py:419 Changing transaction state from "WAITING FOR REPLY" to "PROCESSING REPLY"
DEBUG   2025-08-29 09:04:20,748  pymodbus.logging:transaction.py:324 RECV: 0x1 0x3 0x4 0x3f 0x81 0xf6 0xdf 0xa0 0x37
DEBUG   2025-08-29 09:04:20,748  pymodbus.logging:base.py:92 Processing: 0x1 0x3 0x4 0x3f 0x81 0xf6 0xdf 0xa0 0x37
DEBUG   2025-08-29 09:04:20,748  pymodbus.logging:decoders.py:103 decode PDU for 3
DEBUG   2025-08-29 09:04:20,748  pymodbus.logging:base.py:102 Frame advanced, resetting header!!
DEBUG   2025-08-29 09:04:20,748  pymodbus.logging:transaction.py:67 Adding transaction 0
DEBUG   2025-08-29 09:04:20,748  pymodbus.logging:transaction.py:78 Getting transaction 0
DEBUG   2025-08-29 09:04:20,748  pymodbus.logging:transaction.py:258 Changing transaction state from "PROCESSING REPLY" to "TRANSACTION_COMPLETE"
INFO    2025-08-29 09:04:20,748  root:modbus_rtu_tcp.py:44 read_measurement ret is:ReadHoldingRegistersResponse (2)
INFO    2025-08-29 09:04:20,748  root:acudc260_modbus_get.py:173 read i_sum_current ret is:[16257, 63199]
DEBUG   2025-08-29 09:04:20,748  pymodbus.logging:transaction.py:184 Current transaction state - TRANSACTION_COMPLETE
DEBUG   2025-08-29 09:04:20,748  pymodbus.logging:transaction.py:193 Running transaction 0
DEBUG   2025-08-29 09:04:20,748  pymodbus.logging:transaction.py:293 SEND: 0x1 0x3 0x30 0x8 0x0 0x2 0x4a 0xc9
DEBUG   2025-08-29 09:04:20,749  pymodbus.logging:serial.py:271 Changing state to IDLE - Last Frame End - 1756429460.748478 Current Time stamp - 1756429460.748478
DEBUG   2025-08-29 09:04:20,749  pymodbus.logging:serial.py:279 Waiting for 3.5 char before next send - 1.823 ms
DEBUG   2025-08-29 09:04:20,751  pymodbus.logging:base.py:250 New Transaction state "SENDING"
DEBUG   2025-08-29 09:04:20,752  pymodbus.logging:transaction.py:317 Changing transaction state from "SENDING" to "WAITING FOR REPLY"
DEBUG   2025-08-29 09:04:20,782  pymodbus.logging:transaction.py:419 Changing transaction state from "WAITING FOR REPLY" to "PROCESSING REPLY"
DEBUG   2025-08-29 09:04:20,782  pymodbus.logging:transaction.py:324 RECV: 0x1 0x3 0x4 0x3c 0xf7 0x46 0xcc 0x75 0xa4
DEBUG   2025-08-29 09:04:20,782  pymodbus.logging:base.py:92 Processing: 0x1 0x3 0x4 0x3c 0xf7 0x46 0xcc 0x75 0xa4
DEBUG   2025-08-29 09:04:20,782  pymodbus.logging:decoders.py:103 decode PDU for 3
DEBUG   2025-08-29 09:04:20,782  pymodbus.logging:base.py:102 Frame advanced, resetting header!!
DEBUG   2025-08-29 09:04:20,782  pymodbus.logging:transaction.py:67 Adding transaction 0
DEBUG   2025-08-29 09:04:20,782  pymodbus.logging:transaction.py:78 Getting transaction 0
DEBUG   2025-08-29 09:04:20,782  pymodbus.logging:transaction.py:258 Changing transaction state from "PROCESSING REPLY" to "TRANSACTION_COMPLETE"
INFO    2025-08-29 09:04:20,782  root:modbus_rtu_tcp.py:44 read_measurement ret is:ReadHoldingRegistersResponse (2)
INFO    2025-08-29 09:04:20,782  root:acudc260_modbus_get.py:187 read p1_power ret is:[15607, 18124]
DEBUG   2025-08-29 09:04:20,782  pymodbus.logging:transaction.py:184 Current transaction state - TRANSACTION_COMPLETE
DEBUG   2025-08-29 09:04:20,782  pymodbus.logging:transaction.py:193 Running transaction 0
DEBUG   2025-08-29 09:04:20,782  pymodbus.logging:transaction.py:293 SEND: 0x1 0x3 0x30 0xa 0x0 0x2 0xeb 0x9
DEBUG   2025-08-29 09:04:20,782  pymodbus.logging:serial.py:271 Changing state to IDLE - Last Frame End - 1756429460.78233 Current Time stamp - 1756429460.78233
DEBUG   2025-08-29 09:04:20,782  pymodbus.logging:serial.py:279 Waiting for 3.5 char before next send - 1.823 ms
DEBUG   2025-08-29 09:04:20,785  pymodbus.logging:base.py:250 New Transaction state "SENDING"
DEBUG   2025-08-29 09:04:20,785  pymodbus.logging:transaction.py:317 Changing transaction state from "SENDING" to "WAITING FOR REPLY"
DEBUG   2025-08-29 09:04:20,813  pymodbus.logging:transaction.py:419 Changing transaction state from "WAITING FOR REPLY" to "PROCESSING REPLY"
DEBUG   2025-08-29 09:04:20,813  pymodbus.logging:transaction.py:324 RECV: 0x1 0x3 0x4 0x3d 0x0 0xb2 0x0 0x83 0x3f
DEBUG   2025-08-29 09:04:20,813  pymodbus.logging:base.py:92 Processing: 0x1 0x3 0x4 0x3d 0x0 0xb2 0x0 0x83 0x3f
DEBUG   2025-08-29 09:04:20,813  pymodbus.logging:decoders.py:103 decode PDU for 3
DEBUG   2025-08-29 09:04:20,813  pymodbus.logging:base.py:102 Frame advanced, resetting header!!
DEBUG   2025-08-29 09:04:20,813  pymodbus.logging:transaction.py:67 Adding transaction 0
DEBUG   2025-08-29 09:04:20,813  pymodbus.logging:transaction.py:78 Getting transaction 0
DEBUG   2025-08-29 09:04:20,813  pymodbus.logging:transaction.py:258 Changing transaction state from "PROCESSING REPLY" to "TRANSACTION_COMPLETE"
INFO    2025-08-29 09:04:20,813  root:modbus_rtu_tcp.py:44 read_measurement ret is:ReadHoldingRegistersResponse (2)
INFO    2025-08-29 09:04:20,813  root:acudc260_modbus_get.py:201 read p2_power ret is:[15616, 45568]
DEBUG   2025-08-29 09:04:20,813  pymodbus.logging:transaction.py:184 Current transaction state - TRANSACTION_COMPLETE
DEBUG   2025-08-29 09:04:20,813  pymodbus.logging:transaction.py:193 Running transaction 0
DEBUG   2025-08-29 09:04:20,813  pymodbus.logging:transaction.py:293 SEND: 0x1 0x3 0x30 0xc 0x0 0x2 0xb 0x8
DEBUG   2025-08-29 09:04:20,814  pymodbus.logging:serial.py:271 Changing state to IDLE - Last Frame End - 1756429460.813488 Current Time stamp - 1756429460.814597
DEBUG   2025-08-29 09:04:20,814  pymodbus.logging:serial.py:279 Waiting for 3.5 char before next send - 1.823 ms
DEBUG   2025-08-29 09:04:20,817  pymodbus.logging:base.py:250 New Transaction state "SENDING"
DEBUG   2025-08-29 09:04:20,817  pymodbus.logging:transaction.py:317 Changing transaction state from "SENDING" to "WAITING FOR REPLY"
DEBUG   2025-08-29 09:04:20,844  pymodbus.logging:transaction.py:419 Changing transaction state from "WAITING FOR REPLY" to "PROCESSING REPLY"
DEBUG   2025-08-29 09:04:20,844  pymodbus.logging:transaction.py:324 RECV: 0x1 0x3 0x4 0x3d 0x80 0xb6 0xa9 0x40 0x69
DEBUG   2025-08-29 09:04:20,844  pymodbus.logging:base.py:92 Processing: 0x1 0x3 0x4 0x3d 0x80 0xb6 0xa9 0x40 0x69
DEBUG   2025-08-29 09:04:20,844  pymodbus.logging:decoders.py:103 decode PDU for 3
DEBUG   2025-08-29 09:04:20,844  pymodbus.logging:base.py:102 Frame advanced, resetting header!!
DEBUG   2025-08-29 09:04:20,844  pymodbus.logging:transaction.py:67 Adding transaction 0
DEBUG   2025-08-29 09:04:20,844  pymodbus.logging:transaction.py:78 Getting transaction 0
DEBUG   2025-08-29 09:04:20,844  pymodbus.logging:transaction.py:258 Changing transaction state from "PROCESSING REPLY" to "TRANSACTION_COMPLETE"
INFO    2025-08-29 09:04:20,844  root:modbus_rtu_tcp.py:44 read_measurement ret is:ReadHoldingRegistersResponse (2)
INFO    2025-08-29 09:04:20,844  root:acudc260_modbus_get.py:215 read p_sum_power ret is:[15744, 46761]
DEBUG   2025-08-29 09:04:20,945  pymodbus.logging:transaction.py:184 Current transaction state - TRANSACTION_COMPLETE
DEBUG   2025-08-29 09:04:20,945  pymodbus.logging:transaction.py:193 Running transaction 0
DEBUG   2025-08-29 09:04:20,945  pymodbus.logging:transaction.py:293 SEND: 0x1 0x3 0x30 0x0 0x0 0x2 0xcb 0xb
DEBUG   2025-08-29 09:04:20,945  pymodbus.logging:serial.py:271 Changing state to IDLE - Last Frame End - 1756429460.844464 Current Time stamp - 1756429460.945421
DEBUG   2025-08-29 09:04:20,945  pymodbus.logging:base.py:250 New Transaction state "SENDING"
DEBUG   2025-08-29 09:04:20,945  pymodbus.logging:transaction.py:317 Changing transaction state from "SENDING" to "WAITING FOR REPLY"
DEBUG   2025-08-29 09:04:20,974  pymodbus.logging:transaction.py:419 Changing transaction state from "WAITING FOR REPLY" to "PROCESSING REPLY"
DEBUG   2025-08-29 09:04:20,974  pymodbus.logging:transaction.py:324 RECV: 0x1 0x3 0x4 0x42 0x6f 0xfb 0x39 0x5d 0x74
DEBUG   2025-08-29 09:04:20,974  pymodbus.logging:base.py:92 Processing: 0x1 0x3 0x4 0x42 0x6f 0xfb 0x39 0x5d 0x74
DEBUG   2025-08-29 09:04:20,974  pymodbus.logging:decoders.py:103 decode PDU for 3
DEBUG   2025-08-29 09:04:20,974  pymodbus.logging:base.py:102 Frame advanced, resetting header!!
DEBUG   2025-08-29 09:04:20,974  pymodbus.logging:transaction.py:67 Adding transaction 0
DEBUG   2025-08-29 09:04:20,974  pymodbus.logging:transaction.py:78 Getting transaction 0
DEBUG   2025-08-29 09:04:20,974  pymodbus.logging:transaction.py:258 Changing transaction state from "PROCESSING REPLY" to "TRANSACTION_COMPLETE"
INFO    2025-08-29 09:04:20,974  root:modbus_rtu_tcp.py:44 read_measurement ret is:ReadHoldingRegistersResponse (2)
INFO    2025-08-29 09:04:20,974  root:acudc260_modbus_get.py:131 read u_voltage ret is:[17007, 64313]
DEBUG   2025-08-29 09:04:20,974  pymodbus.logging:transaction.py:184 Current transaction state - TRANSACTION_COMPLETE
DEBUG   2025-08-29 09:04:20,974  pymodbus.logging:transaction.py:193 Running transaction 0
DEBUG   2025-08-29 09:04:20,974  pymodbus.logging:transaction.py:293 SEND: 0x1 0x3 0x30 0x2 0x0 0x2 0x6a 0xcb
DEBUG   2025-08-29 09:04:20,974  pymodbus.logging:serial.py:271 Changing state to IDLE - Last Frame End - 1756429460.974584 Current Time stamp - 1756429460.974584
DEBUG   2025-08-29 09:04:20,974  pymodbus.logging:serial.py:279 Waiting for 3.5 char before next send - 1.823 ms
DEBUG   2025-08-29 09:04:20,977  pymodbus.logging:base.py:250 New Transaction state "SENDING"
DEBUG   2025-08-29 09:04:20,977  pymodbus.logging:transaction.py:317 Changing transaction state from "SENDING" to "WAITING FOR REPLY"
DEBUG   2025-08-29 09:04:21,004  pymodbus.logging:transaction.py:419 Changing transaction state from "WAITING FOR REPLY" to "PROCESSING REPLY"
DEBUG   2025-08-29 09:04:21,004  pymodbus.logging:transaction.py:324 RECV: 0x1 0x3 0x4 0x3f 0x3 0xa2 0xfb 0x3e 0xc4
DEBUG   2025-08-29 09:04:21,004  pymodbus.logging:base.py:92 Processing: 0x1 0x3 0x4 0x3f 0x3 0xa2 0xfb 0x3e 0xc4
DEBUG   2025-08-29 09:04:21,004  pymodbus.logging:decoders.py:103 decode PDU for 3
DEBUG   2025-08-29 09:04:21,004  pymodbus.logging:base.py:102 Frame advanced, resetting header!!
DEBUG   2025-08-29 09:04:21,004  pymodbus.logging:transaction.py:67 Adding transaction 0
DEBUG   2025-08-29 09:04:21,004  pymodbus.logging:transaction.py:78 Getting transaction 0
DEBUG   2025-08-29 09:04:21,004  pymodbus.logging:transaction.py:258 Changing transaction state from "PROCESSING REPLY" to "TRANSACTION_COMPLETE"
INFO    2025-08-29 09:04:21,004  root:modbus_rtu_tcp.py:44 read_measurement ret is:ReadHoldingRegistersResponse (2)
INFO    2025-08-29 09:04:21,004  root:acudc260_modbus_get.py:145 read i1_current ret is:[16131, 41723]
DEBUG   2025-08-29 09:04:21,004  pymodbus.logging:transaction.py:184 Current transaction state - TRANSACTION_COMPLETE
DEBUG   2025-08-29 09:04:21,004  pymodbus.logging:transaction.py:193 Running transaction 0
DEBUG   2025-08-29 09:04:21,004  pymodbus.logging:transaction.py:293 SEND: 0x1 0x3 0x30 0x4 0x0 0x2 0x8a 0xca
DEBUG   2025-08-29 09:04:21,004  pymodbus.logging:serial.py:271 Changing state to IDLE - Last Frame End - 1756429461.004068 Current Time stamp - 1756429461.004068
DEBUG   2025-08-29 09:04:21,004  pymodbus.logging:serial.py:279 Waiting for 3.5 char before next send - 1.823 ms
DEBUG   2025-08-29 09:04:21,006  pymodbus.logging:base.py:250 New Transaction state "SENDING"
DEBUG   2025-08-29 09:04:21,006  pymodbus.logging:transaction.py:317 Changing transaction state from "SENDING" to "WAITING FOR REPLY"
DEBUG   2025-08-29 09:04:21,035  pymodbus.logging:transaction.py:419 Changing transaction state from "WAITING FOR REPLY" to "PROCESSING REPLY"
DEBUG   2025-08-29 09:04:21,035  pymodbus.logging:transaction.py:324 RECV: 0x1 0x3 0x4 0x3f 0x4 0x3 0x90 0xb7 0x7a
DEBUG   2025-08-29 09:04:21,035  pymodbus.logging:base.py:92 Processing: 0x1 0x3 0x4 0x3f 0x4 0x3 0x90 0xb7 0x7a
DEBUG   2025-08-29 09:04:21,035  pymodbus.logging:decoders.py:103 decode PDU for 3
DEBUG   2025-08-29 09:04:21,035  pymodbus.logging:base.py:102 Frame advanced, resetting header!!
DEBUG   2025-08-29 09:04:21,035  pymodbus.logging:transaction.py:67 Adding transaction 0
DEBUG   2025-08-29 09:04:21,035  pymodbus.logging:transaction.py:78 Getting transaction 0
DEBUG   2025-08-29 09:04:21,035  pymodbus.logging:transaction.py:258 Changing transaction state from "PROCESSING REPLY" to "TRANSACTION_COMPLETE"
INFO    2025-08-29 09:04:21,035  root:modbus_rtu_tcp.py:44 read_measurement ret is:ReadHoldingRegistersResponse (2)
INFO    2025-08-29 09:04:21,035  root:acudc260_modbus_get.py:159 read i2_current ret is:[16132, 912]
DEBUG   2025-08-29 09:04:21,035  pymodbus.logging:transaction.py:184 Current transaction state - TRANSACTION_COMPLETE
DEBUG   2025-08-29 09:04:21,035  pymodbus.logging:transaction.py:193 Running transaction 0
DEBUG   2025-08-29 09:04:21,035  pymodbus.logging:transaction.py:293 SEND: 0x1 0x3 0x30 0x6 0x0 0x2 0x2b 0xa
DEBUG   2025-08-29 09:04:21,035  pymodbus.logging:serial.py:271 Changing state to IDLE - Last Frame End - 1756429461.035667 Current Time stamp - 1756429461.035667
DEBUG   2025-08-29 09:04:21,035  pymodbus.logging:serial.py:279 Waiting for 3.5 char before next send - 1.823 ms
DEBUG   2025-08-29 09:04:21,038  pymodbus.logging:base.py:250 New Transaction state "SENDING"
DEBUG   2025-08-29 09:04:21,038  pymodbus.logging:transaction.py:317 Changing transaction state from "SENDING" to "WAITING FOR REPLY"
DEBUG   2025-08-29 09:04:21,068  pymodbus.logging:transaction.py:419 Changing transaction state from "WAITING FOR REPLY" to "PROCESSING REPLY"
DEBUG   2025-08-29 09:04:21,068  pymodbus.logging:transaction.py:324 RECV: 0x1 0x3 0x4 0x3f 0x83 0xd3 0x46 0xdb 0xd
DEBUG   2025-08-29 09:04:21,068  pymodbus.logging:base.py:92 Processing: 0x1 0x3 0x4 0x3f 0x83 0xd3 0x46 0xdb 0xd
DEBUG   2025-08-29 09:04:21,068  pymodbus.logging:decoders.py:103 decode PDU for 3
DEBUG   2025-08-29 09:04:21,068  pymodbus.logging:base.py:102 Frame advanced, resetting header!!
DEBUG   2025-08-29 09:04:21,068  pymodbus.logging:transaction.py:67 Adding transaction 0
DEBUG   2025-08-29 09:04:21,068  pymodbus.logging:transaction.py:78 Getting transaction 0
DEBUG   2025-08-29 09:04:21,068  pymodbus.logging:transaction.py:258 Changing transaction state from "PROCESSING REPLY" to "TRANSACTION_COMPLETE"
INFO    2025-08-29 09:04:21,068  root:modbus_rtu_tcp.py:44 read_measurement ret is:ReadHoldingRegistersResponse (2)
INFO    2025-08-29 09:04:21,068  root:acudc260_modbus_get.py:173 read i_sum_current ret is:[16259, 54086]
DEBUG   2025-08-29 09:04:21,069  pymodbus.logging:transaction.py:184 Current transaction state - TRANSACTION_COMPLETE
DEBUG   2025-08-29 09:04:21,069  pymodbus.logging:transaction.py:193 Running transaction 0
DEBUG   2025-08-29 09:04:21,069  pymodbus.logging:transaction.py:293 SEND: 0x1 0x3 0x30 0x8 0x0 0x2 0x4a 0xc9
DEBUG   2025-08-29 09:04:21,069  pymodbus.logging:serial.py:271 Changing state to IDLE - Last Frame End - 1756429461.068385 Current Time stamp - 1756429461.069503
DEBUG   2025-08-29 09:04:21,069  pymodbus.logging:serial.py:279 Waiting for 3.5 char before next send - 1.823 ms
DEBUG   2025-08-29 09:04:21,072  pymodbus.logging:base.py:250 New Transaction state "SENDING"
DEBUG   2025-08-29 09:04:21,072  pymodbus.logging:transaction.py:317 Changing transaction state from "SENDING" to "WAITING FOR REPLY"
DEBUG   2025-08-29 09:04:21,100  pymodbus.logging:transaction.py:419 Changing transaction state from "WAITING FOR REPLY" to "PROCESSING REPLY"
DEBUG   2025-08-29 09:04:21,100  pymodbus.logging:transaction.py:324 RECV: 0x1 0x3 0x4 0x3c 0xfd 0x74 0xa0 0x40 0xeb
DEBUG   2025-08-29 09:04:21,100  pymodbus.logging:base.py:92 Processing: 0x1 0x3 0x4 0x3c 0xfd 0x74 0xa0 0x40 0xeb
DEBUG   2025-08-29 09:04:21,100  pymodbus.logging:decoders.py:103 decode PDU for 3
DEBUG   2025-08-29 09:04:21,100  pymodbus.logging:base.py:102 Frame advanced, resetting header!!
DEBUG   2025-08-29 09:04:21,100  pymodbus.logging:transaction.py:67 Adding transaction 0
DEBUG   2025-08-29 09:04:21,100  pymodbus.logging:transaction.py:78 Getting transaction 0
DEBUG   2025-08-29 09:04:21,100  pymodbus.logging:transaction.py:258 Changing transaction state from "PROCESSING REPLY" to "TRANSACTION_COMPLETE"
INFO    2025-08-29 09:04:21,101  root:modbus_rtu_tcp.py:44 read_measurement ret is:ReadHoldingRegistersResponse (2)
INFO    2025-08-29 09:04:21,101  root:acudc260_modbus_get.py:187 read p1_power ret is:[15613, 29856]
DEBUG   2025-08-29 09:04:21,101  pymodbus.logging:transaction.py:184 Current transaction state - TRANSACTION_COMPLETE
DEBUG   2025-08-29 09:04:21,101  pymodbus.logging:transaction.py:193 Running transaction 0
DEBUG   2025-08-29 09:04:21,101  pymodbus.logging:transaction.py:293 SEND: 0x1 0x3 0x30 0xa 0x0 0x2 0xeb 0x9
DEBUG   2025-08-29 09:04:21,101  pymodbus.logging:serial.py:271 Changing state to IDLE - Last Frame End - 1756429461.100605 Current Time stamp - 1756429461.101717
DEBUG   2025-08-29 09:04:21,101  pymodbus.logging:serial.py:279 Waiting for 3.5 char before next send - 1.823 ms
DEBUG   2025-08-29 09:04:21,104  pymodbus.logging:base.py:250 New Transaction state "SENDING"
DEBUG   2025-08-29 09:04:21,104  pymodbus.logging:transaction.py:317 Changing transaction state from "SENDING" to "WAITING FOR REPLY"
DEBUG   2025-08-29 09:04:21,133  pymodbus.logging:transaction.py:419 Changing transaction state from "WAITING FOR REPLY" to "PROCESSING REPLY"
DEBUG   2025-08-29 09:04:21,133  pymodbus.logging:transaction.py:324 RECV: 0x1 0x3 0x4 0x3d 0x5 0xc7 0xf5 0x75 0xe9
DEBUG   2025-08-29 09:04:21,133  pymodbus.logging:base.py:92 Processing: 0x1 0x3 0x4 0x3d 0x5 0xc7 0xf5 0x75 0xe9
DEBUG   2025-08-29 09:04:21,133  pymodbus.logging:decoders.py:103 decode PDU for 3
DEBUG   2025-08-29 09:04:21,133  pymodbus.logging:base.py:102 Frame advanced, resetting header!!
DEBUG   2025-08-29 09:04:21,133  pymodbus.logging:transaction.py:67 Adding transaction 0
DEBUG   2025-08-29 09:04:21,133  pymodbus.logging:transaction.py:78 Getting transaction 0
DEBUG   2025-08-29 09:04:21,133  pymodbus.logging:transaction.py:258 Changing transaction state from "PROCESSING REPLY" to "TRANSACTION_COMPLETE"
INFO    2025-08-29 09:04:21,133  root:modbus_rtu_tcp.py:44 read_measurement ret is:ReadHoldingRegistersResponse (2)
INFO    2025-08-29 09:04:21,134  root:acudc260_modbus_get.py:201 read p2_power ret is:[15621, 51189]
DEBUG   2025-08-29 09:04:21,134  pymodbus.logging:transaction.py:184 Current transaction state - TRANSACTION_COMPLETE
DEBUG   2025-08-29 09:04:21,134  pymodbus.logging:transaction.py:193 Running transaction 0
DEBUG   2025-08-29 09:04:21,134  pymodbus.logging:transaction.py:293 SEND: 0x1 0x3 0x30 0xc 0x0 0x2 0xb 0x8
DEBUG   2025-08-29 09:04:21,134  pymodbus.logging:serial.py:271 Changing state to IDLE - Last Frame End - 1756429461.133976 Current Time stamp - 1756429461.134995
DEBUG   2025-08-29 09:04:21,134  pymodbus.logging:serial.py:279 Waiting for 3.5 char before next send - 1.823 ms
DEBUG   2025-08-29 09:04:21,137  pymodbus.logging:base.py:250 New Transaction state "SENDING"
DEBUG   2025-08-29 09:04:21,137  pymodbus.logging:transaction.py:317 Changing transaction state from "SENDING" to "WAITING FOR REPLY"
DEBUG   2025-08-29 09:04:21,165  pymodbus.logging:transaction.py:419 Changing transaction state from "WAITING FOR REPLY" to "PROCESSING REPLY"
DEBUG   2025-08-29 09:04:21,165  pymodbus.logging:transaction.py:324 RECV: 0x1 0x3 0x4 0x3d 0x82 0x41 0x23 0x26 0x3e
DEBUG   2025-08-29 09:04:21,165  pymodbus.logging:base.py:92 Processing: 0x1 0x3 0x4 0x3d 0x82 0x41 0x23 0x26 0x3e
DEBUG   2025-08-29 09:04:21,165  pymodbus.logging:decoders.py:103 decode PDU for 3
DEBUG   2025-08-29 09:04:21,166  pymodbus.logging:base.py:102 Frame advanced, resetting header!!
DEBUG   2025-08-29 09:04:21,166  pymodbus.logging:transaction.py:67 Adding transaction 0
DEBUG   2025-08-29 09:04:21,166  pymodbus.logging:transaction.py:78 Getting transaction 0
DEBUG   2025-08-29 09:04:21,166  pymodbus.logging:transaction.py:258 Changing transaction state from "PROCESSING REPLY" to "TRANSACTION_COMPLETE"
INFO    2025-08-29 09:04:21,166  root:modbus_rtu_tcp.py:44 read_measurement ret is:ReadHoldingRegistersResponse (2)
INFO    2025-08-29 09:04:21,166  root:acudc260_modbus_get.py:215 read p_sum_power ret is:[15746, 16675]
DEBUG   2025-08-29 09:04:21,266  pymodbus.logging:transaction.py:184 Current transaction state - TRANSACTION_COMPLETE
DEBUG   2025-08-29 09:04:21,266  pymodbus.logging:transaction.py:193 Running transaction 0
DEBUG   2025-08-29 09:04:21,266  pymodbus.logging:transaction.py:293 SEND: 0x1 0x3 0x30 0x0 0x0 0x2 0xcb 0xb
DEBUG   2025-08-29 09:04:21,266  pymodbus.logging:serial.py:271 Changing state to IDLE - Last Frame End - 1756429461.165387 Current Time stamp - 1756429461.266842
DEBUG   2025-08-29 09:04:21,266  pymodbus.logging:base.py:250 New Transaction state "SENDING"
DEBUG   2025-08-29 09:04:21,267  pymodbus.logging:transaction.py:317 Changing transaction state from "SENDING" to "WAITING FOR REPLY"
DEBUG   2025-08-29 09:04:21,293  pymodbus.logging:transaction.py:419 Changing transaction state from "WAITING FOR REPLY" to "PROCESSING REPLY"
DEBUG   2025-08-29 09:04:21,293  pymodbus.logging:transaction.py:324 RECV: 0x1 0x3 0x4 0x42 0x70 0x0 0x20 0xee 0x48
DEBUG   2025-08-29 09:04:21,293  pymodbus.logging:base.py:92 Processing: 0x1 0x3 0x4 0x42 0x70 0x0 0x20 0xee 0x48
DEBUG   2025-08-29 09:04:21,293  pymodbus.logging:decoders.py:103 decode PDU for 3
DEBUG   2025-08-29 09:04:21,293  pymodbus.logging:base.py:102 Frame advanced, resetting header!!
DEBUG   2025-08-29 09:04:21,293  pymodbus.logging:transaction.py:67 Adding transaction 0
DEBUG   2025-08-29 09:04:21,293  pymodbus.logging:transaction.py:78 Getting transaction 0
DEBUG   2025-08-29 09:04:21,293  pymodbus.logging:transaction.py:258 Changing transaction state from "PROCESSING REPLY" to "TRANSACTION_COMPLETE"
INFO    2025-08-29 09:04:21,293  root:modbus_rtu_tcp.py:44 read_measurement ret is:ReadHoldingRegistersResponse (2)
INFO    2025-08-29 09:04:21,293  root:acudc260_modbus_get.py:131 read u_voltage ret is:[17008, 32]
DEBUG   2025-08-29 09:04:21,293  pymodbus.logging:transaction.py:184 Current transaction state - TRANSACTION_COMPLETE
DEBUG   2025-08-29 09:04:21,293  pymodbus.logging:transaction.py:193 Running transaction 0
DEBUG   2025-08-29 09:04:21,293  pymodbus.logging:transaction.py:293 SEND: 0x1 0x3 0x30 0x2 0x0 0x2 0x6a 0xcb
DEBUG   2025-08-29 09:04:21,293  pymodbus.logging:serial.py:271 Changing state to IDLE - Last Frame End - 1756429461.293459 Current Time stamp - 1756429461.293459
DEBUG   2025-08-29 09:04:21,293  pymodbus.logging:serial.py:279 Waiting for 3.5 char before next send - 1.823 ms
DEBUG   2025-08-29 09:04:21,296  pymodbus.logging:base.py:250 New Transaction state "SENDING"
DEBUG   2025-08-29 09:04:21,296  pymodbus.logging:transaction.py:317 Changing transaction state from "SENDING" to "WAITING FOR REPLY"
DEBUG   2025-08-29 09:04:21,323  pymodbus.logging:transaction.py:419 Changing transaction state from "WAITING FOR REPLY" to "PROCESSING REPLY"
DEBUG   2025-08-29 09:04:21,323  pymodbus.logging:transaction.py:324 RECV: 0x1 0x3 0x4 0x3f 0xe 0xc5 0x5 0x4 0xb7
DEBUG   2025-08-29 09:04:21,323  pymodbus.logging:base.py:92 Processing: 0x1 0x3 0x4 0x3f 0xe 0xc5 0x5 0x4 0xb7
DEBUG   2025-08-29 09:04:21,323  pymodbus.logging:decoders.py:103 decode PDU for 3
DEBUG   2025-08-29 09:04:21,323  pymodbus.logging:base.py:102 Frame advanced, resetting header!!
DEBUG   2025-08-29 09:04:21,323  pymodbus.logging:transaction.py:67 Adding transaction 0
DEBUG   2025-08-29 09:04:21,323  pymodbus.logging:transaction.py:78 Getting transaction 0
DEBUG   2025-08-29 09:04:21,323  pymodbus.logging:transaction.py:258 Changing transaction state from "PROCESSING REPLY" to "TRANSACTION_COMPLETE"
INFO    2025-08-29 09:04:21,323  root:modbus_rtu_tcp.py:44 read_measurement ret is:ReadHoldingRegistersResponse (2)
INFO    2025-08-29 09:04:21,323  root:acudc260_modbus_get.py:145 read i1_current ret is:[16142, 50437]
DEBUG   2025-08-29 09:04:21,323  pymodbus.logging:transaction.py:184 Current transaction state - TRANSACTION_COMPLETE
DEBUG   2025-08-29 09:04:21,323  pymodbus.logging:transaction.py:193 Running transaction 0
DEBUG   2025-08-29 09:04:21,323  pymodbus.logging:transaction.py:293 SEND: 0x1 0x3 0x30 0x4 0x0 0x2 0x8a 0xca
DEBUG   2025-08-29 09:04:21,323  pymodbus.logging:serial.py:271 Changing state to IDLE - Last Frame End - 1756429461.323833 Current Time stamp - 1756429461.323833
DEBUG   2025-08-29 09:04:21,323  pymodbus.logging:serial.py:279 Waiting for 3.5 char before next send - 1.823 ms
DEBUG   2025-08-29 09:04:21,326  pymodbus.logging:base.py:250 New Transaction state "SENDING"
DEBUG   2025-08-29 09:04:21,326  pymodbus.logging:transaction.py:317 Changing transaction state from "SENDING" to "WAITING FOR REPLY"
DEBUG   2025-08-29 09:04:21,356  pymodbus.logging:transaction.py:419 Changing transaction state from "WAITING FOR REPLY" to "PROCESSING REPLY"
DEBUG   2025-08-29 09:04:21,356  pymodbus.logging:transaction.py:324 RECV: 0x1 0x3 0x4 0x3f 0x0 0x50 0xc8 0xcb 0xb1
DEBUG   2025-08-29 09:04:21,356  pymodbus.logging:base.py:92 Processing: 0x1 0x3 0x4 0x3f 0x0 0x50 0xc8 0xcb 0xb1
DEBUG   2025-08-29 09:04:21,356  pymodbus.logging:decoders.py:103 decode PDU for 3
DEBUG   2025-08-29 09:04:21,356  pymodbus.logging:base.py:102 Frame advanced, resetting header!!
DEBUG   2025-08-29 09:04:21,356  pymodbus.logging:transaction.py:67 Adding transaction 0
DEBUG   2025-08-29 09:04:21,356  pymodbus.logging:transaction.py:78 Getting transaction 0
DEBUG   2025-08-29 09:04:21,356  pymodbus.logging:transaction.py:258 Changing transaction state from "PROCESSING REPLY" to "TRANSACTION_COMPLETE"
INFO    2025-08-29 09:04:21,356  root:modbus_rtu_tcp.py:44 read_measurement ret is:ReadHoldingRegistersResponse (2)
INFO    2025-08-29 09:04:21,356  root:acudc260_modbus_get.py:159 read i2_current ret is:[16128, 20680]
DEBUG   2025-08-29 09:04:21,356  pymodbus.logging:transaction.py:184 Current transaction state - TRANSACTION_COMPLETE
DEBUG   2025-08-29 09:04:21,356  pymodbus.logging:transaction.py:193 Running transaction 0
DEBUG   2025-08-29 09:04:21,356  pymodbus.logging:transaction.py:293 SEND: 0x1 0x3 0x30 0x6 0x0 0x2 0x2b 0xa
DEBUG   2025-08-29 09:04:21,356  pymodbus.logging:serial.py:271 Changing state to IDLE - Last Frame End - 1756429461.356898 Current Time stamp - 1756429461.356898
DEBUG   2025-08-29 09:04:21,356  pymodbus.logging:serial.py:279 Waiting for 3.5 char before next send - 1.823 ms
DEBUG   2025-08-29 09:04:21,360  pymodbus.logging:base.py:250 New Transaction state "SENDING"
DEBUG   2025-08-29 09:04:21,360  pymodbus.logging:transaction.py:317 Changing transaction state from "SENDING" to "WAITING FOR REPLY"
DEBUG   2025-08-29 09:04:21,389  pymodbus.logging:transaction.py:419 Changing transaction state from "WAITING FOR REPLY" to "PROCESSING REPLY"
DEBUG   2025-08-29 09:04:21,389  pymodbus.logging:transaction.py:324 RECV: 0x1 0x3 0x4 0x3f 0x87 0x8a 0xe6 0xa0 0xe4
DEBUG   2025-08-29 09:04:21,389  pymodbus.logging:base.py:92 Processing: 0x1 0x3 0x4 0x3f 0x87 0x8a 0xe6 0xa0 0xe4
DEBUG   2025-08-29 09:04:21,389  pymodbus.logging:decoders.py:103 decode PDU for 3
DEBUG   2025-08-29 09:04:21,389  pymodbus.logging:base.py:102 Frame advanced, resetting header!!
DEBUG   2025-08-29 09:04:21,389  pymodbus.logging:transaction.py:67 Adding transaction 0
DEBUG   2025-08-29 09:04:21,389  pymodbus.logging:transaction.py:78 Getting transaction 0
DEBUG   2025-08-29 09:04:21,389  pymodbus.logging:transaction.py:258 Changing transaction state from "PROCESSING REPLY" to "TRANSACTION_COMPLETE"
INFO    2025-08-29 09:04:21,389  root:modbus_rtu_tcp.py:44 read_measurement ret is:ReadHoldingRegistersResponse (2)
INFO    2025-08-29 09:04:21,389  root:acudc260_modbus_get.py:173 read i_sum_current ret is:[16263, 35558]
DEBUG   2025-08-29 09:04:21,389  pymodbus.logging:transaction.py:184 Current transaction state - TRANSACTION_COMPLETE
DEBUG   2025-08-29 09:04:21,389  pymodbus.logging:transaction.py:193 Running transaction 0
DEBUG   2025-08-29 09:04:21,389  pymodbus.logging:transaction.py:293 SEND: 0x1 0x3 0x30 0x8 0x0 0x2 0x4a 0xc9
DEBUG   2025-08-29 09:04:21,389  pymodbus.logging:serial.py:271 Changing state to IDLE - Last Frame End - 1756429461.389835 Current Time stamp - 1756429461.389835
DEBUG   2025-08-29 09:04:21,389  pymodbus.logging:serial.py:279 Waiting for 3.5 char before next send - 1.823 ms
DEBUG   2025-08-29 09:04:21,393  pymodbus.logging:base.py:250 New Transaction state "SENDING"
DEBUG   2025-08-29 09:04:21,393  pymodbus.logging:transaction.py:317 Changing transaction state from "SENDING" to "WAITING FOR REPLY"
DEBUG   2025-08-29 09:04:21,421  pymodbus.logging:transaction.py:419 Changing transaction state from "WAITING FOR REPLY" to "PROCESSING REPLY"
DEBUG   2025-08-29 09:04:21,421  pymodbus.logging:transaction.py:324 RECV: 0x1 0x3 0x4 0x3c 0xfe 0xb6 0xb 0xa0 0x34
DEBUG   2025-08-29 09:04:21,421  pymodbus.logging:base.py:92 Processing: 0x1 0x3 0x4 0x3c 0xfe 0xb6 0xb 0xa0 0x34
DEBUG   2025-08-29 09:04:21,421  pymodbus.logging:decoders.py:103 decode PDU for 3
DEBUG   2025-08-29 09:04:21,421  pymodbus.logging:base.py:102 Frame advanced, resetting header!!
DEBUG   2025-08-29 09:04:21,421  pymodbus.logging:transaction.py:67 Adding transaction 0
DEBUG   2025-08-29 09:04:21,421  pymodbus.logging:transaction.py:78 Getting transaction 0
DEBUG   2025-08-29 09:04:21,421  pymodbus.logging:transaction.py:258 Changing transaction state from "PROCESSING REPLY" to "TRANSACTION_COMPLETE"
INFO    2025-08-29 09:04:21,421  root:modbus_rtu_tcp.py:44 read_measurement ret is:ReadHoldingRegistersResponse (2)
INFO    2025-08-29 09:04:21,421  root:acudc260_modbus_get.py:187 read p1_power ret is:[15614, 46603]
DEBUG   2025-08-29 09:04:21,421  pymodbus.logging:transaction.py:184 Current transaction state - TRANSACTION_COMPLETE
DEBUG   2025-08-29 09:04:21,421  pymodbus.logging:transaction.py:193 Running transaction 0
DEBUG   2025-08-29 09:04:21,421  pymodbus.logging:transaction.py:293 SEND: 0x1 0x3 0x30 0xa 0x0 0x2 0xeb 0x9
DEBUG   2025-08-29 09:04:21,421  pymodbus.logging:serial.py:271 Changing state to IDLE - Last Frame End - 1756429461.421322 Current Time stamp - 1756429461.421322
DEBUG   2025-08-29 09:04:21,421  pymodbus.logging:serial.py:279 Waiting for 3.5 char before next send - 1.823 ms
DEBUG   2025-08-29 09:04:21,424  pymodbus.logging:base.py:250 New Transaction state "SENDING"
DEBUG   2025-08-29 09:04:21,424  pymodbus.logging:transaction.py:317 Changing transaction state from "SENDING" to "WAITING FOR REPLY"
DEBUG   2025-08-29 09:04:21,454  pymodbus.logging:transaction.py:419 Changing transaction state from "WAITING FOR REPLY" to "PROCESSING REPLY"
DEBUG   2025-08-29 09:04:21,454  pymodbus.logging:transaction.py:324 RECV: 0x1 0x3 0x4 0x3d 0x3 0x80 0x13 0x27 0x92
DEBUG   2025-08-29 09:04:21,454  pymodbus.logging:base.py:92 Processing: 0x1 0x3 0x4 0x3d 0x3 0x80 0x13 0x27 0x92
DEBUG   2025-08-29 09:04:21,454  pymodbus.logging:decoders.py:103 decode PDU for 3
DEBUG   2025-08-29 09:04:21,454  pymodbus.logging:base.py:102 Frame advanced, resetting header!!
DEBUG   2025-08-29 09:04:21,454  pymodbus.logging:transaction.py:67 Adding transaction 0
DEBUG   2025-08-29 09:04:21,454  pymodbus.logging:transaction.py:78 Getting transaction 0
DEBUG   2025-08-29 09:04:21,454  pymodbus.logging:transaction.py:258 Changing transaction state from "PROCESSING REPLY" to "TRANSACTION_COMPLETE"
INFO    2025-08-29 09:04:21,454  root:modbus_rtu_tcp.py:44 read_measurement ret is:ReadHoldingRegistersResponse (2)
INFO    2025-08-29 09:04:21,454  root:acudc260_modbus_get.py:201 read p2_power ret is:[15619, 32787]
DEBUG   2025-08-29 09:04:21,454  pymodbus.logging:transaction.py:184 Current transaction state - TRANSACTION_COMPLETE
DEBUG   2025-08-29 09:04:21,454  pymodbus.logging:transaction.py:193 Running transaction 0
DEBUG   2025-08-29 09:04:21,454  pymodbus.logging:transaction.py:293 SEND: 0x1 0x3 0x30 0xc 0x0 0x2 0xb 0x8
DEBUG   2025-08-29 09:04:21,454  pymodbus.logging:serial.py:271 Changing state to IDLE - Last Frame End - 1756429461.454148 Current Time stamp - 1756429461.454148
DEBUG   2025-08-29 09:04:21,454  pymodbus.logging:serial.py:279 Waiting for 3.5 char before next send - 1.823 ms
DEBUG   2025-08-29 09:04:21,457  pymodbus.logging:base.py:250 New Transaction state "SENDING"
DEBUG   2025-08-29 09:04:21,457  pymodbus.logging:transaction.py:317 Changing transaction state from "SENDING" to "WAITING FOR REPLY"
DEBUG   2025-08-29 09:04:21,484  pymodbus.logging:transaction.py:419 Changing transaction state from "WAITING FOR REPLY" to "PROCESSING REPLY"
DEBUG   2025-08-29 09:04:21,484  pymodbus.logging:transaction.py:324 RECV: 0x1 0x3 0x4 0x3d 0x81 0x6d 0x8c 0x8a 0x82
DEBUG   2025-08-29 09:04:21,484  pymodbus.logging:base.py:92 Processing: 0x1 0x3 0x4 0x3d 0x81 0x6d 0x8c 0x8a 0x82
DEBUG   2025-08-29 09:04:21,484  pymodbus.logging:decoders.py:103 decode PDU for 3
DEBUG   2025-08-29 09:04:21,484  pymodbus.logging:base.py:102 Frame advanced, resetting header!!
DEBUG   2025-08-29 09:04:21,484  pymodbus.logging:transaction.py:67 Adding transaction 0
DEBUG   2025-08-29 09:04:21,484  pymodbus.logging:transaction.py:78 Getting transaction 0
DEBUG   2025-08-29 09:04:21,484  pymodbus.logging:transaction.py:258 Changing transaction state from "PROCESSING REPLY" to "TRANSACTION_COMPLETE"
INFO    2025-08-29 09:04:21,484  root:modbus_rtu_tcp.py:44 read_measurement ret is:ReadHoldingRegistersResponse (2)
INFO    2025-08-29 09:04:21,484  root:acudc260_modbus_get.py:215 read p_sum_power ret is:[15745, 28044]
DEBUG   2025-08-29 09:04:21,585  pymodbus.logging:transaction.py:184 Current transaction state - TRANSACTION_COMPLETE
DEBUG   2025-08-29 09:04:21,585  pymodbus.logging:transaction.py:193 Running transaction 0
DEBUG   2025-08-29 09:04:21,585  pymodbus.logging:transaction.py:293 SEND: 0x1 0x3 0x30 0x0 0x0 0x2 0xcb 0xb
DEBUG   2025-08-29 09:04:21,585  pymodbus.logging:serial.py:271 Changing state to IDLE - Last Frame End - 1756429461.484377 Current Time stamp - 1756429461.585212
DEBUG   2025-08-29 09:04:21,585  pymodbus.logging:base.py:250 New Transaction state "SENDING"
DEBUG   2025-08-29 09:04:21,585  pymodbus.logging:transaction.py:317 Changing transaction state from "SENDING" to "WAITING FOR REPLY"
DEBUG   2025-08-29 09:04:21,612  pymodbus.logging:transaction.py:419 Changing transaction state from "WAITING FOR REPLY" to "PROCESSING REPLY"
DEBUG   2025-08-29 09:04:21,612  pymodbus.logging:transaction.py:324 RECV: 0x1 0x3 0x4 0x42 0x6f 0xfa 0x74 0x9c 0xd1
DEBUG   2025-08-29 09:04:21,612  pymodbus.logging:base.py:92 Processing: 0x1 0x3 0x4 0x42 0x6f 0xfa 0x74 0x9c 0xd1
DEBUG   2025-08-29 09:04:21,612  pymodbus.logging:decoders.py:103 decode PDU for 3
DEBUG   2025-08-29 09:04:21,612  pymodbus.logging:base.py:102 Frame advanced, resetting header!!
DEBUG   2025-08-29 09:04:21,613  pymodbus.logging:transaction.py:67 Adding transaction 0
DEBUG   2025-08-29 09:04:21,613  pymodbus.logging:transaction.py:78 Getting transaction 0
DEBUG   2025-08-29 09:04:21,613  pymodbus.logging:transaction.py:258 Changing transaction state from "PROCESSING REPLY" to "TRANSACTION_COMPLETE"
INFO    2025-08-29 09:04:21,613  root:modbus_rtu_tcp.py:44 read_measurement ret is:ReadHoldingRegistersResponse (2)
INFO    2025-08-29 09:04:21,613  root:acudc260_modbus_get.py:131 read u_voltage ret is:[17007, 64116]
DEBUG   2025-08-29 09:04:21,613  pymodbus.logging:transaction.py:184 Current transaction state - TRANSACTION_COMPLETE
DEBUG   2025-08-29 09:04:21,613  pymodbus.logging:transaction.py:193 Running transaction 0
DEBUG   2025-08-29 09:04:21,613  pymodbus.logging:transaction.py:293 SEND: 0x1 0x3 0x30 0x2 0x0 0x2 0x6a 0xcb
DEBUG   2025-08-29 09:04:21,613  pymodbus.logging:serial.py:271 Changing state to IDLE - Last Frame End - 1756429461.612543 Current Time stamp - 1756429461.613075
DEBUG   2025-08-29 09:04:21,613  pymodbus.logging:serial.py:279 Waiting for 3.5 char before next send - 1.823 ms
DEBUG   2025-08-29 09:04:21,615  pymodbus.logging:base.py:250 New Transaction state "SENDING"
DEBUG   2025-08-29 09:04:21,615  pymodbus.logging:transaction.py:317 Changing transaction state from "SENDING" to "WAITING FOR REPLY"
DEBUG   2025-08-29 09:04:21,644  pymodbus.logging:transaction.py:419 Changing transaction state from "WAITING FOR REPLY" to "PROCESSING REPLY"
DEBUG   2025-08-29 09:04:21,644  pymodbus.logging:transaction.py:324 RECV: 0x1 0x3 0x4 0x3f 0x5 0xb3 0x86 0x12 0xb4
DEBUG   2025-08-29 09:04:21,644  pymodbus.logging:base.py:92 Processing: 0x1 0x3 0x4 0x3f 0x5 0xb3 0x86 0x12 0xb4
DEBUG   2025-08-29 09:04:21,644  pymodbus.logging:decoders.py:103 decode PDU for 3
DEBUG   2025-08-29 09:04:21,644  pymodbus.logging:base.py:102 Frame advanced, resetting header!!
DEBUG   2025-08-29 09:04:21,644  pymodbus.logging:transaction.py:67 Adding transaction 0
DEBUG   2025-08-29 09:04:21,644  pymodbus.logging:transaction.py:78 Getting transaction 0
DEBUG   2025-08-29 09:04:21,644  pymodbus.logging:transaction.py:258 Changing transaction state from "PROCESSING REPLY" to "TRANSACTION_COMPLETE"
INFO    2025-08-29 09:04:21,644  root:modbus_rtu_tcp.py:44 read_measurement ret is:ReadHoldingRegistersResponse (2)
INFO    2025-08-29 09:04:21,644  root:acudc260_modbus_get.py:145 read i1_current ret is:[16133, 45958]
DEBUG   2025-08-29 09:04:21,644  pymodbus.logging:transaction.py:184 Current transaction state - TRANSACTION_COMPLETE
DEBUG   2025-08-29 09:04:21,644  pymodbus.logging:transaction.py:193 Running transaction 0
DEBUG   2025-08-29 09:04:21,644  pymodbus.logging:transaction.py:293 SEND: 0x1 0x3 0x30 0x4 0x0 0x2 0x8a 0xca
DEBUG   2025-08-29 09:04:21,644  pymodbus.logging:serial.py:271 Changing state to IDLE - Last Frame End - 1756429461.64482 Current Time stamp - 1756429461.64482
DEBUG   2025-08-29 09:04:21,644  pymodbus.logging:serial.py:279 Waiting for 3.5 char before next send - 1.823 ms
DEBUG   2025-08-29 09:04:21,647  pymodbus.logging:base.py:250 New Transaction state "SENDING"
DEBUG   2025-08-29 09:04:21,647  pymodbus.logging:transaction.py:317 Changing transaction state from "SENDING" to "WAITING FOR REPLY"
DEBUG   2025-08-29 09:04:21,673  pymodbus.logging:transaction.py:419 Changing transaction state from "WAITING FOR REPLY" to "PROCESSING REPLY"
DEBUG   2025-08-29 09:04:21,673  pymodbus.logging:transaction.py:324 RECV: 0x1 0x3 0x4 0x3f 0x4 0xce 0x6b 0xa2 0x69
DEBUG   2025-08-29 09:04:21,673  pymodbus.logging:base.py:92 Processing: 0x1 0x3 0x4 0x3f 0x4 0xce 0x6b 0xa2 0x69
DEBUG   2025-08-29 09:04:21,673  pymodbus.logging:decoders.py:103 decode PDU for 3
DEBUG   2025-08-29 09:04:21,673  pymodbus.logging:base.py:102 Frame advanced, resetting header!!
DEBUG   2025-08-29 09:04:21,673  pymodbus.logging:transaction.py:67 Adding transaction 0
DEBUG   2025-08-29 09:04:21,673  pymodbus.logging:transaction.py:78 Getting transaction 0
DEBUG   2025-08-29 09:04:21,673  pymodbus.logging:transaction.py:258 Changing transaction state from "PROCESSING REPLY" to "TRANSACTION_COMPLETE"
INFO    2025-08-29 09:04:21,673  root:modbus_rtu_tcp.py:44 read_measurement ret is:ReadHoldingRegistersResponse (2)
INFO    2025-08-29 09:04:21,673  root:acudc260_modbus_get.py:159 read i2_current ret is:[16132, 52843]
DEBUG   2025-08-29 09:04:21,673  pymodbus.logging:transaction.py:184 Current transaction state - TRANSACTION_COMPLETE
DEBUG   2025-08-29 09:04:21,673  pymodbus.logging:transaction.py:193 Running transaction 0
DEBUG   2025-08-29 09:04:21,673  pymodbus.logging:transaction.py:293 SEND: 0x1 0x3 0x30 0x6 0x0 0x2 0x2b 0xa
DEBUG   2025-08-29 09:04:21,673  pymodbus.logging:serial.py:271 Changing state to IDLE - Last Frame End - 1756429461.673148 Current Time stamp - 1756429461.673148
DEBUG   2025-08-29 09:04:21,673  pymodbus.logging:serial.py:279 Waiting for 3.5 char before next send - 1.823 ms
