INFO    2025-08-29 09:40:01,902  root:acudc260_fast_test.py:363 测试进度:['test_case', 'Voltage', 'Current_1', 'Current_2', '等待时间(h)', 'voltage_accuracy', 'current_accuracy', 'power_accuracy', '采样次数', '采样间隔'],执行时间:2025_08_29 09:40:01
INFO    2025-08-29 09:40:01,903  root:source_control.py:26 <源输出>
    电压检定点:6.0%;
    电流检定点:0.10400000000000001%;
    电压纹波比例:0%;
    电流纹波比例:0%;
    电压纹波相位:0度;
    电流纹波相位:0度;
    纹波频率:300Hz;
    电能方向:正向;
    <End>
INFO    2025-08-29 09:40:03,529  root:source_control.py:30 recv_data ret is:<源输出应答>
电压总值:60.000000V;
电流总值:0.520000A;
功率总值:31.199999W;
电压直流:60.000000V;
电流直流:0.520000A;
功率直流:31.199999W;
电压纹波:0.000000V;
电流纹波:0.000000A;
功率纹波:0.000000W;
<End>
DEBUG   2025-08-29 09:40:13,632  pymodbus.logging:transaction.py:184 Current transaction state - IDLE
DEBUG   2025-08-29 09:40:13,632  pymodbus.logging:transaction.py:193 Running transaction 0
DEBUG   2025-08-29 09:40:13,632  pymodbus.logging:transaction.py:293 SEND: 0x1 0x3 0x30 0x0 0x0 0x2 0xcb 0xb
DEBUG   2025-08-29 09:40:13,632  pymodbus.logging:base.py:250 New Transaction state "SENDING"
DEBUG   2025-08-29 09:40:13,633  pymodbus.logging:transaction.py:317 Changing transaction state from "SENDING" to "WAITING FOR REPLY"
DEBUG   2025-08-29 09:40:13,665  pymodbus.logging:transaction.py:419 Changing transaction state from "WAITING FOR REPLY" to "PROCESSING REPLY"
DEBUG   2025-08-29 09:40:13,665  pymodbus.logging:transaction.py:324 RECV: 0x1 0x3 0x4 0x42 0x70 0x1a 0xfe 0x65 0x70
DEBUG   2025-08-29 09:40:13,665  pymodbus.logging:base.py:92 Processing: 0x1 0x3 0x4 0x42 0x70 0x1a 0xfe 0x65 0x70
DEBUG   2025-08-29 09:40:13,665  pymodbus.logging:decoders.py:103 decode PDU for 3
DEBUG   2025-08-29 09:40:13,665  pymodbus.logging:base.py:102 Frame advanced, resetting header!!
DEBUG   2025-08-29 09:40:13,665  pymodbus.logging:transaction.py:67 Adding transaction 0
DEBUG   2025-08-29 09:40:13,665  pymodbus.logging:transaction.py:78 Getting transaction 0
DEBUG   2025-08-29 09:40:13,665  pymodbus.logging:transaction.py:258 Changing transaction state from "PROCESSING REPLY" to "TRANSACTION_COMPLETE"
INFO    2025-08-29 09:40:13,665  root:modbus_rtu_tcp.py:44 read_measurement ret is:ReadHoldingRegistersResponse (2)
INFO    2025-08-29 09:40:13,665  root:acudc260_modbus_get.py:131 read u_voltage ret is:[17008, 6910]
DEBUG   2025-08-29 09:40:13,665  pymodbus.logging:transaction.py:184 Current transaction state - TRANSACTION_COMPLETE
DEBUG   2025-08-29 09:40:13,665  pymodbus.logging:transaction.py:193 Running transaction 0
DEBUG   2025-08-29 09:40:13,666  pymodbus.logging:transaction.py:293 SEND: 0x1 0x3 0x30 0x2 0x0 0x2 0x6a 0xcb
DEBUG   2025-08-29 09:40:13,666  pymodbus.logging:serial.py:271 Changing state to IDLE - Last Frame End - 1756431613.665451 Current Time stamp - 1756431613.666462
DEBUG   2025-08-29 09:40:13,666  pymodbus.logging:serial.py:279 Waiting for 3.5 char before next send - 1.823 ms
DEBUG   2025-08-29 09:40:13,668  pymodbus.logging:base.py:250 New Transaction state "SENDING"
DEBUG   2025-08-29 09:40:13,668  pymodbus.logging:transaction.py:317 Changing transaction state from "SENDING" to "WAITING FOR REPLY"
DEBUG   2025-08-29 09:40:13,695  pymodbus.logging:transaction.py:419 Changing transaction state from "WAITING FOR REPLY" to "PROCESSING REPLY"
DEBUG   2025-08-29 09:40:13,695  pymodbus.logging:transaction.py:324 RECV: 0x1 0x3 0x4 0x3f 0x7 0x47 0xbd 0xb4 0x67
DEBUG   2025-08-29 09:40:13,695  pymodbus.logging:base.py:92 Processing: 0x1 0x3 0x4 0x3f 0x7 0x47 0xbd 0xb4 0x67
DEBUG   2025-08-29 09:40:13,695  pymodbus.logging:decoders.py:103 decode PDU for 3
DEBUG   2025-08-29 09:40:13,695  pymodbus.logging:base.py:102 Frame advanced, resetting header!!
DEBUG   2025-08-29 09:40:13,695  pymodbus.logging:transaction.py:67 Adding transaction 0
DEBUG   2025-08-29 09:40:13,695  pymodbus.logging:transaction.py:78 Getting transaction 0
DEBUG   2025-08-29 09:40:13,695  pymodbus.logging:transaction.py:258 Changing transaction state from "PROCESSING REPLY" to "TRANSACTION_COMPLETE"
INFO    2025-08-29 09:40:13,695  root:modbus_rtu_tcp.py:44 read_measurement ret is:ReadHoldingRegistersResponse (2)
INFO    2025-08-29 09:40:13,695  root:acudc260_modbus_get.py:145 read i1_current ret is:[16135, 18365]
DEBUG   2025-08-29 09:40:13,695  pymodbus.logging:transaction.py:184 Current transaction state - TRANSACTION_COMPLETE
DEBUG   2025-08-29 09:40:13,695  pymodbus.logging:transaction.py:193 Running transaction 0
DEBUG   2025-08-29 09:40:13,695  pymodbus.logging:transaction.py:293 SEND: 0x1 0x3 0x30 0x4 0x0 0x2 0x8a 0xca
DEBUG   2025-08-29 09:40:13,696  pymodbus.logging:serial.py:271 Changing state to IDLE - Last Frame End - 1756431613.695708 Current Time stamp - 1756431613.69672
DEBUG   2025-08-29 09:40:13,696  pymodbus.logging:serial.py:279 Waiting for 3.5 char before next send - 1.823 ms
DEBUG   2025-08-29 09:40:13,698  pymodbus.logging:base.py:250 New Transaction state "SENDING"
DEBUG   2025-08-29 09:40:13,698  pymodbus.logging:transaction.py:317 Changing transaction state from "SENDING" to "WAITING FOR REPLY"
DEBUG   2025-08-29 09:40:13,727  pymodbus.logging:transaction.py:419 Changing transaction state from "WAITING FOR REPLY" to "PROCESSING REPLY"
DEBUG   2025-08-29 09:40:13,727  pymodbus.logging:transaction.py:324 RECV: 0x1 0x3 0x4 0x3f 0x5 0x96 0x6d 0x48 0x6b
DEBUG   2025-08-29 09:40:13,727  pymodbus.logging:base.py:92 Processing: 0x1 0x3 0x4 0x3f 0x5 0x96 0x6d 0x48 0x6b
DEBUG   2025-08-29 09:40:13,727  pymodbus.logging:decoders.py:103 decode PDU for 3
DEBUG   2025-08-29 09:40:13,727  pymodbus.logging:base.py:102 Frame advanced, resetting header!!
DEBUG   2025-08-29 09:40:13,727  pymodbus.logging:transaction.py:67 Adding transaction 0
DEBUG   2025-08-29 09:40:13,727  pymodbus.logging:transaction.py:78 Getting transaction 0
DEBUG   2025-08-29 09:40:13,727  pymodbus.logging:transaction.py:258 Changing transaction state from "PROCESSING REPLY" to "TRANSACTION_COMPLETE"
INFO    2025-08-29 09:40:13,727  root:modbus_rtu_tcp.py:44 read_measurement ret is:ReadHoldingRegistersResponse (2)
INFO    2025-08-29 09:40:13,727  root:acudc260_modbus_get.py:159 read i2_current ret is:[16133, 38509]
DEBUG   2025-08-29 09:40:13,727  pymodbus.logging:transaction.py:184 Current transaction state - TRANSACTION_COMPLETE
DEBUG   2025-08-29 09:40:13,727  pymodbus.logging:transaction.py:193 Running transaction 0
DEBUG   2025-08-29 09:40:13,727  pymodbus.logging:transaction.py:293 SEND: 0x1 0x3 0x30 0x6 0x0 0x2 0x2b 0xa
DEBUG   2025-08-29 09:40:13,727  pymodbus.logging:serial.py:271 Changing state to IDLE - Last Frame End - 1756431613.727446 Current Time stamp - 1756431613.727446
DEBUG   2025-08-29 09:40:13,727  pymodbus.logging:serial.py:279 Waiting for 3.5 char before next send - 1.823 ms
DEBUG   2025-08-29 09:40:13,730  pymodbus.logging:base.py:250 New Transaction state "SENDING"
DEBUG   2025-08-29 09:40:13,730  pymodbus.logging:transaction.py:317 Changing transaction state from "SENDING" to "WAITING FOR REPLY"
DEBUG   2025-08-29 09:40:13,760  pymodbus.logging:transaction.py:419 Changing transaction state from "WAITING FOR REPLY" to "PROCESSING REPLY"
DEBUG   2025-08-29 09:40:13,760  pymodbus.logging:transaction.py:324 RECV: 0x1 0x3 0x4 0x3f 0x86 0x6f 0x15 0xfb 0xf1
DEBUG   2025-08-29 09:40:13,760  pymodbus.logging:base.py:92 Processing: 0x1 0x3 0x4 0x3f 0x86 0x6f 0x15 0xfb 0xf1
DEBUG   2025-08-29 09:40:13,760  pymodbus.logging:decoders.py:103 decode PDU for 3
DEBUG   2025-08-29 09:40:13,760  pymodbus.logging:base.py:102 Frame advanced, resetting header!!
DEBUG   2025-08-29 09:40:13,760  pymodbus.logging:transaction.py:67 Adding transaction 0
DEBUG   2025-08-29 09:40:13,760  pymodbus.logging:transaction.py:78 Getting transaction 0
DEBUG   2025-08-29 09:40:13,760  pymodbus.logging:transaction.py:258 Changing transaction state from "PROCESSING REPLY" to "TRANSACTION_COMPLETE"
INFO    2025-08-29 09:40:13,760  root:modbus_rtu_tcp.py:44 read_measurement ret is:ReadHoldingRegistersResponse (2)
INFO    2025-08-29 09:40:13,761  root:acudc260_modbus_get.py:173 read i_sum_current ret is:[16262, 28437]
DEBUG   2025-08-29 09:40:13,761  pymodbus.logging:transaction.py:184 Current transaction state - TRANSACTION_COMPLETE
DEBUG   2025-08-29 09:40:13,761  pymodbus.logging:transaction.py:193 Running transaction 0
DEBUG   2025-08-29 09:40:13,761  pymodbus.logging:transaction.py:293 SEND: 0x1 0x3 0x30 0x8 0x0 0x2 0x4a 0xc9
DEBUG   2025-08-29 09:40:13,761  pymodbus.logging:serial.py:271 Changing state to IDLE - Last Frame End - 1756431613.760748 Current Time stamp - 1756431613.761859
DEBUG   2025-08-29 09:40:13,761  pymodbus.logging:serial.py:279 Waiting for 3.5 char before next send - 1.823 ms
DEBUG   2025-08-29 09:40:13,764  pymodbus.logging:base.py:250 New Transaction state "SENDING"
DEBUG   2025-08-29 09:40:13,764  pymodbus.logging:transaction.py:317 Changing transaction state from "SENDING" to "WAITING FOR REPLY"
DEBUG   2025-08-29 09:40:13,792  pymodbus.logging:transaction.py:419 Changing transaction state from "WAITING FOR REPLY" to "PROCESSING REPLY"
DEBUG   2025-08-29 09:40:13,792  pymodbus.logging:transaction.py:324 RECV: 0x1 0x3 0x4 0x3d 0x1 0xe2 0x23 0xaf 0x26
DEBUG   2025-08-29 09:40:13,792  pymodbus.logging:base.py:92 Processing: 0x1 0x3 0x4 0x3d 0x1 0xe2 0x23 0xaf 0x26
DEBUG   2025-08-29 09:40:13,792  pymodbus.logging:decoders.py:103 decode PDU for 3
DEBUG   2025-08-29 09:40:13,792  pymodbus.logging:base.py:102 Frame advanced, resetting header!!
DEBUG   2025-08-29 09:40:13,792  pymodbus.logging:transaction.py:67 Adding transaction 0
DEBUG   2025-08-29 09:40:13,793  pymodbus.logging:transaction.py:78 Getting transaction 0
DEBUG   2025-08-29 09:40:13,793  pymodbus.logging:transaction.py:258 Changing transaction state from "PROCESSING REPLY" to "TRANSACTION_COMPLETE"
INFO    2025-08-29 09:40:13,793  root:modbus_rtu_tcp.py:44 read_measurement ret is:ReadHoldingRegistersResponse (2)
INFO    2025-08-29 09:40:13,793  root:acudc260_modbus_get.py:187 read p1_power ret is:[15617, 57891]
DEBUG   2025-08-29 09:40:13,793  pymodbus.logging:transaction.py:184 Current transaction state - TRANSACTION_COMPLETE
DEBUG   2025-08-29 09:40:13,793  pymodbus.logging:transaction.py:193 Running transaction 0
DEBUG   2025-08-29 09:40:13,793  pymodbus.logging:transaction.py:293 SEND: 0x1 0x3 0x30 0xa 0x0 0x2 0xeb 0x9
DEBUG   2025-08-29 09:40:13,793  pymodbus.logging:serial.py:271 Changing state to IDLE - Last Frame End - 1756431613.792302 Current Time stamp - 1756431613.793413
DEBUG   2025-08-29 09:40:13,793  pymodbus.logging:serial.py:279 Waiting for 3.5 char before next send - 1.823 ms
DEBUG   2025-08-29 09:40:13,796  pymodbus.logging:base.py:250 New Transaction state "SENDING"
DEBUG   2025-08-29 09:40:13,796  pymodbus.logging:transaction.py:317 Changing transaction state from "SENDING" to "WAITING FOR REPLY"
DEBUG   2025-08-29 09:40:13,824  pymodbus.logging:transaction.py:419 Changing transaction state from "WAITING FOR REPLY" to "PROCESSING REPLY"
DEBUG   2025-08-29 09:40:13,824  pymodbus.logging:transaction.py:324 RECV: 0x1 0x3 0x4 0x3c 0xff 0x8b 0x3a 0x20 0xb0
DEBUG   2025-08-29 09:40:13,824  pymodbus.logging:base.py:92 Processing: 0x1 0x3 0x4 0x3c 0xff 0x8b 0x3a 0x20 0xb0
DEBUG   2025-08-29 09:40:13,824  pymodbus.logging:decoders.py:103 decode PDU for 3
DEBUG   2025-08-29 09:40:13,824  pymodbus.logging:base.py:102 Frame advanced, resetting header!!
DEBUG   2025-08-29 09:40:13,824  pymodbus.logging:transaction.py:67 Adding transaction 0
DEBUG   2025-08-29 09:40:13,824  pymodbus.logging:transaction.py:78 Getting transaction 0
DEBUG   2025-08-29 09:40:13,824  pymodbus.logging:transaction.py:258 Changing transaction state from "PROCESSING REPLY" to "TRANSACTION_COMPLETE"
INFO    2025-08-29 09:40:13,824  root:modbus_rtu_tcp.py:44 read_measurement ret is:ReadHoldingRegistersResponse (2)
INFO    2025-08-29 09:40:13,825  root:acudc260_modbus_get.py:201 read p2_power ret is:[15615, 35642]
DEBUG   2025-08-29 09:40:13,825  pymodbus.logging:transaction.py:184 Current transaction state - TRANSACTION_COMPLETE
DEBUG   2025-08-29 09:40:13,825  pymodbus.logging:transaction.py:193 Running transaction 0
DEBUG   2025-08-29 09:40:13,825  pymodbus.logging:transaction.py:293 SEND: 0x1 0x3 0x30 0xc 0x0 0x2 0xb 0x8
DEBUG   2025-08-29 09:40:13,825  pymodbus.logging:serial.py:271 Changing state to IDLE - Last Frame End - 1756431613.82463 Current Time stamp - 1756431613.825763
DEBUG   2025-08-29 09:40:13,825  pymodbus.logging:serial.py:279 Waiting for 3.5 char before next send - 1.823 ms
DEBUG   2025-08-29 09:40:13,828  pymodbus.logging:base.py:250 New Transaction state "SENDING"
DEBUG   2025-08-29 09:40:13,828  pymodbus.logging:transaction.py:317 Changing transaction state from "SENDING" to "WAITING FOR REPLY"
DEBUG   2025-08-29 09:40:13,854  pymodbus.logging:transaction.py:419 Changing transaction state from "WAITING FOR REPLY" to "PROCESSING REPLY"
DEBUG   2025-08-29 09:40:13,854  pymodbus.logging:transaction.py:324 RECV: 0x1 0x3 0x4 0x3d 0x80 0xd3 0xe0 0xaa 0xcf
DEBUG   2025-08-29 09:40:13,854  pymodbus.logging:base.py:92 Processing: 0x1 0x3 0x4 0x3d 0x80 0xd3 0xe0 0xaa 0xcf
DEBUG   2025-08-29 09:40:13,854  pymodbus.logging:decoders.py:103 decode PDU for 3
DEBUG   2025-08-29 09:40:13,854  pymodbus.logging:base.py:102 Frame advanced, resetting header!!
DEBUG   2025-08-29 09:40:13,854  pymodbus.logging:transaction.py:67 Adding transaction 0
DEBUG   2025-08-29 09:40:13,854  pymodbus.logging:transaction.py:78 Getting transaction 0
DEBUG   2025-08-29 09:40:13,854  pymodbus.logging:transaction.py:258 Changing transaction state from "PROCESSING REPLY" to "TRANSACTION_COMPLETE"
INFO    2025-08-29 09:40:13,854  root:modbus_rtu_tcp.py:44 read_measurement ret is:ReadHoldingRegistersResponse (2)
INFO    2025-08-29 09:40:13,854  root:acudc260_modbus_get.py:215 read p_sum_power ret is:[15744, 54240]
DEBUG   2025-08-29 09:40:13,956  pymodbus.logging:transaction.py:184 Current transaction state - TRANSACTION_COMPLETE
DEBUG   2025-08-29 09:40:13,956  pymodbus.logging:transaction.py:193 Running transaction 0
DEBUG   2025-08-29 09:40:13,956  pymodbus.logging:transaction.py:293 SEND: 0x1 0x3 0x30 0x0 0x0 0x2 0xcb 0xb
DEBUG   2025-08-29 09:40:13,956  pymodbus.logging:serial.py:271 Changing state to IDLE - Last Frame End - 1756431613.854865 Current Time stamp - 1756431613.956026
DEBUG   2025-08-29 09:40:13,956  pymodbus.logging:base.py:250 New Transaction state "SENDING"
DEBUG   2025-08-29 09:40:13,956  pymodbus.logging:transaction.py:317 Changing transaction state from "SENDING" to "WAITING FOR REPLY"
DEBUG   2025-08-29 09:40:13,985  pymodbus.logging:transaction.py:419 Changing transaction state from "WAITING FOR REPLY" to "PROCESSING REPLY"
DEBUG   2025-08-29 09:40:13,985  pymodbus.logging:transaction.py:324 RECV: 0x1 0x3 0x4 0x42 0x70 0x18 0xcb 0xa4 0x7
DEBUG   2025-08-29 09:40:13,985  pymodbus.logging:base.py:92 Processing: 0x1 0x3 0x4 0x42 0x70 0x18 0xcb 0xa4 0x7
DEBUG   2025-08-29 09:40:13,985  pymodbus.logging:decoders.py:103 decode PDU for 3
DEBUG   2025-08-29 09:40:13,985  pymodbus.logging:base.py:102 Frame advanced, resetting header!!
DEBUG   2025-08-29 09:40:13,985  pymodbus.logging:transaction.py:67 Adding transaction 0
DEBUG   2025-08-29 09:40:13,985  pymodbus.logging:transaction.py:78 Getting transaction 0
DEBUG   2025-08-29 09:40:13,985  pymodbus.logging:transaction.py:258 Changing transaction state from "PROCESSING REPLY" to "TRANSACTION_COMPLETE"
INFO    2025-08-29 09:40:13,985  root:modbus_rtu_tcp.py:44 read_measurement ret is:ReadHoldingRegistersResponse (2)
INFO    2025-08-29 09:40:13,985  root:acudc260_modbus_get.py:131 read u_voltage ret is:[17008, 6347]
DEBUG   2025-08-29 09:40:13,985  pymodbus.logging:transaction.py:184 Current transaction state - TRANSACTION_COMPLETE
DEBUG   2025-08-29 09:40:13,985  pymodbus.logging:transaction.py:193 Running transaction 0
DEBUG   2025-08-29 09:40:13,986  pymodbus.logging:transaction.py:293 SEND: 0x1 0x3 0x30 0x2 0x0 0x2 0x6a 0xcb
DEBUG   2025-08-29 09:40:13,986  pymodbus.logging:serial.py:271 Changing state to IDLE - Last Frame End - 1756431613.985334 Current Time stamp - 1756431613.986346
DEBUG   2025-08-29 09:40:13,986  pymodbus.logging:serial.py:279 Waiting for 3.5 char before next send - 1.823 ms
DEBUG   2025-08-29 09:40:13,988  pymodbus.logging:base.py:250 New Transaction state "SENDING"
DEBUG   2025-08-29 09:40:13,988  pymodbus.logging:transaction.py:317 Changing transaction state from "SENDING" to "WAITING FOR REPLY"
DEBUG   2025-08-29 09:40:14,015  pymodbus.logging:transaction.py:419 Changing transaction state from "WAITING FOR REPLY" to "PROCESSING REPLY"
DEBUG   2025-08-29 09:40:14,015  pymodbus.logging:transaction.py:324 RECV: 0x1 0x3 0x4 0x3f 0x7 0x60 0xf5 0xaf 0xa1
DEBUG   2025-08-29 09:40:14,015  pymodbus.logging:base.py:92 Processing: 0x1 0x3 0x4 0x3f 0x7 0x60 0xf5 0xaf 0xa1
DEBUG   2025-08-29 09:40:14,015  pymodbus.logging:decoders.py:103 decode PDU for 3
DEBUG   2025-08-29 09:40:14,015  pymodbus.logging:base.py:102 Frame advanced, resetting header!!
DEBUG   2025-08-29 09:40:14,015  pymodbus.logging:transaction.py:67 Adding transaction 0
DEBUG   2025-08-29 09:40:14,015  pymodbus.logging:transaction.py:78 Getting transaction 0
DEBUG   2025-08-29 09:40:14,015  pymodbus.logging:transaction.py:258 Changing transaction state from "PROCESSING REPLY" to "TRANSACTION_COMPLETE"
INFO    2025-08-29 09:40:14,015  root:modbus_rtu_tcp.py:44 read_measurement ret is:ReadHoldingRegistersResponse (2)
INFO    2025-08-29 09:40:14,015  root:acudc260_modbus_get.py:145 read i1_current ret is:[16135, 24821]
DEBUG   2025-08-29 09:40:14,015  pymodbus.logging:transaction.py:184 Current transaction state - TRANSACTION_COMPLETE
DEBUG   2025-08-29 09:40:14,015  pymodbus.logging:transaction.py:193 Running transaction 0
DEBUG   2025-08-29 09:40:14,015  pymodbus.logging:transaction.py:293 SEND: 0x1 0x3 0x30 0x4 0x0 0x2 0x8a 0xca
DEBUG   2025-08-29 09:40:14,015  pymodbus.logging:serial.py:271 Changing state to IDLE - Last Frame End - 1756431614.015038 Current Time stamp - 1756431614.015038
DEBUG   2025-08-29 09:40:14,015  pymodbus.logging:serial.py:279 Waiting for 3.5 char before next send - 1.823 ms
DEBUG   2025-08-29 09:40:14,018  pymodbus.logging:base.py:250 New Transaction state "SENDING"
DEBUG   2025-08-29 09:40:14,018  pymodbus.logging:transaction.py:317 Changing transaction state from "SENDING" to "WAITING FOR REPLY"
DEBUG   2025-08-29 09:40:14,047  pymodbus.logging:transaction.py:419 Changing transaction state from "WAITING FOR REPLY" to "PROCESSING REPLY"
DEBUG   2025-08-29 09:40:14,047  pymodbus.logging:transaction.py:324 RECV: 0x1 0x3 0x4 0x3f 0x4 0xff 0x65 0x36 0x3d
DEBUG   2025-08-29 09:40:14,047  pymodbus.logging:base.py:92 Processing: 0x1 0x3 0x4 0x3f 0x4 0xff 0x65 0x36 0x3d
DEBUG   2025-08-29 09:40:14,047  pymodbus.logging:decoders.py:103 decode PDU for 3
DEBUG   2025-08-29 09:40:14,047  pymodbus.logging:base.py:102 Frame advanced, resetting header!!
DEBUG   2025-08-29 09:40:14,047  pymodbus.logging:transaction.py:67 Adding transaction 0
DEBUG   2025-08-29 09:40:14,047  pymodbus.logging:transaction.py:78 Getting transaction 0
DEBUG   2025-08-29 09:40:14,047  pymodbus.logging:transaction.py:258 Changing transaction state from "PROCESSING REPLY" to "TRANSACTION_COMPLETE"
INFO    2025-08-29 09:40:14,047  root:modbus_rtu_tcp.py:44 read_measurement ret is:ReadHoldingRegistersResponse (2)
INFO    2025-08-29 09:40:14,047  root:acudc260_modbus_get.py:159 read i2_current ret is:[16132, 65381]
DEBUG   2025-08-29 09:40:14,047  pymodbus.logging:transaction.py:184 Current transaction state - TRANSACTION_COMPLETE
DEBUG   2025-08-29 09:40:14,047  pymodbus.logging:transaction.py:193 Running transaction 0
DEBUG   2025-08-29 09:40:14,047  pymodbus.logging:transaction.py:293 SEND: 0x1 0x3 0x30 0x6 0x0 0x2 0x2b 0xa
DEBUG   2025-08-29 09:40:14,047  pymodbus.logging:serial.py:271 Changing state to IDLE - Last Frame End - 1756431614.0477 Current Time stamp - 1756431614.0477
DEBUG   2025-08-29 09:40:14,047  pymodbus.logging:serial.py:279 Waiting for 3.5 char before next send - 1.823 ms
DEBUG   2025-08-29 09:40:14,050  pymodbus.logging:base.py:250 New Transaction state "SENDING"
DEBUG   2025-08-29 09:40:14,050  pymodbus.logging:transaction.py:317 Changing transaction state from "SENDING" to "WAITING FOR REPLY"
DEBUG   2025-08-29 09:40:14,079  pymodbus.logging:transaction.py:419 Changing transaction state from "WAITING FOR REPLY" to "PROCESSING REPLY"
DEBUG   2025-08-29 09:40:14,079  pymodbus.logging:transaction.py:324 RECV: 0x1 0x3 0x4 0x3f 0x86 0xd7 0x7e 0xc8 0x1e
DEBUG   2025-08-29 09:40:14,079  pymodbus.logging:base.py:92 Processing: 0x1 0x3 0x4 0x3f 0x86 0xd7 0x7e 0xc8 0x1e
DEBUG   2025-08-29 09:40:14,079  pymodbus.logging:decoders.py:103 decode PDU for 3
DEBUG   2025-08-29 09:40:14,080  pymodbus.logging:base.py:102 Frame advanced, resetting header!!
DEBUG   2025-08-29 09:40:14,080  pymodbus.logging:transaction.py:67 Adding transaction 0
DEBUG   2025-08-29 09:40:14,080  pymodbus.logging:transaction.py:78 Getting transaction 0
DEBUG   2025-08-29 09:40:14,080  pymodbus.logging:transaction.py:258 Changing transaction state from "PROCESSING REPLY" to "TRANSACTION_COMPLETE"
INFO    2025-08-29 09:40:14,080  root:modbus_rtu_tcp.py:44 read_measurement ret is:ReadHoldingRegistersResponse (2)
INFO    2025-08-29 09:40:14,080  root:acudc260_modbus_get.py:173 read i_sum_current ret is:[16262, 55166]
DEBUG   2025-08-29 09:40:14,080  pymodbus.logging:transaction.py:184 Current transaction state - TRANSACTION_COMPLETE
DEBUG   2025-08-29 09:40:14,080  pymodbus.logging:transaction.py:193 Running transaction 0
DEBUG   2025-08-29 09:40:14,080  pymodbus.logging:transaction.py:293 SEND: 0x1 0x3 0x30 0x8 0x0 0x2 0x4a 0xc9
DEBUG   2025-08-29 09:40:14,080  pymodbus.logging:serial.py:271 Changing state to IDLE - Last Frame End - 1756431614.079628 Current Time stamp - 1756431614.080137
DEBUG   2025-08-29 09:40:14,080  pymodbus.logging:serial.py:279 Waiting for 3.5 char before next send - 1.823 ms
DEBUG   2025-08-29 09:40:14,082  pymodbus.logging:base.py:250 New Transaction state "SENDING"
DEBUG   2025-08-29 09:40:14,082  pymodbus.logging:transaction.py:317 Changing transaction state from "SENDING" to "WAITING FOR REPLY"
DEBUG   2025-08-29 09:40:14,112  pymodbus.logging:transaction.py:419 Changing transaction state from "WAITING FOR REPLY" to "PROCESSING REPLY"
DEBUG   2025-08-29 09:40:14,112  pymodbus.logging:transaction.py:324 RECV: 0x1 0x3 0x4 0x3d 0x2 0x55 0x13 0x28 0xc2
DEBUG   2025-08-29 09:40:14,112  pymodbus.logging:base.py:92 Processing: 0x1 0x3 0x4 0x3d 0x2 0x55 0x13 0x28 0xc2
DEBUG   2025-08-29 09:40:14,112  pymodbus.logging:decoders.py:103 decode PDU for 3
DEBUG   2025-08-29 09:40:14,112  pymodbus.logging:base.py:102 Frame advanced, resetting header!!
DEBUG   2025-08-29 09:40:14,112  pymodbus.logging:transaction.py:67 Adding transaction 0
DEBUG   2025-08-29 09:40:14,112  pymodbus.logging:transaction.py:78 Getting transaction 0
DEBUG   2025-08-29 09:40:14,112  pymodbus.logging:transaction.py:258 Changing transaction state from "PROCESSING REPLY" to "TRANSACTION_COMPLETE"
INFO    2025-08-29 09:40:14,112  root:modbus_rtu_tcp.py:44 read_measurement ret is:ReadHoldingRegistersResponse (2)
INFO    2025-08-29 09:40:14,112  root:acudc260_modbus_get.py:187 read p1_power ret is:[15618, 21779]
DEBUG   2025-08-29 09:40:14,112  pymodbus.logging:transaction.py:184 Current transaction state - TRANSACTION_COMPLETE
DEBUG   2025-08-29 09:40:14,112  pymodbus.logging:transaction.py:193 Running transaction 0
DEBUG   2025-08-29 09:40:14,112  pymodbus.logging:transaction.py:293 SEND: 0x1 0x3 0x30 0xa 0x0 0x2 0xeb 0x9
DEBUG   2025-08-29 09:40:14,112  pymodbus.logging:serial.py:271 Changing state to IDLE - Last Frame End - 1756431614.112073 Current Time stamp - 1756431614.112073
DEBUG   2025-08-29 09:40:14,112  pymodbus.logging:serial.py:279 Waiting for 3.5 char before next send - 1.823 ms
DEBUG   2025-08-29 09:40:14,115  pymodbus.logging:base.py:250 New Transaction state "SENDING"
DEBUG   2025-08-29 09:40:14,115  pymodbus.logging:transaction.py:317 Changing transaction state from "SENDING" to "WAITING FOR REPLY"
DEBUG   2025-08-29 09:40:14,144  pymodbus.logging:transaction.py:419 Changing transaction state from "WAITING FOR REPLY" to "PROCESSING REPLY"
DEBUG   2025-08-29 09:40:14,144  pymodbus.logging:transaction.py:324 RECV: 0x1 0x3 0x4 0x3d 0x0 0xa7 0x8c 0x8c 0xa
DEBUG   2025-08-29 09:40:14,144  pymodbus.logging:base.py:92 Processing: 0x1 0x3 0x4 0x3d 0x0 0xa7 0x8c 0x8c 0xa
DEBUG   2025-08-29 09:40:14,144  pymodbus.logging:decoders.py:103 decode PDU for 3
DEBUG   2025-08-29 09:40:14,144  pymodbus.logging:base.py:102 Frame advanced, resetting header!!
DEBUG   2025-08-29 09:40:14,144  pymodbus.logging:transaction.py:67 Adding transaction 0
DEBUG   2025-08-29 09:40:14,144  pymodbus.logging:transaction.py:78 Getting transaction 0
DEBUG   2025-08-29 09:40:14,144  pymodbus.logging:transaction.py:258 Changing transaction state from "PROCESSING REPLY" to "TRANSACTION_COMPLETE"
INFO    2025-08-29 09:40:14,144  root:modbus_rtu_tcp.py:44 read_measurement ret is:ReadHoldingRegistersResponse (2)
INFO    2025-08-29 09:40:14,144  root:acudc260_modbus_get.py:201 read p2_power ret is:[15616, 42892]
DEBUG   2025-08-29 09:40:14,144  pymodbus.logging:transaction.py:184 Current transaction state - TRANSACTION_COMPLETE
DEBUG   2025-08-29 09:40:14,144  pymodbus.logging:transaction.py:193 Running transaction 0
DEBUG   2025-08-29 09:40:14,144  pymodbus.logging:transaction.py:293 SEND: 0x1 0x3 0x30 0xc 0x0 0x2 0xb 0x8
DEBUG   2025-08-29 09:40:14,145  pymodbus.logging:serial.py:271 Changing state to IDLE - Last Frame End - 1756431614.144711 Current Time stamp - 1756431614.145722
DEBUG   2025-08-29 09:40:14,145  pymodbus.logging:serial.py:279 Waiting for 3.5 char before next send - 1.823 ms
DEBUG   2025-08-29 09:40:14,147  pymodbus.logging:base.py:250 New Transaction state "SENDING"
DEBUG   2025-08-29 09:40:14,147  pymodbus.logging:transaction.py:317 Changing transaction state from "SENDING" to "WAITING FOR REPLY"
DEBUG   2025-08-29 09:40:14,172  pymodbus.logging:transaction.py:419 Changing transaction state from "WAITING FOR REPLY" to "PROCESSING REPLY"
DEBUG   2025-08-29 09:40:14,172  pymodbus.logging:transaction.py:324 RECV: 0x1 0x3 0x4 0x3d 0x81 0x6 0xd5 0x65 0x88
DEBUG   2025-08-29 09:40:14,172  pymodbus.logging:base.py:92 Processing: 0x1 0x3 0x4 0x3d 0x81 0x6 0xd5 0x65 0x88
DEBUG   2025-08-29 09:40:14,172  pymodbus.logging:decoders.py:103 decode PDU for 3
DEBUG   2025-08-29 09:40:14,172  pymodbus.logging:base.py:102 Frame advanced, resetting header!!
DEBUG   2025-08-29 09:40:14,172  pymodbus.logging:transaction.py:67 Adding transaction 0
DEBUG   2025-08-29 09:40:14,172  pymodbus.logging:transaction.py:78 Getting transaction 0
DEBUG   2025-08-29 09:40:14,172  pymodbus.logging:transaction.py:258 Changing transaction state from "PROCESSING REPLY" to "TRANSACTION_COMPLETE"
INFO    2025-08-29 09:40:14,172  root:modbus_rtu_tcp.py:44 read_measurement ret is:ReadHoldingRegistersResponse (2)
INFO    2025-08-29 09:40:14,172  root:acudc260_modbus_get.py:215 read p_sum_power ret is:[15745, 1749]
DEBUG   2025-08-29 09:40:14,273  pymodbus.logging:transaction.py:184 Current transaction state - TRANSACTION_COMPLETE
DEBUG   2025-08-29 09:40:14,274  pymodbus.logging:transaction.py:193 Running transaction 0
DEBUG   2025-08-29 09:40:14,274  pymodbus.logging:transaction.py:293 SEND: 0x1 0x3 0x30 0x0 0x0 0x2 0xcb 0xb
DEBUG   2025-08-29 09:40:14,274  pymodbus.logging:serial.py:271 Changing state to IDLE - Last Frame End - 1756431614.172329 Current Time stamp - 1756431614.274926
DEBUG   2025-08-29 09:40:14,274  pymodbus.logging:base.py:250 New Transaction state "SENDING"
DEBUG   2025-08-29 09:40:14,274  pymodbus.logging:transaction.py:317 Changing transaction state from "SENDING" to "WAITING FOR REPLY"
DEBUG   2025-08-29 09:40:14,300  pymodbus.logging:transaction.py:419 Changing transaction state from "WAITING FOR REPLY" to "PROCESSING REPLY"
DEBUG   2025-08-29 09:40:14,300  pymodbus.logging:transaction.py:324 RECV: 0x1 0x3 0x4 0x42 0x70 0x19 0x61 0x25 0xe8
DEBUG   2025-08-29 09:40:14,300  pymodbus.logging:base.py:92 Processing: 0x1 0x3 0x4 0x42 0x70 0x19 0x61 0x25 0xe8
DEBUG   2025-08-29 09:40:14,300  pymodbus.logging:decoders.py:103 decode PDU for 3
DEBUG   2025-08-29 09:40:14,300  pymodbus.logging:base.py:102 Frame advanced, resetting header!!
DEBUG   2025-08-29 09:40:14,300  pymodbus.logging:transaction.py:67 Adding transaction 0
DEBUG   2025-08-29 09:40:14,300  pymodbus.logging:transaction.py:78 Getting transaction 0
DEBUG   2025-08-29 09:40:14,300  pymodbus.logging:transaction.py:258 Changing transaction state from "PROCESSING REPLY" to "TRANSACTION_COMPLETE"
INFO    2025-08-29 09:40:14,300  root:modbus_rtu_tcp.py:44 read_measurement ret is:ReadHoldingRegistersResponse (2)
INFO    2025-08-29 09:40:14,300  root:acudc260_modbus_get.py:131 read u_voltage ret is:[17008, 6497]
DEBUG   2025-08-29 09:40:14,300  pymodbus.logging:transaction.py:184 Current transaction state - TRANSACTION_COMPLETE
DEBUG   2025-08-29 09:40:14,300  pymodbus.logging:transaction.py:193 Running transaction 0
DEBUG   2025-08-29 09:40:14,300  pymodbus.logging:transaction.py:293 SEND: 0x1 0x3 0x30 0x2 0x0 0x2 0x6a 0xcb
DEBUG   2025-08-29 09:40:14,300  pymodbus.logging:serial.py:271 Changing state to IDLE - Last Frame End - 1756431614.300265 Current Time stamp - 1756431614.300265
DEBUG   2025-08-29 09:40:14,300  pymodbus.logging:serial.py:279 Waiting for 3.5 char before next send - 1.823 ms
DEBUG   2025-08-29 09:40:14,302  pymodbus.logging:base.py:250 New Transaction state "SENDING"
DEBUG   2025-08-29 09:40:14,302  pymodbus.logging:transaction.py:317 Changing transaction state from "SENDING" to "WAITING FOR REPLY"
DEBUG   2025-08-29 09:40:14,337  pymodbus.logging:transaction.py:419 Changing transaction state from "WAITING FOR REPLY" to "PROCESSING REPLY"
DEBUG   2025-08-29 09:40:14,337  pymodbus.logging:transaction.py:324 RECV: 0x1 0x3 0x4 0x3f 0x6 0x87 0x58 0x74 0x2c
DEBUG   2025-08-29 09:40:14,337  pymodbus.logging:base.py:92 Processing: 0x1 0x3 0x4 0x3f 0x6 0x87 0x58 0x74 0x2c
DEBUG   2025-08-29 09:40:14,337  pymodbus.logging:decoders.py:103 decode PDU for 3
DEBUG   2025-08-29 09:40:14,338  pymodbus.logging:base.py:102 Frame advanced, resetting header!!
DEBUG   2025-08-29 09:40:14,338  pymodbus.logging:transaction.py:67 Adding transaction 0
DEBUG   2025-08-29 09:40:14,338  pymodbus.logging:transaction.py:78 Getting transaction 0
DEBUG   2025-08-29 09:40:14,338  pymodbus.logging:transaction.py:258 Changing transaction state from "PROCESSING REPLY" to "TRANSACTION_COMPLETE"
INFO    2025-08-29 09:40:14,338  root:modbus_rtu_tcp.py:44 read_measurement ret is:ReadHoldingRegistersResponse (2)
INFO    2025-08-29 09:40:14,338  root:acudc260_modbus_get.py:145 read i1_current ret is:[16134, 34648]
DEBUG   2025-08-29 09:40:14,338  pymodbus.logging:transaction.py:184 Current transaction state - TRANSACTION_COMPLETE
DEBUG   2025-08-29 09:40:14,338  pymodbus.logging:transaction.py:193 Running transaction 0
DEBUG   2025-08-29 09:40:14,338  pymodbus.logging:transaction.py:293 SEND: 0x1 0x3 0x30 0x4 0x0 0x2 0x8a 0xca
DEBUG   2025-08-29 09:40:14,338  pymodbus.logging:serial.py:271 Changing state to IDLE - Last Frame End - 1756431614.337753 Current Time stamp - 1756431614.338278
DEBUG   2025-08-29 09:40:14,338  pymodbus.logging:serial.py:279 Waiting for 3.5 char before next send - 1.823 ms
DEBUG   2025-08-29 09:40:14,340  pymodbus.logging:base.py:250 New Transaction state "SENDING"
DEBUG   2025-08-29 09:40:14,340  pymodbus.logging:transaction.py:317 Changing transaction state from "SENDING" to "WAITING FOR REPLY"
DEBUG   2025-08-29 09:40:14,368  pymodbus.logging:transaction.py:419 Changing transaction state from "WAITING FOR REPLY" to "PROCESSING REPLY"
DEBUG   2025-08-29 09:40:14,368  pymodbus.logging:transaction.py:324 RECV: 0x1 0x3 0x4 0x3f 0x4 0x32 0x7a 0x23 0x65
DEBUG   2025-08-29 09:40:14,368  pymodbus.logging:base.py:92 Processing: 0x1 0x3 0x4 0x3f 0x4 0x32 0x7a 0x23 0x65
DEBUG   2025-08-29 09:40:14,368  pymodbus.logging:decoders.py:103 decode PDU for 3
DEBUG   2025-08-29 09:40:14,368  pymodbus.logging:base.py:102 Frame advanced, resetting header!!
DEBUG   2025-08-29 09:40:14,368  pymodbus.logging:transaction.py:67 Adding transaction 0
DEBUG   2025-08-29 09:40:14,368  pymodbus.logging:transaction.py:78 Getting transaction 0
DEBUG   2025-08-29 09:40:14,368  pymodbus.logging:transaction.py:258 Changing transaction state from "PROCESSING REPLY" to "TRANSACTION_COMPLETE"
INFO    2025-08-29 09:40:14,368  root:modbus_rtu_tcp.py:44 read_measurement ret is:ReadHoldingRegistersResponse (2)
INFO    2025-08-29 09:40:14,368  root:acudc260_modbus_get.py:159 read i2_current ret is:[16132, 12922]
DEBUG   2025-08-29 09:40:14,368  pymodbus.logging:transaction.py:184 Current transaction state - TRANSACTION_COMPLETE
DEBUG   2025-08-29 09:40:14,368  pymodbus.logging:transaction.py:193 Running transaction 0
DEBUG   2025-08-29 09:40:14,368  pymodbus.logging:transaction.py:293 SEND: 0x1 0x3 0x30 0x6 0x0 0x2 0x2b 0xa
DEBUG   2025-08-29 09:40:14,369  pymodbus.logging:serial.py:271 Changing state to IDLE - Last Frame End - 1756431614.36815 Current Time stamp - 1756431614.36815
DEBUG   2025-08-29 09:40:14,369  pymodbus.logging:serial.py:279 Waiting for 3.5 char before next send - 1.823 ms
DEBUG   2025-08-29 09:40:14,371  pymodbus.logging:base.py:250 New Transaction state "SENDING"
DEBUG   2025-08-29 09:40:14,371  pymodbus.logging:transaction.py:317 Changing transaction state from "SENDING" to "WAITING FOR REPLY"
DEBUG   2025-08-29 09:40:14,401  pymodbus.logging:transaction.py:419 Changing transaction state from "WAITING FOR REPLY" to "PROCESSING REPLY"
DEBUG   2025-08-29 09:40:14,401  pymodbus.logging:transaction.py:324 RECV: 0x1 0x3 0x4 0x3f 0x85 0xd1 0x76 0x3a 0x78
DEBUG   2025-08-29 09:40:14,401  pymodbus.logging:base.py:92 Processing: 0x1 0x3 0x4 0x3f 0x85 0xd1 0x76 0x3a 0x78
DEBUG   2025-08-29 09:40:14,401  pymodbus.logging:decoders.py:103 decode PDU for 3
DEBUG   2025-08-29 09:40:14,401  pymodbus.logging:base.py:102 Frame advanced, resetting header!!
DEBUG   2025-08-29 09:40:14,401  pymodbus.logging:transaction.py:67 Adding transaction 0
DEBUG   2025-08-29 09:40:14,401  pymodbus.logging:transaction.py:78 Getting transaction 0
DEBUG   2025-08-29 09:40:14,401  pymodbus.logging:transaction.py:258 Changing transaction state from "PROCESSING REPLY" to "TRANSACTION_COMPLETE"
INFO    2025-08-29 09:40:14,401  root:modbus_rtu_tcp.py:44 read_measurement ret is:ReadHoldingRegistersResponse (2)
INFO    2025-08-29 09:40:14,401  root:acudc260_modbus_get.py:173 read i_sum_current ret is:[16261, 53622]
DEBUG   2025-08-29 09:40:14,401  pymodbus.logging:transaction.py:184 Current transaction state - TRANSACTION_COMPLETE
DEBUG   2025-08-29 09:40:14,401  pymodbus.logging:transaction.py:193 Running transaction 0
DEBUG   2025-08-29 09:40:14,401  pymodbus.logging:transaction.py:293 SEND: 0x1 0x3 0x30 0x8 0x0 0x2 0x4a 0xc9
DEBUG   2025-08-29 09:40:14,401  pymodbus.logging:serial.py:271 Changing state to IDLE - Last Frame End - 1756431614.401106 Current Time stamp - 1756431614.401106
DEBUG   2025-08-29 09:40:14,401  pymodbus.logging:serial.py:279 Waiting for 3.5 char before next send - 1.823 ms
DEBUG   2025-08-29 09:40:14,404  pymodbus.logging:base.py:250 New Transaction state "SENDING"
DEBUG   2025-08-29 09:40:14,404  pymodbus.logging:transaction.py:317 Changing transaction state from "SENDING" to "WAITING FOR REPLY"
DEBUG   2025-08-29 09:40:14,431  pymodbus.logging:transaction.py:419 Changing transaction state from "WAITING FOR REPLY" to "PROCESSING REPLY"
DEBUG   2025-08-29 09:40:14,431  pymodbus.logging:transaction.py:324 RECV: 0x1 0x3 0x4 0x3d 0x2 0x15 0x6 0xd8 0xcd
DEBUG   2025-08-29 09:40:14,431  pymodbus.logging:base.py:92 Processing: 0x1 0x3 0x4 0x3d 0x2 0x15 0x6 0xd8 0xcd
DEBUG   2025-08-29 09:40:14,431  pymodbus.logging:decoders.py:103 decode PDU for 3
DEBUG   2025-08-29 09:40:14,431  pymodbus.logging:base.py:102 Frame advanced, resetting header!!
DEBUG   2025-08-29 09:40:14,431  pymodbus.logging:transaction.py:67 Adding transaction 0
DEBUG   2025-08-29 09:40:14,431  pymodbus.logging:transaction.py:78 Getting transaction 0
DEBUG   2025-08-29 09:40:14,431  pymodbus.logging:transaction.py:258 Changing transaction state from "PROCESSING REPLY" to "TRANSACTION_COMPLETE"
INFO    2025-08-29 09:40:14,431  root:modbus_rtu_tcp.py:44 read_measurement ret is:ReadHoldingRegistersResponse (2)
INFO    2025-08-29 09:40:14,431  root:acudc260_modbus_get.py:187 read p1_power ret is:[15618, 5382]
DEBUG   2025-08-29 09:40:14,431  pymodbus.logging:transaction.py:184 Current transaction state - TRANSACTION_COMPLETE
DEBUG   2025-08-29 09:40:14,431  pymodbus.logging:transaction.py:193 Running transaction 0
DEBUG   2025-08-29 09:40:14,431  pymodbus.logging:transaction.py:293 SEND: 0x1 0x3 0x30 0xa 0x0 0x2 0xeb 0x9
DEBUG   2025-08-29 09:40:14,431  pymodbus.logging:serial.py:271 Changing state to IDLE - Last Frame End - 1756431614.431409 Current Time stamp - 1756431614.431409
DEBUG   2025-08-29 09:40:14,431  pymodbus.logging:serial.py:279 Waiting for 3.5 char before next send - 1.823 ms
DEBUG   2025-08-29 09:40:14,434  pymodbus.logging:base.py:250 New Transaction state "SENDING"
DEBUG   2025-08-29 09:40:14,434  pymodbus.logging:transaction.py:317 Changing transaction state from "SENDING" to "WAITING FOR REPLY"
DEBUG   2025-08-29 09:40:14,460  pymodbus.logging:transaction.py:419 Changing transaction state from "WAITING FOR REPLY" to "PROCESSING REPLY"
DEBUG   2025-08-29 09:40:14,460  pymodbus.logging:transaction.py:324 RECV: 0x1 0x3 0x4 0x3c 0xfd 0xef 0xc9 0xeb 0xf5
DEBUG   2025-08-29 09:40:14,460  pymodbus.logging:base.py:92 Processing: 0x1 0x3 0x4 0x3c 0xfd 0xef 0xc9 0xeb 0xf5
DEBUG   2025-08-29 09:40:14,460  pymodbus.logging:decoders.py:103 decode PDU for 3
DEBUG   2025-08-29 09:40:14,460  pymodbus.logging:base.py:102 Frame advanced, resetting header!!
DEBUG   2025-08-29 09:40:14,460  pymodbus.logging:transaction.py:67 Adding transaction 0
DEBUG   2025-08-29 09:40:14,460  pymodbus.logging:transaction.py:78 Getting transaction 0
DEBUG   2025-08-29 09:40:14,460  pymodbus.logging:transaction.py:258 Changing transaction state from "PROCESSING REPLY" to "TRANSACTION_COMPLETE"
INFO    2025-08-29 09:40:14,460  root:modbus_rtu_tcp.py:44 read_measurement ret is:ReadHoldingRegistersResponse (2)
INFO    2025-08-29 09:40:14,460  root:acudc260_modbus_get.py:201 read p2_power ret is:[15613, 61385]
DEBUG   2025-08-29 09:40:14,461  pymodbus.logging:transaction.py:184 Current transaction state - TRANSACTION_COMPLETE
DEBUG   2025-08-29 09:40:14,461  pymodbus.logging:transaction.py:193 Running transaction 0
DEBUG   2025-08-29 09:40:14,461  pymodbus.logging:transaction.py:293 SEND: 0x1 0x3 0x30 0xc 0x0 0x2 0xb 0x8
DEBUG   2025-08-29 09:40:14,461  pymodbus.logging:serial.py:271 Changing state to IDLE - Last Frame End - 1756431614.460031 Current Time stamp - 1756431614.461031
DEBUG   2025-08-29 09:40:14,461  pymodbus.logging:serial.py:279 Waiting for 3.5 char before next send - 1.823 ms
DEBUG   2025-08-29 09:40:14,463  pymodbus.logging:base.py:250 New Transaction state "SENDING"
DEBUG   2025-08-29 09:40:14,463  pymodbus.logging:transaction.py:317 Changing transaction state from "SENDING" to "WAITING FOR REPLY"
DEBUG   2025-08-29 09:40:14,495  pymodbus.logging:transaction.py:419 Changing transaction state from "WAITING FOR REPLY" to "PROCESSING REPLY"
DEBUG   2025-08-29 09:40:14,495  pymodbus.logging:transaction.py:324 RECV: 0x1 0x3 0x4 0x3d 0x80 0xb9 0xc8 0x84 0x71
DEBUG   2025-08-29 09:40:14,495  pymodbus.logging:base.py:92 Processing: 0x1 0x3 0x4 0x3d 0x80 0xb9 0xc8 0x84 0x71
DEBUG   2025-08-29 09:40:14,495  pymodbus.logging:decoders.py:103 decode PDU for 3
DEBUG   2025-08-29 09:40:14,495  pymodbus.logging:base.py:102 Frame advanced, resetting header!!
DEBUG   2025-08-29 09:40:14,495  pymodbus.logging:transaction.py:67 Adding transaction 0
DEBUG   2025-08-29 09:40:14,495  pymodbus.logging:transaction.py:78 Getting transaction 0
DEBUG   2025-08-29 09:40:14,495  pymodbus.logging:transaction.py:258 Changing transaction state from "PROCESSING REPLY" to "TRANSACTION_COMPLETE"
INFO    2025-08-29 09:40:14,495  root:modbus_rtu_tcp.py:44 read_measurement ret is:ReadHoldingRegistersResponse (2)
INFO    2025-08-29 09:40:14,495  root:acudc260_modbus_get.py:215 read p_sum_power ret is:[15744, 47560]
DEBUG   2025-08-29 09:40:14,596  pymodbus.logging:transaction.py:184 Current transaction state - TRANSACTION_COMPLETE
DEBUG   2025-08-29 09:40:14,596  pymodbus.logging:transaction.py:193 Running transaction 0
DEBUG   2025-08-29 09:40:14,596  pymodbus.logging:transaction.py:293 SEND: 0x1 0x3 0x30 0x0 0x0 0x2 0xcb 0xb
DEBUG   2025-08-29 09:40:14,596  pymodbus.logging:serial.py:271 Changing state to IDLE - Last Frame End - 1756431614.495268 Current Time stamp - 1756431614.596321
DEBUG   2025-08-29 09:40:14,596  pymodbus.logging:base.py:250 New Transaction state "SENDING"
DEBUG   2025-08-29 09:40:14,596  pymodbus.logging:transaction.py:317 Changing transaction state from "SENDING" to "WAITING FOR REPLY"
DEBUG   2025-08-29 09:40:14,624  pymodbus.logging:transaction.py:419 Changing transaction state from "WAITING FOR REPLY" to "PROCESSING REPLY"
DEBUG   2025-08-29 09:40:14,624  pymodbus.logging:transaction.py:324 RECV: 0x1 0x3 0x4 0x42 0x70 0x1a 0xe7 0xa4 0xba
DEBUG   2025-08-29 09:40:14,624  pymodbus.logging:base.py:92 Processing: 0x1 0x3 0x4 0x42 0x70 0x1a 0xe7 0xa4 0xba
DEBUG   2025-08-29 09:40:14,624  pymodbus.logging:decoders.py:103 decode PDU for 3
DEBUG   2025-08-29 09:40:14,624  pymodbus.logging:base.py:102 Frame advanced, resetting header!!
DEBUG   2025-08-29 09:40:14,624  pymodbus.logging:transaction.py:67 Adding transaction 0
DEBUG   2025-08-29 09:40:14,624  pymodbus.logging:transaction.py:78 Getting transaction 0
DEBUG   2025-08-29 09:40:14,624  pymodbus.logging:transaction.py:258 Changing transaction state from "PROCESSING REPLY" to "TRANSACTION_COMPLETE"
INFO    2025-08-29 09:40:14,624  root:modbus_rtu_tcp.py:44 read_measurement ret is:ReadHoldingRegistersResponse (2)
INFO    2025-08-29 09:40:14,624  root:acudc260_modbus_get.py:131 read u_voltage ret is:[17008, 6887]
DEBUG   2025-08-29 09:40:14,624  pymodbus.logging:transaction.py:184 Current transaction state - TRANSACTION_COMPLETE
DEBUG   2025-08-29 09:40:14,624  pymodbus.logging:transaction.py:193 Running transaction 0
DEBUG   2025-08-29 09:40:14,624  pymodbus.logging:transaction.py:293 SEND: 0x1 0x3 0x30 0x2 0x0 0x2 0x6a 0xcb
DEBUG   2025-08-29 09:40:14,624  pymodbus.logging:serial.py:271 Changing state to IDLE - Last Frame End - 1756431614.624584 Current Time stamp - 1756431614.624584
DEBUG   2025-08-29 09:40:14,625  pymodbus.logging:serial.py:279 Waiting for 3.5 char before next send - 1.823 ms
DEBUG   2025-08-29 09:40:14,627  pymodbus.logging:base.py:250 New Transaction state "SENDING"
DEBUG   2025-08-29 09:40:14,627  pymodbus.logging:transaction.py:317 Changing transaction state from "SENDING" to "WAITING FOR REPLY"
DEBUG   2025-08-29 09:40:14,657  pymodbus.logging:transaction.py:419 Changing transaction state from "WAITING FOR REPLY" to "PROCESSING REPLY"
DEBUG   2025-08-29 09:40:14,657  pymodbus.logging:transaction.py:324 RECV: 0x1 0x3 0x4 0x3f 0x7 0x16 0x42 0xc9 0xb7
DEBUG   2025-08-29 09:40:14,657  pymodbus.logging:base.py:92 Processing: 0x1 0x3 0x4 0x3f 0x7 0x16 0x42 0xc9 0xb7
DEBUG   2025-08-29 09:40:14,657  pymodbus.logging:decoders.py:103 decode PDU for 3
DEBUG   2025-08-29 09:40:14,657  pymodbus.logging:base.py:102 Frame advanced, resetting header!!
DEBUG   2025-08-29 09:40:14,657  pymodbus.logging:transaction.py:67 Adding transaction 0
DEBUG   2025-08-29 09:40:14,657  pymodbus.logging:transaction.py:78 Getting transaction 0
DEBUG   2025-08-29 09:40:14,657  pymodbus.logging:transaction.py:258 Changing transaction state from "PROCESSING REPLY" to "TRANSACTION_COMPLETE"
INFO    2025-08-29 09:40:14,657  root:modbus_rtu_tcp.py:44 read_measurement ret is:ReadHoldingRegistersResponse (2)
INFO    2025-08-29 09:40:14,657  root:acudc260_modbus_get.py:145 read i1_current ret is:[16135, 5698]
DEBUG   2025-08-29 09:40:14,657  pymodbus.logging:transaction.py:184 Current transaction state - TRANSACTION_COMPLETE
DEBUG   2025-08-29 09:40:14,657  pymodbus.logging:transaction.py:193 Running transaction 0
DEBUG   2025-08-29 09:40:14,657  pymodbus.logging:transaction.py:293 SEND: 0x1 0x3 0x30 0x4 0x0 0x2 0x8a 0xca
DEBUG   2025-08-29 09:40:14,657  pymodbus.logging:serial.py:271 Changing state to IDLE - Last Frame End - 1756431614.657379 Current Time stamp - 1756431614.657379
DEBUG   2025-08-29 09:40:14,657  pymodbus.logging:serial.py:279 Waiting for 3.5 char before next send - 1.823 ms
DEBUG   2025-08-29 09:40:14,660  pymodbus.logging:base.py:250 New Transaction state "SENDING"
DEBUG   2025-08-29 09:40:14,660  pymodbus.logging:transaction.py:317 Changing transaction state from "SENDING" to "WAITING FOR REPLY"
DEBUG   2025-08-29 09:40:14,687  pymodbus.logging:transaction.py:419 Changing transaction state from "WAITING FOR REPLY" to "PROCESSING REPLY"
DEBUG   2025-08-29 09:40:14,687  pymodbus.logging:transaction.py:324 RECV: 0x1 0x3 0x4 0x3f 0x4 0xbc 0xcb 0x86 0xb1
DEBUG   2025-08-29 09:40:14,687  pymodbus.logging:base.py:92 Processing: 0x1 0x3 0x4 0x3f 0x4 0xbc 0xcb 0x86 0xb1
DEBUG   2025-08-29 09:40:14,687  pymodbus.logging:decoders.py:103 decode PDU for 3
DEBUG   2025-08-29 09:40:14,687  pymodbus.logging:base.py:102 Frame advanced, resetting header!!
DEBUG   2025-08-29 09:40:14,687  pymodbus.logging:transaction.py:67 Adding transaction 0
DEBUG   2025-08-29 09:40:14,687  pymodbus.logging:transaction.py:78 Getting transaction 0
DEBUG   2025-08-29 09:40:14,687  pymodbus.logging:transaction.py:258 Changing transaction state from "PROCESSING REPLY" to "TRANSACTION_COMPLETE"
INFO    2025-08-29 09:40:14,687  root:modbus_rtu_tcp.py:44 read_measurement ret is:ReadHoldingRegistersResponse (2)
INFO    2025-08-29 09:40:14,687  root:acudc260_modbus_get.py:159 read i2_current ret is:[16132, 48331]
DEBUG   2025-08-29 09:40:14,687  pymodbus.logging:transaction.py:184 Current transaction state - TRANSACTION_COMPLETE
DEBUG   2025-08-29 09:40:14,687  pymodbus.logging:transaction.py:193 Running transaction 0
DEBUG   2025-08-29 09:40:14,687  pymodbus.logging:transaction.py:293 SEND: 0x1 0x3 0x30 0x6 0x0 0x2 0x2b 0xa
DEBUG   2025-08-29 09:40:14,687  pymodbus.logging:serial.py:271 Changing state to IDLE - Last Frame End - 1756431614.687556 Current Time stamp - 1756431614.687556
DEBUG   2025-08-29 09:40:14,688  pymodbus.logging:serial.py:279 Waiting for 3.5 char before next send - 1.823 ms
DEBUG   2025-08-29 09:40:14,690  pymodbus.logging:base.py:250 New Transaction state "SENDING"
DEBUG   2025-08-29 09:40:14,690  pymodbus.logging:transaction.py:317 Changing transaction state from "SENDING" to "WAITING FOR REPLY"
DEBUG   2025-08-29 09:40:14,719  pymodbus.logging:transaction.py:419 Changing transaction state from "WAITING FOR REPLY" to "PROCESSING REPLY"
DEBUG   2025-08-29 09:40:14,719  pymodbus.logging:transaction.py:324 RECV: 0x1 0x3 0x4 0x3f 0x85 0xc7 0x74 0xb5 0xd9
DEBUG   2025-08-29 09:40:14,719  pymodbus.logging:base.py:92 Processing: 0x1 0x3 0x4 0x3f 0x85 0xc7 0x74 0xb5 0xd9
DEBUG   2025-08-29 09:40:14,719  pymodbus.logging:decoders.py:103 decode PDU for 3
DEBUG   2025-08-29 09:40:14,719  pymodbus.logging:base.py:102 Frame advanced, resetting header!!
DEBUG   2025-08-29 09:40:14,719  pymodbus.logging:transaction.py:67 Adding transaction 0
DEBUG   2025-08-29 09:40:14,719  pymodbus.logging:transaction.py:78 Getting transaction 0
DEBUG   2025-08-29 09:40:14,719  pymodbus.logging:transaction.py:258 Changing transaction state from "PROCESSING REPLY" to "TRANSACTION_COMPLETE"
INFO    2025-08-29 09:40:14,719  root:modbus_rtu_tcp.py:44 read_measurement ret is:ReadHoldingRegistersResponse (2)
INFO    2025-08-29 09:40:14,721  root:acudc260_modbus_get.py:173 read i_sum_current ret is:[16261, 51060]
DEBUG   2025-08-29 09:40:14,721  pymodbus.logging:transaction.py:184 Current transaction state - TRANSACTION_COMPLETE
DEBUG   2025-08-29 09:40:14,721  pymodbus.logging:transaction.py:193 Running transaction 0
DEBUG   2025-08-29 09:40:14,721  pymodbus.logging:transaction.py:293 SEND: 0x1 0x3 0x30 0x8 0x0 0x2 0x4a 0xc9
DEBUG   2025-08-29 09:40:14,721  pymodbus.logging:serial.py:271 Changing state to IDLE - Last Frame End - 1756431614.719997 Current Time stamp - 1756431614.721107
DEBUG   2025-08-29 09:40:14,721  pymodbus.logging:serial.py:279 Waiting for 3.5 char before next send - 1.823 ms
DEBUG   2025-08-29 09:40:14,723  pymodbus.logging:base.py:250 New Transaction state "SENDING"
DEBUG   2025-08-29 09:40:14,723  pymodbus.logging:transaction.py:317 Changing transaction state from "SENDING" to "WAITING FOR REPLY"
DEBUG   2025-08-29 09:40:14,751  pymodbus.logging:transaction.py:419 Changing transaction state from "WAITING FOR REPLY" to "PROCESSING REPLY"
DEBUG   2025-08-29 09:40:14,751  pymodbus.logging:transaction.py:324 RECV: 0x1 0x3 0x4 0x3d 0x1 0x7a 0xea 0x4 0xb0
DEBUG   2025-08-29 09:40:14,751  pymodbus.logging:base.py:92 Processing: 0x1 0x3 0x4 0x3d 0x1 0x7a 0xea 0x4 0xb0
DEBUG   2025-08-29 09:40:14,751  pymodbus.logging:decoders.py:103 decode PDU for 3
DEBUG   2025-08-29 09:40:14,751  pymodbus.logging:base.py:102 Frame advanced, resetting header!!
DEBUG   2025-08-29 09:40:14,751  pymodbus.logging:transaction.py:67 Adding transaction 0
DEBUG   2025-08-29 09:40:14,751  pymodbus.logging:transaction.py:78 Getting transaction 0
DEBUG   2025-08-29 09:40:14,751  pymodbus.logging:transaction.py:258 Changing transaction state from "PROCESSING REPLY" to "TRANSACTION_COMPLETE"
INFO    2025-08-29 09:40:14,751  root:modbus_rtu_tcp.py:44 read_measurement ret is:ReadHoldingRegistersResponse (2)
INFO    2025-08-29 09:40:14,751  root:acudc260_modbus_get.py:187 read p1_power ret is:[15617, 31466]
DEBUG   2025-08-29 09:40:14,752  pymodbus.logging:transaction.py:184 Current transaction state - TRANSACTION_COMPLETE
DEBUG   2025-08-29 09:40:14,752  pymodbus.logging:transaction.py:193 Running transaction 0
DEBUG   2025-08-29 09:40:14,752  pymodbus.logging:transaction.py:293 SEND: 0x1 0x3 0x30 0xa 0x0 0x2 0xeb 0x9
DEBUG   2025-08-29 09:40:14,752  pymodbus.logging:serial.py:271 Changing state to IDLE - Last Frame End - 1756431614.751037 Current Time stamp - 1756431614.75215
DEBUG   2025-08-29 09:40:14,752  pymodbus.logging:serial.py:279 Waiting for 3.5 char before next send - 1.823 ms
DEBUG   2025-08-29 09:40:14,754  pymodbus.logging:base.py:250 New Transaction state "SENDING"
DEBUG   2025-08-29 09:40:14,755  pymodbus.logging:transaction.py:317 Changing transaction state from "SENDING" to "WAITING FOR REPLY"
DEBUG   2025-08-29 09:40:14,780  pymodbus.logging:transaction.py:419 Changing transaction state from "WAITING FOR REPLY" to "PROCESSING REPLY"
DEBUG   2025-08-29 09:40:14,780  pymodbus.logging:transaction.py:324 RECV: 0x1 0x3 0x4 0x3c 0xff 0x1c 0x54 0xcf 0x6c
DEBUG   2025-08-29 09:40:14,780  pymodbus.logging:base.py:92 Processing: 0x1 0x3 0x4 0x3c 0xff 0x1c 0x54 0xcf 0x6c
DEBUG   2025-08-29 09:40:14,780  pymodbus.logging:decoders.py:103 decode PDU for 3
DEBUG   2025-08-29 09:40:14,780  pymodbus.logging:base.py:102 Frame advanced, resetting header!!
DEBUG   2025-08-29 09:40:14,780  pymodbus.logging:transaction.py:67 Adding transaction 0
DEBUG   2025-08-29 09:40:14,780  pymodbus.logging:transaction.py:78 Getting transaction 0
DEBUG   2025-08-29 09:40:14,780  pymodbus.logging:transaction.py:258 Changing transaction state from "PROCESSING REPLY" to "TRANSACTION_COMPLETE"
INFO    2025-08-29 09:40:14,780  root:modbus_rtu_tcp.py:44 read_measurement ret is:ReadHoldingRegistersResponse (2)
INFO    2025-08-29 09:40:14,780  root:acudc260_modbus_get.py:201 read p2_power ret is:[15615, 7252]
DEBUG   2025-08-29 09:40:14,780  pymodbus.logging:transaction.py:184 Current transaction state - TRANSACTION_COMPLETE
DEBUG   2025-08-29 09:40:14,780  pymodbus.logging:transaction.py:193 Running transaction 0
DEBUG   2025-08-29 09:40:14,780  pymodbus.logging:transaction.py:293 SEND: 0x1 0x3 0x30 0xc 0x0 0x2 0xb 0x8
DEBUG   2025-08-29 09:40:14,780  pymodbus.logging:serial.py:271 Changing state to IDLE - Last Frame End - 1756431614.779685 Current Time stamp - 1756431614.780652
DEBUG   2025-08-29 09:40:14,780  pymodbus.logging:serial.py:279 Waiting for 3.5 char before next send - 1.823 ms
DEBUG   2025-08-29 09:40:14,783  pymodbus.logging:base.py:250 New Transaction state "SENDING"
DEBUG   2025-08-29 09:40:14,784  pymodbus.logging:transaction.py:317 Changing transaction state from "SENDING" to "WAITING FOR REPLY"
DEBUG   2025-08-29 09:40:14,817  pymodbus.logging:transaction.py:419 Changing transaction state from "WAITING FOR REPLY" to "PROCESSING REPLY"
DEBUG   2025-08-29 09:40:14,817  pymodbus.logging:transaction.py:324 RECV: 0x1 0x3 0x4 0x3d 0x80 0xa7 0xf8 0x8d 0xc5
DEBUG   2025-08-29 09:40:14,817  pymodbus.logging:base.py:92 Processing: 0x1 0x3 0x4 0x3d 0x80 0xa7 0xf8 0x8d 0xc5
DEBUG   2025-08-29 09:40:14,817  pymodbus.logging:decoders.py:103 decode PDU for 3
DEBUG   2025-08-29 09:40:14,817  pymodbus.logging:base.py:102 Frame advanced, resetting header!!
DEBUG   2025-08-29 09:40:14,817  pymodbus.logging:transaction.py:67 Adding transaction 0
DEBUG   2025-08-29 09:40:14,817  pymodbus.logging:transaction.py:78 Getting transaction 0
DEBUG   2025-08-29 09:40:14,817  pymodbus.logging:transaction.py:258 Changing transaction state from "PROCESSING REPLY" to "TRANSACTION_COMPLETE"
INFO    2025-08-29 09:40:14,817  root:modbus_rtu_tcp.py:44 read_measurement ret is:ReadHoldingRegistersResponse (2)
INFO    2025-08-29 09:40:14,817  root:acudc260_modbus_get.py:215 read p_sum_power ret is:[15744, 43000]
DEBUG   2025-08-29 09:40:14,918  pymodbus.logging:transaction.py:184 Current transaction state - TRANSACTION_COMPLETE
DEBUG   2025-08-29 09:40:14,918  pymodbus.logging:transaction.py:193 Running transaction 0
DEBUG   2025-08-29 09:40:14,918  pymodbus.logging:transaction.py:293 SEND: 0x1 0x3 0x30 0x0 0x0 0x2 0xcb 0xb
DEBUG   2025-08-29 09:40:14,918  pymodbus.logging:serial.py:271 Changing state to IDLE - Last Frame End - 1756431614.817216 Current Time stamp - 1756431614.918639
DEBUG   2025-08-29 09:40:14,918  pymodbus.logging:base.py:250 New Transaction state "SENDING"
DEBUG   2025-08-29 09:40:14,918  pymodbus.logging:transaction.py:317 Changing transaction state from "SENDING" to "WAITING FOR REPLY"
DEBUG   2025-08-29 09:40:14,943  pymodbus.logging:transaction.py:419 Changing transaction state from "WAITING FOR REPLY" to "PROCESSING REPLY"
DEBUG   2025-08-29 09:40:14,943  pymodbus.logging:transaction.py:324 RECV: 0x1 0x3 0x4 0x42 0x70 0x1a 0xa1 0x25 0x48
DEBUG   2025-08-29 09:40:14,943  pymodbus.logging:base.py:92 Processing: 0x1 0x3 0x4 0x42 0x70 0x1a 0xa1 0x25 0x48
DEBUG   2025-08-29 09:40:14,943  pymodbus.logging:decoders.py:103 decode PDU for 3
DEBUG   2025-08-29 09:40:14,943  pymodbus.logging:base.py:102 Frame advanced, resetting header!!
DEBUG   2025-08-29 09:40:14,943  pymodbus.logging:transaction.py:67 Adding transaction 0
DEBUG   2025-08-29 09:40:14,943  pymodbus.logging:transaction.py:78 Getting transaction 0
DEBUG   2025-08-29 09:40:14,944  pymodbus.logging:transaction.py:258 Changing transaction state from "PROCESSING REPLY" to "TRANSACTION_COMPLETE"
INFO    2025-08-29 09:40:14,944  root:modbus_rtu_tcp.py:44 read_measurement ret is:ReadHoldingRegistersResponse (2)
INFO    2025-08-29 09:40:14,944  root:acudc260_modbus_get.py:131 read u_voltage ret is:[17008, 6817]
DEBUG   2025-08-29 09:40:14,944  pymodbus.logging:transaction.py:184 Current transaction state - TRANSACTION_COMPLETE
DEBUG   2025-08-29 09:40:14,944  pymodbus.logging:transaction.py:193 Running transaction 0
DEBUG   2025-08-29 09:40:14,944  pymodbus.logging:transaction.py:293 SEND: 0x1 0x3 0x30 0x2 0x0 0x2 0x6a 0xcb
DEBUG   2025-08-29 09:40:14,944  pymodbus.logging:serial.py:271 Changing state to IDLE - Last Frame End - 1756431614.943153 Current Time stamp - 1756431614.944277
DEBUG   2025-08-29 09:40:14,944  pymodbus.logging:serial.py:279 Waiting for 3.5 char before next send - 1.823 ms
DEBUG   2025-08-29 09:40:14,947  pymodbus.logging:base.py:250 New Transaction state "SENDING"
DEBUG   2025-08-29 09:40:14,947  pymodbus.logging:transaction.py:317 Changing transaction state from "SENDING" to "WAITING FOR REPLY"
DEBUG   2025-08-29 09:40:14,977  pymodbus.logging:transaction.py:419 Changing transaction state from "WAITING FOR REPLY" to "PROCESSING REPLY"
DEBUG   2025-08-29 09:40:14,977  pymodbus.logging:transaction.py:324 RECV: 0x1 0x3 0x4 0x3f 0x7 0x68 0xd5 0xa9 0xb9
DEBUG   2025-08-29 09:40:14,977  pymodbus.logging:base.py:92 Processing: 0x1 0x3 0x4 0x3f 0x7 0x68 0xd5 0xa9 0xb9
DEBUG   2025-08-29 09:40:14,977  pymodbus.logging:decoders.py:103 decode PDU for 3
DEBUG   2025-08-29 09:40:14,977  pymodbus.logging:base.py:102 Frame advanced, resetting header!!
DEBUG   2025-08-29 09:40:14,977  pymodbus.logging:transaction.py:67 Adding transaction 0
DEBUG   2025-08-29 09:40:14,977  pymodbus.logging:transaction.py:78 Getting transaction 0
DEBUG   2025-08-29 09:40:14,977  pymodbus.logging:transaction.py:258 Changing transaction state from "PROCESSING REPLY" to "TRANSACTION_COMPLETE"
INFO    2025-08-29 09:40:14,977  root:modbus_rtu_tcp.py:44 read_measurement ret is:ReadHoldingRegistersResponse (2)
INFO    2025-08-29 09:40:14,977  root:acudc260_modbus_get.py:145 read i1_current ret is:[16135, 26837]
DEBUG   2025-08-29 09:40:14,978  pymodbus.logging:transaction.py:184 Current transaction state - TRANSACTION_COMPLETE
DEBUG   2025-08-29 09:40:14,978  pymodbus.logging:transaction.py:193 Running transaction 0
DEBUG   2025-08-29 09:40:14,978  pymodbus.logging:transaction.py:293 SEND: 0x1 0x3 0x30 0x4 0x0 0x2 0x8a 0xca
DEBUG   2025-08-29 09:40:14,978  pymodbus.logging:serial.py:271 Changing state to IDLE - Last Frame End - 1756431614.97715 Current Time stamp - 1756431614.978264
DEBUG   2025-08-29 09:40:14,978  pymodbus.logging:serial.py:279 Waiting for 3.5 char before next send - 1.823 ms
DEBUG   2025-08-29 09:40:14,980  pymodbus.logging:base.py:250 New Transaction state "SENDING"
DEBUG   2025-08-29 09:40:14,980  pymodbus.logging:transaction.py:317 Changing transaction state from "SENDING" to "WAITING FOR REPLY"
DEBUG   2025-08-29 09:40:15,006  pymodbus.logging:transaction.py:419 Changing transaction state from "WAITING FOR REPLY" to "PROCESSING REPLY"
DEBUG   2025-08-29 09:40:15,006  pymodbus.logging:transaction.py:324 RECV: 0x1 0x3 0x4 0x3f 0x4 0xe8 0x72 0x79 0xc3
DEBUG   2025-08-29 09:40:15,006  pymodbus.logging:base.py:92 Processing: 0x1 0x3 0x4 0x3f 0x4 0xe8 0x72 0x79 0xc3
DEBUG   2025-08-29 09:40:15,006  pymodbus.logging:decoders.py:103 decode PDU for 3
DEBUG   2025-08-29 09:40:15,006  pymodbus.logging:base.py:102 Frame advanced, resetting header!!
DEBUG   2025-08-29 09:40:15,006  pymodbus.logging:transaction.py:67 Adding transaction 0
DEBUG   2025-08-29 09:40:15,006  pymodbus.logging:transaction.py:78 Getting transaction 0
DEBUG   2025-08-29 09:40:15,006  pymodbus.logging:transaction.py:258 Changing transaction state from "PROCESSING REPLY" to "TRANSACTION_COMPLETE"
INFO    2025-08-29 09:40:15,006  root:modbus_rtu_tcp.py:44 read_measurement ret is:ReadHoldingRegistersResponse (2)
INFO    2025-08-29 09:40:15,006  root:acudc260_modbus_get.py:159 read i2_current ret is:[16132, 59506]
DEBUG   2025-08-29 09:40:15,006  pymodbus.logging:transaction.py:184 Current transaction state - TRANSACTION_COMPLETE
DEBUG   2025-08-29 09:40:15,007  pymodbus.logging:transaction.py:193 Running transaction 0
DEBUG   2025-08-29 09:40:15,007  pymodbus.logging:transaction.py:293 SEND: 0x1 0x3 0x30 0x6 0x0 0x2 0x2b 0xa
DEBUG   2025-08-29 09:40:15,007  pymodbus.logging:serial.py:271 Changing state to IDLE - Last Frame End - 1756431615.006833 Current Time stamp - 1756431615.007956
DEBUG   2025-08-29 09:40:15,007  pymodbus.logging:serial.py:279 Waiting for 3.5 char before next send - 1.823 ms
DEBUG   2025-08-29 09:40:15,010  pymodbus.logging:base.py:250 New Transaction state "SENDING"
DEBUG   2025-08-29 09:40:15,010  pymodbus.logging:transaction.py:317 Changing transaction state from "SENDING" to "WAITING FOR REPLY"
DEBUG   2025-08-29 09:40:15,039  pymodbus.logging:transaction.py:419 Changing transaction state from "WAITING FOR REPLY" to "PROCESSING REPLY"
DEBUG   2025-08-29 09:40:15,039  pymodbus.logging:transaction.py:324 RECV: 0x1 0x3 0x4 0x3f 0x86 0x28 0xa4 0x8 0x75
DEBUG   2025-08-29 09:40:15,039  pymodbus.logging:base.py:92 Processing: 0x1 0x3 0x4 0x3f 0x86 0x28 0xa4 0x8 0x75
DEBUG   2025-08-29 09:40:15,039  pymodbus.logging:decoders.py:103 decode PDU for 3
DEBUG   2025-08-29 09:40:15,039  pymodbus.logging:base.py:102 Frame advanced, resetting header!!
DEBUG   2025-08-29 09:40:15,039  pymodbus.logging:transaction.py:67 Adding transaction 0
DEBUG   2025-08-29 09:40:15,039  pymodbus.logging:transaction.py:78 Getting transaction 0
DEBUG   2025-08-29 09:40:15,039  pymodbus.logging:transaction.py:258 Changing transaction state from "PROCESSING REPLY" to "TRANSACTION_COMPLETE"
INFO    2025-08-29 09:40:15,039  root:modbus_rtu_tcp.py:44 read_measurement ret is:ReadHoldingRegistersResponse (2)
INFO    2025-08-29 09:40:15,039  root:acudc260_modbus_get.py:173 read i_sum_current ret is:[16262, 10404]
DEBUG   2025-08-29 09:40:15,039  pymodbus.logging:transaction.py:184 Current transaction state - TRANSACTION_COMPLETE
DEBUG   2025-08-29 09:40:15,039  pymodbus.logging:transaction.py:193 Running transaction 0
DEBUG   2025-08-29 09:40:15,039  pymodbus.logging:transaction.py:293 SEND: 0x1 0x3 0x30 0x8 0x0 0x2 0x4a 0xc9
DEBUG   2025-08-29 09:40:15,040  pymodbus.logging:serial.py:271 Changing state to IDLE - Last Frame End - 1756431615.039675 Current Time stamp - 1756431615.039675
DEBUG   2025-08-29 09:40:15,040  pymodbus.logging:serial.py:279 Waiting for 3.5 char before next send - 1.823 ms
DEBUG   2025-08-29 09:40:15,043  pymodbus.logging:base.py:250 New Transaction state "SENDING"
DEBUG   2025-08-29 09:40:15,043  pymodbus.logging:transaction.py:317 Changing transaction state from "SENDING" to "WAITING FOR REPLY"
DEBUG   2025-08-29 09:40:15,071  pymodbus.logging:transaction.py:419 Changing transaction state from "WAITING FOR REPLY" to "PROCESSING REPLY"
DEBUG   2025-08-29 09:40:15,071  pymodbus.logging:transaction.py:324 RECV: 0x1 0x3 0x4 0x3d 0x0 0xcb 0xa9 0x60 0xd1
DEBUG   2025-08-29 09:40:15,071  pymodbus.logging:base.py:92 Processing: 0x1 0x3 0x4 0x3d 0x0 0xcb 0xa9 0x60 0xd1
DEBUG   2025-08-29 09:40:15,071  pymodbus.logging:decoders.py:103 decode PDU for 3
DEBUG   2025-08-29 09:40:15,071  pymodbus.logging:base.py:102 Frame advanced, resetting header!!
DEBUG   2025-08-29 09:40:15,071  pymodbus.logging:transaction.py:67 Adding transaction 0
DEBUG   2025-08-29 09:40:15,071  pymodbus.logging:transaction.py:78 Getting transaction 0
DEBUG   2025-08-29 09:40:15,071  pymodbus.logging:transaction.py:258 Changing transaction state from "PROCESSING REPLY" to "TRANSACTION_COMPLETE"
INFO    2025-08-29 09:40:15,071  root:modbus_rtu_tcp.py:44 read_measurement ret is:ReadHoldingRegistersResponse (2)
INFO    2025-08-29 09:40:15,071  root:acudc260_modbus_get.py:187 read p1_power ret is:[15616, 52137]
DEBUG   2025-08-29 09:40:15,071  pymodbus.logging:transaction.py:184 Current transaction state - TRANSACTION_COMPLETE
DEBUG   2025-08-29 09:40:15,071  pymodbus.logging:transaction.py:193 Running transaction 0
DEBUG   2025-08-29 09:40:15,071  pymodbus.logging:transaction.py:293 SEND: 0x1 0x3 0x30 0xa 0x0 0x2 0xeb 0x9
DEBUG   2025-08-29 09:40:15,072  pymodbus.logging:serial.py:271 Changing state to IDLE - Last Frame End - 1756431615.071191 Current Time stamp - 1756431615.071191
DEBUG   2025-08-29 09:40:15,072  pymodbus.logging:serial.py:279 Waiting for 3.5 char before next send - 1.823 ms
DEBUG   2025-08-29 09:40:15,074  pymodbus.logging:base.py:250 New Transaction state "SENDING"
DEBUG   2025-08-29 09:40:15,074  pymodbus.logging:transaction.py:317 Changing transaction state from "SENDING" to "WAITING FOR REPLY"
DEBUG   2025-08-29 09:40:15,103  pymodbus.logging:transaction.py:419 Changing transaction state from "WAITING FOR REPLY" to "PROCESSING REPLY"
DEBUG   2025-08-29 09:40:15,103  pymodbus.logging:transaction.py:324 RECV: 0x1 0x3 0x4 0x3d 0x0 0xd 0x86 0x72 0xad
DEBUG   2025-08-29 09:40:15,103  pymodbus.logging:base.py:92 Processing: 0x1 0x3 0x4 0x3d 0x0 0xd 0x86 0x72 0xad
DEBUG   2025-08-29 09:40:15,103  pymodbus.logging:decoders.py:103 decode PDU for 3
DEBUG   2025-08-29 09:40:15,103  pymodbus.logging:base.py:102 Frame advanced, resetting header!!
DEBUG   2025-08-29 09:40:15,103  pymodbus.logging:transaction.py:67 Adding transaction 0
DEBUG   2025-08-29 09:40:15,103  pymodbus.logging:transaction.py:78 Getting transaction 0
DEBUG   2025-08-29 09:40:15,103  pymodbus.logging:transaction.py:258 Changing transaction state from "PROCESSING REPLY" to "TRANSACTION_COMPLETE"
INFO    2025-08-29 09:40:15,103  root:modbus_rtu_tcp.py:44 read_measurement ret is:ReadHoldingRegistersResponse (2)
INFO    2025-08-29 09:40:15,103  root:acudc260_modbus_get.py:201 read p2_power ret is:[15616, 3462]
DEBUG   2025-08-29 09:40:15,103  pymodbus.logging:transaction.py:184 Current transaction state - TRANSACTION_COMPLETE
DEBUG   2025-08-29 09:40:15,103  pymodbus.logging:transaction.py:193 Running transaction 0
DEBUG   2025-08-29 09:40:15,103  pymodbus.logging:transaction.py:293 SEND: 0x1 0x3 0x30 0xc 0x0 0x2 0xb 0x8
DEBUG   2025-08-29 09:40:15,104  pymodbus.logging:serial.py:271 Changing state to IDLE - Last Frame End - 1756431615.103387 Current Time stamp - 1756431615.103387
DEBUG   2025-08-29 09:40:15,104  pymodbus.logging:serial.py:279 Waiting for 3.5 char before next send - 1.823 ms
DEBUG   2025-08-29 09:40:15,106  pymodbus.logging:base.py:250 New Transaction state "SENDING"
DEBUG   2025-08-29 09:40:15,106  pymodbus.logging:transaction.py:317 Changing transaction state from "SENDING" to "WAITING FOR REPLY"
DEBUG   2025-08-29 09:40:15,132  pymodbus.logging:transaction.py:419 Changing transaction state from "WAITING FOR REPLY" to "PROCESSING REPLY"
DEBUG   2025-08-29 09:40:15,132  pymodbus.logging:transaction.py:324 RECV: 0x1 0x3 0x4 0x3d 0x80 0x6c 0x98 0xda 0xdd
DEBUG   2025-08-29 09:40:15,132  pymodbus.logging:base.py:92 Processing: 0x1 0x3 0x4 0x3d 0x80 0x6c 0x98 0xda 0xdd
DEBUG   2025-08-29 09:40:15,132  pymodbus.logging:decoders.py:103 decode PDU for 3
DEBUG   2025-08-29 09:40:15,132  pymodbus.logging:base.py:102 Frame advanced, resetting header!!
DEBUG   2025-08-29 09:40:15,132  pymodbus.logging:transaction.py:67 Adding transaction 0
DEBUG   2025-08-29 09:40:15,132  pymodbus.logging:transaction.py:78 Getting transaction 0
DEBUG   2025-08-29 09:40:15,132  pymodbus.logging:transaction.py:258 Changing transaction state from "PROCESSING REPLY" to "TRANSACTION_COMPLETE"
INFO    2025-08-29 09:40:15,132  root:modbus_rtu_tcp.py:44 read_measurement ret is:ReadHoldingRegistersResponse (2)
INFO    2025-08-29 09:40:15,132  root:acudc260_modbus_get.py:215 read p_sum_power ret is:[15744, 27800]
DEBUG   2025-08-29 09:40:15,233  pymodbus.logging:transaction.py:184 Current transaction state - TRANSACTION_COMPLETE
DEBUG   2025-08-29 09:40:15,233  pymodbus.logging:transaction.py:193 Running transaction 0
DEBUG   2025-08-29 09:40:15,233  pymodbus.logging:transaction.py:293 SEND: 0x1 0x3 0x30 0x0 0x0 0x2 0xcb 0xb
DEBUG   2025-08-29 09:40:15,233  pymodbus.logging:serial.py:271 Changing state to IDLE - Last Frame End - 1756431615.132099 Current Time stamp - 1756431615.233203
DEBUG   2025-08-29 09:40:15,233  pymodbus.logging:base.py:250 New Transaction state "SENDING"
DEBUG   2025-08-29 09:40:15,233  pymodbus.logging:transaction.py:317 Changing transaction state from "SENDING" to "WAITING FOR REPLY"
DEBUG   2025-08-29 09:40:15,260  pymodbus.logging:transaction.py:419 Changing transaction state from "WAITING FOR REPLY" to "PROCESSING REPLY"
DEBUG   2025-08-29 09:40:15,260  pymodbus.logging:transaction.py:324 RECV: 0x1 0x3 0x4 0x42 0x70 0x1b 0x9e 0x64 0xc8
DEBUG   2025-08-29 09:40:15,260  pymodbus.logging:base.py:92 Processing: 0x1 0x3 0x4 0x42 0x70 0x1b 0x9e 0x64 0xc8
DEBUG   2025-08-29 09:40:15,260  pymodbus.logging:decoders.py:103 decode PDU for 3
DEBUG   2025-08-29 09:40:15,260  pymodbus.logging:base.py:102 Frame advanced, resetting header!!
DEBUG   2025-08-29 09:40:15,260  pymodbus.logging:transaction.py:67 Adding transaction 0
DEBUG   2025-08-29 09:40:15,260  pymodbus.logging:transaction.py:78 Getting transaction 0
DEBUG   2025-08-29 09:40:15,260  pymodbus.logging:transaction.py:258 Changing transaction state from "PROCESSING REPLY" to "TRANSACTION_COMPLETE"
INFO    2025-08-29 09:40:15,260  root:modbus_rtu_tcp.py:44 read_measurement ret is:ReadHoldingRegistersResponse (2)
INFO    2025-08-29 09:40:15,260  root:acudc260_modbus_get.py:131 read u_voltage ret is:[17008, 7070]
DEBUG   2025-08-29 09:40:15,260  pymodbus.logging:transaction.py:184 Current transaction state - TRANSACTION_COMPLETE
DEBUG   2025-08-29 09:40:15,260  pymodbus.logging:transaction.py:193 Running transaction 0
DEBUG   2025-08-29 09:40:15,260  pymodbus.logging:transaction.py:293 SEND: 0x1 0x3 0x30 0x2 0x0 0x2 0x6a 0xcb
DEBUG   2025-08-29 09:40:15,260  pymodbus.logging:serial.py:271 Changing state to IDLE - Last Frame End - 1756431615.260292 Current Time stamp - 1756431615.260292
DEBUG   2025-08-29 09:40:15,260  pymodbus.logging:serial.py:279 Waiting for 3.5 char before next send - 1.823 ms
DEBUG   2025-08-29 09:40:15,263  pymodbus.logging:base.py:250 New Transaction state "SENDING"
DEBUG   2025-08-29 09:40:15,263  pymodbus.logging:transaction.py:317 Changing transaction state from "SENDING" to "WAITING FOR REPLY"
DEBUG   2025-08-29 09:40:15,297  pymodbus.logging:transaction.py:419 Changing transaction state from "WAITING FOR REPLY" to "PROCESSING REPLY"
DEBUG   2025-08-29 09:40:15,297  pymodbus.logging:transaction.py:324 RECV: 0x1 0x3 0x4 0x3f 0x7 0xfa 0x25 0xc4 0x9d
DEBUG   2025-08-29 09:40:15,297  pymodbus.logging:base.py:92 Processing: 0x1 0x3 0x4 0x3f 0x7 0xfa 0x25 0xc4 0x9d
DEBUG   2025-08-29 09:40:15,297  pymodbus.logging:decoders.py:103 decode PDU for 3
DEBUG   2025-08-29 09:40:15,297  pymodbus.logging:base.py:102 Frame advanced, resetting header!!
DEBUG   2025-08-29 09:40:15,297  pymodbus.logging:transaction.py:67 Adding transaction 0
DEBUG   2025-08-29 09:40:15,297  pymodbus.logging:transaction.py:78 Getting transaction 0
DEBUG   2025-08-29 09:40:15,298  pymodbus.logging:transaction.py:258 Changing transaction state from "PROCESSING REPLY" to "TRANSACTION_COMPLETE"
INFO    2025-08-29 09:40:15,298  root:modbus_rtu_tcp.py:44 read_measurement ret is:ReadHoldingRegistersResponse (2)
INFO    2025-08-29 09:40:15,298  root:acudc260_modbus_get.py:145 read i1_current ret is:[16135, 64037]
DEBUG   2025-08-29 09:40:15,298  pymodbus.logging:transaction.py:184 Current transaction state - TRANSACTION_COMPLETE
DEBUG   2025-08-29 09:40:15,298  pymodbus.logging:transaction.py:193 Running transaction 0
DEBUG   2025-08-29 09:40:15,298  pymodbus.logging:transaction.py:293 SEND: 0x1 0x3 0x30 0x4 0x0 0x2 0x8a 0xca
DEBUG   2025-08-29 09:40:15,298  pymodbus.logging:serial.py:271 Changing state to IDLE - Last Frame End - 1756431615.297094 Current Time stamp - 1756431615.298532
DEBUG   2025-08-29 09:40:15,298  pymodbus.logging:serial.py:279 Waiting for 3.5 char before next send - 1.823 ms
DEBUG   2025-08-29 09:40:15,301  pymodbus.logging:base.py:250 New Transaction state "SENDING"
DEBUG   2025-08-29 09:40:15,301  pymodbus.logging:transaction.py:317 Changing transaction state from "SENDING" to "WAITING FOR REPLY"
DEBUG   2025-08-29 09:40:15,327  pymodbus.logging:transaction.py:419 Changing transaction state from "WAITING FOR REPLY" to "PROCESSING REPLY"
DEBUG   2025-08-29 09:40:15,327  pymodbus.logging:transaction.py:324 RECV: 0x1 0x3 0x4 0x3f 0x4 0xce 0xf2 0x62 0x3
DEBUG   2025-08-29 09:40:15,327  pymodbus.logging:base.py:92 Processing: 0x1 0x3 0x4 0x3f 0x4 0xce 0xf2 0x62 0x3
DEBUG   2025-08-29 09:40:15,327  pymodbus.logging:decoders.py:103 decode PDU for 3
DEBUG   2025-08-29 09:40:15,327  pymodbus.logging:base.py:102 Frame advanced, resetting header!!
DEBUG   2025-08-29 09:40:15,327  pymodbus.logging:transaction.py:67 Adding transaction 0
DEBUG   2025-08-29 09:40:15,327  pymodbus.logging:transaction.py:78 Getting transaction 0
DEBUG   2025-08-29 09:40:15,327  pymodbus.logging:transaction.py:258 Changing transaction state from "PROCESSING REPLY" to "TRANSACTION_COMPLETE"
INFO    2025-08-29 09:40:15,327  root:modbus_rtu_tcp.py:44 read_measurement ret is:ReadHoldingRegistersResponse (2)
INFO    2025-08-29 09:40:15,327  root:acudc260_modbus_get.py:159 read i2_current ret is:[16132, 52978]
DEBUG   2025-08-29 09:40:15,327  pymodbus.logging:transaction.py:184 Current transaction state - TRANSACTION_COMPLETE
DEBUG   2025-08-29 09:40:15,328  pymodbus.logging:transaction.py:193 Running transaction 0
DEBUG   2025-08-29 09:40:15,328  pymodbus.logging:transaction.py:293 SEND: 0x1 0x3 0x30 0x6 0x0 0x2 0x2b 0xa
DEBUG   2025-08-29 09:40:15,328  pymodbus.logging:serial.py:271 Changing state to IDLE - Last Frame End - 1756431615.327492 Current Time stamp - 1756431615.32852
DEBUG   2025-08-29 09:40:15,328  pymodbus.logging:serial.py:279 Waiting for 3.5 char before next send - 1.823 ms
DEBUG   2025-08-29 09:40:15,331  pymodbus.logging:base.py:250 New Transaction state "SENDING"
DEBUG   2025-08-29 09:40:15,331  pymodbus.logging:transaction.py:317 Changing transaction state from "SENDING" to "WAITING FOR REPLY"
DEBUG   2025-08-29 09:40:15,360  pymodbus.logging:transaction.py:419 Changing transaction state from "WAITING FOR REPLY" to "PROCESSING REPLY"
DEBUG   2025-08-29 09:40:15,360  pymodbus.logging:transaction.py:324 RECV: 0x1 0x3 0x4 0x3f 0x86 0x64 0x8c 0x3c 0xab
DEBUG   2025-08-29 09:40:15,360  pymodbus.logging:base.py:92 Processing: 0x1 0x3 0x4 0x3f 0x86 0x64 0x8c 0x3c 0xab
DEBUG   2025-08-29 09:40:15,360  pymodbus.logging:decoders.py:103 decode PDU for 3
DEBUG   2025-08-29 09:40:15,360  pymodbus.logging:base.py:102 Frame advanced, resetting header!!
DEBUG   2025-08-29 09:40:15,360  pymodbus.logging:transaction.py:67 Adding transaction 0
DEBUG   2025-08-29 09:40:15,360  pymodbus.logging:transaction.py:78 Getting transaction 0
DEBUG   2025-08-29 09:40:15,360  pymodbus.logging:transaction.py:258 Changing transaction state from "PROCESSING REPLY" to "TRANSACTION_COMPLETE"
INFO    2025-08-29 09:40:15,360  root:modbus_rtu_tcp.py:44 read_measurement ret is:ReadHoldingRegistersResponse (2)
INFO    2025-08-29 09:40:15,360  root:acudc260_modbus_get.py:173 read i_sum_current ret is:[16262, 25740]
DEBUG   2025-08-29 09:40:15,360  pymodbus.logging:transaction.py:184 Current transaction state - TRANSACTION_COMPLETE
DEBUG   2025-08-29 09:40:15,360  pymodbus.logging:transaction.py:193 Running transaction 0
DEBUG   2025-08-29 09:40:15,360  pymodbus.logging:transaction.py:293 SEND: 0x1 0x3 0x30 0x8 0x0 0x2 0x4a 0xc9
DEBUG   2025-08-29 09:40:15,361  pymodbus.logging:serial.py:271 Changing state to IDLE - Last Frame End - 1756431615.360586 Current Time stamp - 1756431615.361696
DEBUG   2025-08-29 09:40:15,361  pymodbus.logging:serial.py:279 Waiting for 3.5 char before next send - 1.823 ms
DEBUG   2025-08-29 09:40:15,363  pymodbus.logging:base.py:250 New Transaction state "SENDING"
DEBUG   2025-08-29 09:40:15,364  pymodbus.logging:transaction.py:317 Changing transaction state from "SENDING" to "WAITING FOR REPLY"
DEBUG   2025-08-29 09:40:15,391  pymodbus.logging:transaction.py:419 Changing transaction state from "WAITING FOR REPLY" to "PROCESSING REPLY"
DEBUG   2025-08-29 09:40:15,391  pymodbus.logging:transaction.py:324 RECV: 0x1 0x3 0x4 0x3d 0x1 0xf5 0x16 0x60 0xc1
DEBUG   2025-08-29 09:40:15,391  pymodbus.logging:base.py:92 Processing: 0x1 0x3 0x4 0x3d 0x1 0xf5 0x16 0x60 0xc1
DEBUG   2025-08-29 09:40:15,391  pymodbus.logging:decoders.py:103 decode PDU for 3
DEBUG   2025-08-29 09:40:15,391  pymodbus.logging:base.py:102 Frame advanced, resetting header!!
DEBUG   2025-08-29 09:40:15,391  pymodbus.logging:transaction.py:67 Adding transaction 0
DEBUG   2025-08-29 09:40:15,391  pymodbus.logging:transaction.py:78 Getting transaction 0
DEBUG   2025-08-29 09:40:15,391  pymodbus.logging:transaction.py:258 Changing transaction state from "PROCESSING REPLY" to "TRANSACTION_COMPLETE"
INFO    2025-08-29 09:40:15,391  root:modbus_rtu_tcp.py:44 read_measurement ret is:ReadHoldingRegistersResponse (2)
INFO    2025-08-29 09:40:15,391  root:acudc260_modbus_get.py:187 read p1_power ret is:[15617, 62742]
DEBUG   2025-08-29 09:40:15,391  pymodbus.logging:transaction.py:184 Current transaction state - TRANSACTION_COMPLETE
DEBUG   2025-08-29 09:40:15,391  pymodbus.logging:transaction.py:193 Running transaction 0
DEBUG   2025-08-29 09:40:15,391  pymodbus.logging:transaction.py:293 SEND: 0x1 0x3 0x30 0xa 0x0 0x2 0xeb 0x9
DEBUG   2025-08-29 09:40:15,391  pymodbus.logging:serial.py:271 Changing state to IDLE - Last Frame End - 1756431615.391514 Current Time stamp - 1756431615.391514
DEBUG   2025-08-29 09:40:15,392  pymodbus.logging:serial.py:279 Waiting for 3.5 char before next send - 1.823 ms
DEBUG   2025-08-29 09:40:15,394  pymodbus.logging:base.py:250 New Transaction state "SENDING"
DEBUG   2025-08-29 09:40:15,394  pymodbus.logging:transaction.py:317 Changing transaction state from "SENDING" to "WAITING FOR REPLY"
DEBUG   2025-08-29 09:40:15,424  pymodbus.logging:transaction.py:419 Changing transaction state from "WAITING FOR REPLY" to "PROCESSING REPLY"
DEBUG   2025-08-29 09:40:15,424  pymodbus.logging:transaction.py:324 RECV: 0x1 0x3 0x4 0x3d 0x2 0x1f 0x63 0x1e 0x46
DEBUG   2025-08-29 09:40:15,424  pymodbus.logging:base.py:92 Processing: 0x1 0x3 0x4 0x3d 0x2 0x1f 0x63 0x1e 0x46
DEBUG   2025-08-29 09:40:15,424  pymodbus.logging:decoders.py:103 decode PDU for 3
DEBUG   2025-08-29 09:40:15,424  pymodbus.logging:base.py:102 Frame advanced, resetting header!!
DEBUG   2025-08-29 09:40:15,424  pymodbus.logging:transaction.py:67 Adding transaction 0
DEBUG   2025-08-29 09:40:15,424  pymodbus.logging:transaction.py:78 Getting transaction 0
DEBUG   2025-08-29 09:40:15,424  pymodbus.logging:transaction.py:258 Changing transaction state from "PROCESSING REPLY" to "TRANSACTION_COMPLETE"
INFO    2025-08-29 09:40:15,424  root:modbus_rtu_tcp.py:44 read_measurement ret is:ReadHoldingRegistersResponse (2)
INFO    2025-08-29 09:40:15,424  root:acudc260_modbus_get.py:201 read p2_power ret is:[15618, 8035]
DEBUG   2025-08-29 09:40:15,424  pymodbus.logging:transaction.py:184 Current transaction state - TRANSACTION_COMPLETE
DEBUG   2025-08-29 09:40:15,424  pymodbus.logging:transaction.py:193 Running transaction 0
DEBUG   2025-08-29 09:40:15,424  pymodbus.logging:transaction.py:293 SEND: 0x1 0x3 0x30 0xc 0x0 0x2 0xb 0x8
DEBUG   2025-08-29 09:40:15,424  pymodbus.logging:serial.py:271 Changing state to IDLE - Last Frame End - 1756431615.424834 Current Time stamp - 1756431615.424834
DEBUG   2025-08-29 09:40:15,424  pymodbus.logging:serial.py:279 Waiting for 3.5 char before next send - 1.823 ms
DEBUG   2025-08-29 09:40:15,427  pymodbus.logging:base.py:250 New Transaction state "SENDING"
DEBUG   2025-08-29 09:40:15,427  pymodbus.logging:transaction.py:317 Changing transaction state from "SENDING" to "WAITING FOR REPLY"
DEBUG   2025-08-29 09:40:15,457  pymodbus.logging:transaction.py:419 Changing transaction state from "WAITING FOR REPLY" to "PROCESSING REPLY"
DEBUG   2025-08-29 09:40:15,457  pymodbus.logging:transaction.py:324 RECV: 0x1 0x3 0x4 0x3d 0x82 0xa 0x3c 0x51 0x6
DEBUG   2025-08-29 09:40:15,457  pymodbus.logging:base.py:92 Processing: 0x1 0x3 0x4 0x3d 0x82 0xa 0x3c 0x51 0x6
DEBUG   2025-08-29 09:40:15,457  pymodbus.logging:decoders.py:103 decode PDU for 3
DEBUG   2025-08-29 09:40:15,457  pymodbus.logging:base.py:102 Frame advanced, resetting header!!
DEBUG   2025-08-29 09:40:15,457  pymodbus.logging:transaction.py:67 Adding transaction 0
DEBUG   2025-08-29 09:40:15,457  pymodbus.logging:transaction.py:78 Getting transaction 0
DEBUG   2025-08-29 09:40:15,457  pymodbus.logging:transaction.py:258 Changing transaction state from "PROCESSING REPLY" to "TRANSACTION_COMPLETE"
INFO    2025-08-29 09:40:15,457  root:modbus_rtu_tcp.py:44 read_measurement ret is:ReadHoldingRegistersResponse (2)
INFO    2025-08-29 09:40:15,457  root:acudc260_modbus_get.py:215 read p_sum_power ret is:[15746, 2620]
DEBUG   2025-08-29 09:40:15,558  pymodbus.logging:transaction.py:184 Current transaction state - TRANSACTION_COMPLETE
DEBUG   2025-08-29 09:40:15,558  pymodbus.logging:transaction.py:193 Running transaction 0
DEBUG   2025-08-29 09:40:15,558  pymodbus.logging:transaction.py:293 SEND: 0x1 0x3 0x30 0x0 0x0 0x2 0xcb 0xb
DEBUG   2025-08-29 09:40:15,558  pymodbus.logging:serial.py:271 Changing state to IDLE - Last Frame End - 1756431615.457595 Current Time stamp - 1756431615.558428
DEBUG   2025-08-29 09:40:15,558  pymodbus.logging:base.py:250 New Transaction state "SENDING"
DEBUG   2025-08-29 09:40:15,558  pymodbus.logging:transaction.py:317 Changing transaction state from "SENDING" to "WAITING FOR REPLY"
DEBUG   2025-08-29 09:40:15,583  pymodbus.logging:transaction.py:419 Changing transaction state from "WAITING FOR REPLY" to "PROCESSING REPLY"
DEBUG   2025-08-29 09:40:15,583  pymodbus.logging:transaction.py:324 RECV: 0x1 0x3 0x4 0x42 0x70 0x19 0x3e 0x65 0xd0
DEBUG   2025-08-29 09:40:15,583  pymodbus.logging:base.py:92 Processing: 0x1 0x3 0x4 0x42 0x70 0x19 0x3e 0x65 0xd0
DEBUG   2025-08-29 09:40:15,583  pymodbus.logging:decoders.py:103 decode PDU for 3
DEBUG   2025-08-29 09:40:15,583  pymodbus.logging:base.py:102 Frame advanced, resetting header!!
DEBUG   2025-08-29 09:40:15,583  pymodbus.logging:transaction.py:67 Adding transaction 0
DEBUG   2025-08-29 09:40:15,583  pymodbus.logging:transaction.py:78 Getting transaction 0
DEBUG   2025-08-29 09:40:15,583  pymodbus.logging:transaction.py:258 Changing transaction state from "PROCESSING REPLY" to "TRANSACTION_COMPLETE"
INFO    2025-08-29 09:40:15,583  root:modbus_rtu_tcp.py:44 read_measurement ret is:ReadHoldingRegistersResponse (2)
INFO    2025-08-29 09:40:15,583  root:acudc260_modbus_get.py:131 read u_voltage ret is:[17008, 6462]
DEBUG   2025-08-29 09:40:15,583  pymodbus.logging:transaction.py:184 Current transaction state - TRANSACTION_COMPLETE
DEBUG   2025-08-29 09:40:15,583  pymodbus.logging:transaction.py:193 Running transaction 0
DEBUG   2025-08-29 09:40:15,583  pymodbus.logging:transaction.py:293 SEND: 0x1 0x3 0x30 0x2 0x0 0x2 0x6a 0xcb
DEBUG   2025-08-29 09:40:15,583  pymodbus.logging:serial.py:271 Changing state to IDLE - Last Frame End - 1756431615.583107 Current Time stamp - 1756431615.583107
DEBUG   2025-08-29 09:40:15,583  pymodbus.logging:serial.py:279 Waiting for 3.5 char before next send - 1.823 ms
DEBUG   2025-08-29 09:40:15,586  pymodbus.logging:base.py:250 New Transaction state "SENDING"
DEBUG   2025-08-29 09:40:15,586  pymodbus.logging:transaction.py:317 Changing transaction state from "SENDING" to "WAITING FOR REPLY"
DEBUG   2025-08-29 09:40:15,615  pymodbus.logging:transaction.py:419 Changing transaction state from "WAITING FOR REPLY" to "PROCESSING REPLY"
DEBUG   2025-08-29 09:40:15,615  pymodbus.logging:transaction.py:324 RECV: 0x1 0x3 0x4 0x3f 0x7 0xaa 0xb3 0x78 0xf3
DEBUG   2025-08-29 09:40:15,615  pymodbus.logging:base.py:92 Processing: 0x1 0x3 0x4 0x3f 0x7 0xaa 0xb3 0x78 0xf3
DEBUG   2025-08-29 09:40:15,615  pymodbus.logging:decoders.py:103 decode PDU for 3
DEBUG   2025-08-29 09:40:15,615  pymodbus.logging:base.py:102 Frame advanced, resetting header!!
DEBUG   2025-08-29 09:40:15,615  pymodbus.logging:transaction.py:67 Adding transaction 0
DEBUG   2025-08-29 09:40:15,615  pymodbus.logging:transaction.py:78 Getting transaction 0
DEBUG   2025-08-29 09:40:15,615  pymodbus.logging:transaction.py:258 Changing transaction state from "PROCESSING REPLY" to "TRANSACTION_COMPLETE"
INFO    2025-08-29 09:40:15,615  root:modbus_rtu_tcp.py:44 read_measurement ret is:ReadHoldingRegistersResponse (2)
INFO    2025-08-29 09:40:15,615  root:acudc260_modbus_get.py:145 read i1_current ret is:[16135, 43699]
DEBUG   2025-08-29 09:40:15,615  pymodbus.logging:transaction.py:184 Current transaction state - TRANSACTION_COMPLETE
DEBUG   2025-08-29 09:40:15,615  pymodbus.logging:transaction.py:193 Running transaction 0
DEBUG   2025-08-29 09:40:15,615  pymodbus.logging:transaction.py:293 SEND: 0x1 0x3 0x30 0x4 0x0 0x2 0x8a 0xca
DEBUG   2025-08-29 09:40:15,615  pymodbus.logging:serial.py:271 Changing state to IDLE - Last Frame End - 1756431615.615192 Current Time stamp - 1756431615.615192
DEBUG   2025-08-29 09:40:15,615  pymodbus.logging:serial.py:279 Waiting for 3.5 char before next send - 1.823 ms
DEBUG   2025-08-29 09:40:15,617  pymodbus.logging:base.py:250 New Transaction state "SENDING"
DEBUG   2025-08-29 09:40:15,617  pymodbus.logging:transaction.py:317 Changing transaction state from "SENDING" to "WAITING FOR REPLY"
DEBUG   2025-08-29 09:40:15,648  pymodbus.logging:transaction.py:419 Changing transaction state from "WAITING FOR REPLY" to "PROCESSING REPLY"
DEBUG   2025-08-29 09:40:15,648  pymodbus.logging:transaction.py:324 RECV: 0x1 0x3 0x4 0x3f 0x4 0x89 0x62 0x51 0x9f
DEBUG   2025-08-29 09:40:15,648  pymodbus.logging:base.py:92 Processing: 0x1 0x3 0x4 0x3f 0x4 0x89 0x62 0x51 0x9f
DEBUG   2025-08-29 09:40:15,648  pymodbus.logging:decoders.py:103 decode PDU for 3
DEBUG   2025-08-29 09:40:15,648  pymodbus.logging:base.py:102 Frame advanced, resetting header!!
DEBUG   2025-08-29 09:40:15,648  pymodbus.logging:transaction.py:67 Adding transaction 0
DEBUG   2025-08-29 09:40:15,648  pymodbus.logging:transaction.py:78 Getting transaction 0
DEBUG   2025-08-29 09:40:15,648  pymodbus.logging:transaction.py:258 Changing transaction state from "PROCESSING REPLY" to "TRANSACTION_COMPLETE"
INFO    2025-08-29 09:40:15,648  root:modbus_rtu_tcp.py:44 read_measurement ret is:ReadHoldingRegistersResponse (2)
INFO    2025-08-29 09:40:15,648  root:acudc260_modbus_get.py:159 read i2_current ret is:[16132, 35170]
DEBUG   2025-08-29 09:40:15,648  pymodbus.logging:transaction.py:184 Current transaction state - TRANSACTION_COMPLETE
DEBUG   2025-08-29 09:40:15,648  pymodbus.logging:transaction.py:193 Running transaction 0
DEBUG   2025-08-29 09:40:15,648  pymodbus.logging:transaction.py:293 SEND: 0x1 0x3 0x30 0x6 0x0 0x2 0x2b 0xa
DEBUG   2025-08-29 09:40:15,648  pymodbus.logging:serial.py:271 Changing state to IDLE - Last Frame End - 1756431615.648804 Current Time stamp - 1756431615.648804
DEBUG   2025-08-29 09:40:15,648  pymodbus.logging:serial.py:279 Waiting for 3.5 char before next send - 1.823 ms
DEBUG   2025-08-29 09:40:15,652  pymodbus.logging:base.py:250 New Transaction state "SENDING"
DEBUG   2025-08-29 09:40:15,652  pymodbus.logging:transaction.py:317 Changing transaction state from "SENDING" to "WAITING FOR REPLY"
DEBUG   2025-08-29 09:40:15,681  pymodbus.logging:transaction.py:419 Changing transaction state from "WAITING FOR REPLY" to "PROCESSING REPLY"
DEBUG   2025-08-29 09:40:15,681  pymodbus.logging:transaction.py:324 RECV: 0x1 0x3 0x4 0x3f 0x87 0x25 0xec 0x5d 0x13
DEBUG   2025-08-29 09:40:15,681  pymodbus.logging:base.py:92 Processing: 0x1 0x3 0x4 0x3f 0x87 0x25 0xec 0x5d 0x13
DEBUG   2025-08-29 09:40:15,681  pymodbus.logging:decoders.py:103 decode PDU for 3
DEBUG   2025-08-29 09:40:15,681  pymodbus.logging:base.py:102 Frame advanced, resetting header!!
DEBUG   2025-08-29 09:40:15,681  pymodbus.logging:transaction.py:67 Adding transaction 0
DEBUG   2025-08-29 09:40:15,681  pymodbus.logging:transaction.py:78 Getting transaction 0
DEBUG   2025-08-29 09:40:15,681  pymodbus.logging:transaction.py:258 Changing transaction state from "PROCESSING REPLY" to "TRANSACTION_COMPLETE"
INFO    2025-08-29 09:40:15,681  root:modbus_rtu_tcp.py:44 read_measurement ret is:ReadHoldingRegistersResponse (2)
INFO    2025-08-29 09:40:15,681  root:acudc260_modbus_get.py:173 read i_sum_current ret is:[16263, 9708]
DEBUG   2025-08-29 09:40:15,681  pymodbus.logging:transaction.py:184 Current transaction state - TRANSACTION_COMPLETE
DEBUG   2025-08-29 09:40:15,681  pymodbus.logging:transaction.py:193 Running transaction 0
DEBUG   2025-08-29 09:40:15,681  pymodbus.logging:transaction.py:293 SEND: 0x1 0x3 0x30 0x8 0x0 0x2 0x4a 0xc9
DEBUG   2025-08-29 09:40:15,681  pymodbus.logging:serial.py:271 Changing state to IDLE - Last Frame End - 1756431615.681204 Current Time stamp - 1756431615.681204
DEBUG   2025-08-29 09:40:15,681  pymodbus.logging:serial.py:279 Waiting for 3.5 char before next send - 1.823 ms
DEBUG   2025-08-29 09:40:15,684  pymodbus.logging:base.py:250 New Transaction state "SENDING"
DEBUG   2025-08-29 09:40:15,684  pymodbus.logging:transaction.py:317 Changing transaction state from "SENDING" to "WAITING FOR REPLY"
DEBUG   2025-08-29 09:40:15,711  pymodbus.logging:transaction.py:419 Changing transaction state from "WAITING FOR REPLY" to "PROCESSING REPLY"
DEBUG   2025-08-29 09:40:15,711  pymodbus.logging:transaction.py:324 RECV: 0x1 0x3 0x4 0x3d 0x3 0x47 0x64 0x35 0x84
DEBUG   2025-08-29 09:40:15,711  pymodbus.logging:base.py:92 Processing: 0x1 0x3 0x4 0x3d 0x3 0x47 0x64 0x35 0x84
DEBUG   2025-08-29 09:40:15,711  pymodbus.logging:decoders.py:103 decode PDU for 3
DEBUG   2025-08-29 09:40:15,711  pymodbus.logging:base.py:102 Frame advanced, resetting header!!
DEBUG   2025-08-29 09:40:15,711  pymodbus.logging:transaction.py:67 Adding transaction 0
DEBUG   2025-08-29 09:40:15,711  pymodbus.logging:transaction.py:78 Getting transaction 0
DEBUG   2025-08-29 09:40:15,711  pymodbus.logging:transaction.py:258 Changing transaction state from "PROCESSING REPLY" to "TRANSACTION_COMPLETE"
INFO    2025-08-29 09:40:15,711  root:modbus_rtu_tcp.py:44 read_measurement ret is:ReadHoldingRegistersResponse (2)
INFO    2025-08-29 09:40:15,711  root:acudc260_modbus_get.py:187 read p1_power ret is:[15619, 18276]
DEBUG   2025-08-29 09:40:15,711  pymodbus.logging:transaction.py:184 Current transaction state - TRANSACTION_COMPLETE
DEBUG   2025-08-29 09:40:15,711  pymodbus.logging:transaction.py:193 Running transaction 0
DEBUG   2025-08-29 09:40:15,711  pymodbus.logging:transaction.py:293 SEND: 0x1 0x3 0x30 0xa 0x0 0x2 0xeb 0x9
DEBUG   2025-08-29 09:40:15,711  pymodbus.logging:serial.py:271 Changing state to IDLE - Last Frame End - 1756431615.71185 Current Time stamp - 1756431615.71185
DEBUG   2025-08-29 09:40:15,712  pymodbus.logging:serial.py:279 Waiting for 3.5 char before next send - 1.823 ms
DEBUG   2025-08-29 09:40:15,714  pymodbus.logging:base.py:250 New Transaction state "SENDING"
DEBUG   2025-08-29 09:40:15,714  pymodbus.logging:transaction.py:317 Changing transaction state from "SENDING" to "WAITING FOR REPLY"
DEBUG   2025-08-29 09:40:15,743  pymodbus.logging:transaction.py:419 Changing transaction state from "WAITING FOR REPLY" to "PROCESSING REPLY"
DEBUG   2025-08-29 09:40:15,743  pymodbus.logging:transaction.py:324 RECV: 0x1 0x3 0x4 0x3d 0x0 0x53 0x4c 0xca 0x9a
DEBUG   2025-08-29 09:40:15,743  pymodbus.logging:base.py:92 Processing: 0x1 0x3 0x4 0x3d 0x0 0x53 0x4c 0xca 0x9a
DEBUG   2025-08-29 09:40:15,743  pymodbus.logging:decoders.py:103 decode PDU for 3
DEBUG   2025-08-29 09:40:15,743  pymodbus.logging:base.py:102 Frame advanced, resetting header!!
DEBUG   2025-08-29 09:40:15,743  pymodbus.logging:transaction.py:67 Adding transaction 0
DEBUG   2025-08-29 09:40:15,743  pymodbus.logging:transaction.py:78 Getting transaction 0
DEBUG   2025-08-29 09:40:15,743  pymodbus.logging:transaction.py:258 Changing transaction state from "PROCESSING REPLY" to "TRANSACTION_COMPLETE"
INFO    2025-08-29 09:40:15,743  root:modbus_rtu_tcp.py:44 read_measurement ret is:ReadHoldingRegistersResponse (2)
INFO    2025-08-29 09:40:15,743  root:acudc260_modbus_get.py:201 read p2_power ret is:[15616, 21324]
DEBUG   2025-08-29 09:40:15,743  pymodbus.logging:transaction.py:184 Current transaction state - TRANSACTION_COMPLETE
DEBUG   2025-08-29 09:40:15,743  pymodbus.logging:transaction.py:193 Running transaction 0
DEBUG   2025-08-29 09:40:15,743  pymodbus.logging:transaction.py:293 SEND: 0x1 0x3 0x30 0xc 0x0 0x2 0xb 0x8
DEBUG   2025-08-29 09:40:15,743  pymodbus.logging:serial.py:271 Changing state to IDLE - Last Frame End - 1756431615.743939 Current Time stamp - 1756431615.743939
DEBUG   2025-08-29 09:40:15,744  pymodbus.logging:serial.py:279 Waiting for 3.5 char before next send - 1.823 ms
DEBUG   2025-08-29 09:40:15,747  pymodbus.logging:base.py:250 New Transaction state "SENDING"
DEBUG   2025-08-29 09:40:15,747  pymodbus.logging:transaction.py:317 Changing transaction state from "SENDING" to "WAITING FOR REPLY"
DEBUG   2025-08-29 09:40:15,772  pymodbus.logging:transaction.py:419 Changing transaction state from "WAITING FOR REPLY" to "PROCESSING REPLY"
DEBUG   2025-08-29 09:40:15,772  pymodbus.logging:transaction.py:324 RECV: 0x1 0x3 0x4 0x3d 0x80 0x83 0x6b 0xd6 0xa8
DEBUG   2025-08-29 09:40:15,772  pymodbus.logging:base.py:92 Processing: 0x1 0x3 0x4 0x3d 0x80 0x83 0x6b 0xd6 0xa8
DEBUG   2025-08-29 09:40:15,772  pymodbus.logging:decoders.py:103 decode PDU for 3
DEBUG   2025-08-29 09:40:15,772  pymodbus.logging:base.py:102 Frame advanced, resetting header!!
DEBUG   2025-08-29 09:40:15,772  pymodbus.logging:transaction.py:67 Adding transaction 0
DEBUG   2025-08-29 09:40:15,772  pymodbus.logging:transaction.py:78 Getting transaction 0
DEBUG   2025-08-29 09:40:15,772  pymodbus.logging:transaction.py:258 Changing transaction state from "PROCESSING REPLY" to "TRANSACTION_COMPLETE"
INFO    2025-08-29 09:40:15,772  root:modbus_rtu_tcp.py:44 read_measurement ret is:ReadHoldingRegistersResponse (2)
INFO    2025-08-29 09:40:15,772  root:acudc260_modbus_get.py:215 read p_sum_power ret is:[15744, 33643]
DEBUG   2025-08-29 09:40:15,873  pymodbus.logging:transaction.py:184 Current transaction state - TRANSACTION_COMPLETE
DEBUG   2025-08-29 09:40:15,873  pymodbus.logging:transaction.py:193 Running transaction 0
DEBUG   2025-08-29 09:40:15,873  pymodbus.logging:transaction.py:293 SEND: 0x1 0x3 0x30 0x0 0x0 0x2 0xcb 0xb
DEBUG   2025-08-29 09:40:15,873  pymodbus.logging:serial.py:271 Changing state to IDLE - Last Frame End - 1756431615.77207 Current Time stamp - 1756431615.873624
DEBUG   2025-08-29 09:40:15,873  pymodbus.logging:base.py:250 New Transaction state "SENDING"
DEBUG   2025-08-29 09:40:15,873  pymodbus.logging:transaction.py:317 Changing transaction state from "SENDING" to "WAITING FOR REPLY"
DEBUG   2025-08-29 09:40:15,903  pymodbus.logging:transaction.py:419 Changing transaction state from "WAITING FOR REPLY" to "PROCESSING REPLY"
DEBUG   2025-08-29 09:40:15,903  pymodbus.logging:transaction.py:324 RECV: 0x1 0x3 0x4 0x42 0x70 0x1b 0x45 0x24 0x93
DEBUG   2025-08-29 09:40:15,903  pymodbus.logging:base.py:92 Processing: 0x1 0x3 0x4 0x42 0x70 0x1b 0x45 0x24 0x93
DEBUG   2025-08-29 09:40:15,903  pymodbus.logging:decoders.py:103 decode PDU for 3
DEBUG   2025-08-29 09:40:15,903  pymodbus.logging:base.py:102 Frame advanced, resetting header!!
DEBUG   2025-08-29 09:40:15,903  pymodbus.logging:transaction.py:67 Adding transaction 0
DEBUG   2025-08-29 09:40:15,903  pymodbus.logging:transaction.py:78 Getting transaction 0
DEBUG   2025-08-29 09:40:15,903  pymodbus.logging:transaction.py:258 Changing transaction state from "PROCESSING REPLY" to "TRANSACTION_COMPLETE"
INFO    2025-08-29 09:40:15,903  root:modbus_rtu_tcp.py:44 read_measurement ret is:ReadHoldingRegistersResponse (2)
INFO    2025-08-29 09:40:15,903  root:acudc260_modbus_get.py:131 read u_voltage ret is:[17008, 6981]
DEBUG   2025-08-29 09:40:15,904  pymodbus.logging:transaction.py:184 Current transaction state - TRANSACTION_COMPLETE
DEBUG   2025-08-29 09:40:15,904  pymodbus.logging:transaction.py:193 Running transaction 0
DEBUG   2025-08-29 09:40:15,904  pymodbus.logging:transaction.py:293 SEND: 0x1 0x3 0x30 0x2 0x0 0x2 0x6a 0xcb
DEBUG   2025-08-29 09:40:15,904  pymodbus.logging:serial.py:271 Changing state to IDLE - Last Frame End - 1756431615.903679 Current Time stamp - 1756431615.904792
DEBUG   2025-08-29 09:40:15,904  pymodbus.logging:serial.py:279 Waiting for 3.5 char before next send - 1.823 ms
DEBUG   2025-08-29 09:40:15,907  pymodbus.logging:base.py:250 New Transaction state "SENDING"
DEBUG   2025-08-29 09:40:15,907  pymodbus.logging:transaction.py:317 Changing transaction state from "SENDING" to "WAITING FOR REPLY"
DEBUG   2025-08-29 09:40:15,936  pymodbus.logging:transaction.py:419 Changing transaction state from "WAITING FOR REPLY" to "PROCESSING REPLY"
DEBUG   2025-08-29 09:40:15,936  pymodbus.logging:transaction.py:324 RECV: 0x1 0x3 0x4 0x3f 0x7 0x23 0xa5 0x9e 0xad
DEBUG   2025-08-29 09:40:15,936  pymodbus.logging:base.py:92 Processing: 0x1 0x3 0x4 0x3f 0x7 0x23 0xa5 0x9e 0xad
DEBUG   2025-08-29 09:40:15,936  pymodbus.logging:decoders.py:103 decode PDU for 3
DEBUG   2025-08-29 09:40:15,936  pymodbus.logging:base.py:102 Frame advanced, resetting header!!
DEBUG   2025-08-29 09:40:15,936  pymodbus.logging:transaction.py:67 Adding transaction 0
DEBUG   2025-08-29 09:40:15,936  pymodbus.logging:transaction.py:78 Getting transaction 0
DEBUG   2025-08-29 09:40:15,936  pymodbus.logging:transaction.py:258 Changing transaction state from "PROCESSING REPLY" to "TRANSACTION_COMPLETE"
INFO    2025-08-29 09:40:15,936  root:modbus_rtu_tcp.py:44 read_measurement ret is:ReadHoldingRegistersResponse (2)
INFO    2025-08-29 09:40:15,936  root:acudc260_modbus_get.py:145 read i1_current ret is:[16135, 9125]
DEBUG   2025-08-29 09:40:15,936  pymodbus.logging:transaction.py:184 Current transaction state - TRANSACTION_COMPLETE
DEBUG   2025-08-29 09:40:15,936  pymodbus.logging:transaction.py:193 Running transaction 0
DEBUG   2025-08-29 09:40:15,937  pymodbus.logging:transaction.py:293 SEND: 0x1 0x3 0x30 0x4 0x0 0x2 0x8a 0xca
DEBUG   2025-08-29 09:40:15,937  pymodbus.logging:serial.py:271 Changing state to IDLE - Last Frame End - 1756431615.936058 Current Time stamp - 1756431615.93707
DEBUG   2025-08-29 09:40:15,937  pymodbus.logging:serial.py:279 Waiting for 3.5 char before next send - 1.823 ms
DEBUG   2025-08-29 09:40:15,939  pymodbus.logging:base.py:250 New Transaction state "SENDING"
DEBUG   2025-08-29 09:40:15,939  pymodbus.logging:transaction.py:317 Changing transaction state from "SENDING" to "WAITING FOR REPLY"
DEBUG   2025-08-29 09:40:15,967  pymodbus.logging:transaction.py:419 Changing transaction state from "WAITING FOR REPLY" to "PROCESSING REPLY"
DEBUG   2025-08-29 09:40:15,967  pymodbus.logging:transaction.py:324 RECV: 0x1 0x3 0x4 0x3f 0x6 0x13 0x7d 0xdb 0x37
DEBUG   2025-08-29 09:40:15,967  pymodbus.logging:base.py:92 Processing: 0x1 0x3 0x4 0x3f 0x6 0x13 0x7d 0xdb 0x37
DEBUG   2025-08-29 09:40:15,967  pymodbus.logging:decoders.py:103 decode PDU for 3
DEBUG   2025-08-29 09:40:15,968  pymodbus.logging:base.py:102 Frame advanced, resetting header!!
DEBUG   2025-08-29 09:40:15,968  pymodbus.logging:transaction.py:67 Adding transaction 0
DEBUG   2025-08-29 09:40:15,968  pymodbus.logging:transaction.py:78 Getting transaction 0
DEBUG   2025-08-29 09:40:15,968  pymodbus.logging:transaction.py:258 Changing transaction state from "PROCESSING REPLY" to "TRANSACTION_COMPLETE"
INFO    2025-08-29 09:40:15,968  root:modbus_rtu_tcp.py:44 read_measurement ret is:ReadHoldingRegistersResponse (2)
INFO    2025-08-29 09:40:15,968  root:acudc260_modbus_get.py:159 read i2_current ret is:[16134, 4989]
DEBUG   2025-08-29 09:40:15,968  pymodbus.logging:transaction.py:184 Current transaction state - TRANSACTION_COMPLETE
DEBUG   2025-08-29 09:40:15,968  pymodbus.logging:transaction.py:193 Running transaction 0
DEBUG   2025-08-29 09:40:15,968  pymodbus.logging:transaction.py:293 SEND: 0x1 0x3 0x30 0x6 0x0 0x2 0x2b 0xa
DEBUG   2025-08-29 09:40:15,968  pymodbus.logging:serial.py:271 Changing state to IDLE - Last Frame End - 1756431615.967973 Current Time stamp - 1756431615.968582
DEBUG   2025-08-29 09:40:15,968  pymodbus.logging:serial.py:279 Waiting for 3.5 char before next send - 1.823 ms
