INFO    2025-08-29 09:10:54,898  root:acudc260_fast_test.py:477 测试进度:['test_case', 'Voltage', 'Current_1', 'Current_2', '等待时间(h)', 'voltage_accuracy', 'current_accuracy', 'power_accuracy', '采样次数', '采样间隔'],执行时间:2025_08_29 09:10:54
INFO    2025-08-29 09:10:54,898  root:source_control.py:26 <源输出>
    电压检定点:0.0%;
    电流检定点:0.10400000000000001%;
    电压纹波比例:0%;
    电流纹波比例:0%;
    电压纹波相位:0度;
    电流纹波相位:0度;
    纹波频率:300Hz;
    电能方向:正向;
    <End>
INFO    2025-08-29 09:10:58,010  root:source_control.py:30 recv_data ret is:<源输出应答>
电压总值:0.000000V;
电流总值:0.520000A;
功率总值:0.000000W;
电压直流:0.000000V;
电流直流:0.520000A;
功率直流:0.000000W;
电压纹波:0.000000V;
电流纹波:0.000000A;
功率纹波:0.000000W;
<End>
DEBUG   2025-08-29 09:11:08,111  pymodbus.logging:transaction.py:184 Current transaction state - IDLE
DEBUG   2025-08-29 09:11:08,111  pymodbus.logging:transaction.py:193 Running transaction 0
DEBUG   2025-08-29 09:11:08,111  pymodbus.logging:transaction.py:293 SEND: 0x1 0x3 0x30 0x0 0x0 0x2 0xcb 0xb
DEBUG   2025-08-29 09:11:08,112  pymodbus.logging:base.py:250 New Transaction state "SENDING"
DEBUG   2025-08-29 09:11:08,112  pymodbus.logging:transaction.py:317 Changing transaction state from "SENDING" to "WAITING FOR REPLY"
DEBUG   2025-08-29 09:11:08,139  pymodbus.logging:transaction.py:419 Changing transaction state from "WAITING FOR REPLY" to "PROCESSING REPLY"
DEBUG   2025-08-29 09:11:08,139  pymodbus.logging:transaction.py:324 RECV: 0x1 0x3 0x4 0x0 0x0 0x0 0x0 0xfa 0x33
DEBUG   2025-08-29 09:11:08,139  pymodbus.logging:base.py:92 Processing: 0x1 0x3 0x4 0x0 0x0 0x0 0x0 0xfa 0x33
DEBUG   2025-08-29 09:11:08,139  pymodbus.logging:decoders.py:103 decode PDU for 3
DEBUG   2025-08-29 09:11:08,139  pymodbus.logging:base.py:102 Frame advanced, resetting header!!
DEBUG   2025-08-29 09:11:08,139  pymodbus.logging:transaction.py:67 Adding transaction 0
DEBUG   2025-08-29 09:11:08,139  pymodbus.logging:transaction.py:78 Getting transaction 0
DEBUG   2025-08-29 09:11:08,139  pymodbus.logging:transaction.py:258 Changing transaction state from "PROCESSING REPLY" to "TRANSACTION_COMPLETE"
INFO    2025-08-29 09:11:08,139  root:modbus_rtu_tcp.py:44 read_measurement ret is:ReadHoldingRegistersResponse (2)
INFO    2025-08-29 09:11:08,139  root:acudc260_modbus_get.py:131 read u_voltage ret is:[0, 0]
DEBUG   2025-08-29 09:11:08,139  pymodbus.logging:transaction.py:184 Current transaction state - TRANSACTION_COMPLETE
DEBUG   2025-08-29 09:11:08,139  pymodbus.logging:transaction.py:193 Running transaction 0
DEBUG   2025-08-29 09:11:08,139  pymodbus.logging:transaction.py:293 SEND: 0x1 0x3 0x30 0x2 0x0 0x2 0x6a 0xcb
DEBUG   2025-08-29 09:11:08,139  pymodbus.logging:serial.py:271 Changing state to IDLE - Last Frame End - 1756429868.139216 Current Time stamp - 1756429868.139827
DEBUG   2025-08-29 09:11:08,139  pymodbus.logging:serial.py:279 Waiting for 3.5 char before next send - 1.823 ms
DEBUG   2025-08-29 09:11:08,142  pymodbus.logging:base.py:250 New Transaction state "SENDING"
DEBUG   2025-08-29 09:11:08,142  pymodbus.logging:transaction.py:317 Changing transaction state from "SENDING" to "WAITING FOR REPLY"
DEBUG   2025-08-29 09:11:08,169  pymodbus.logging:transaction.py:419 Changing transaction state from "WAITING FOR REPLY" to "PROCESSING REPLY"
DEBUG   2025-08-29 09:11:08,169  pymodbus.logging:transaction.py:324 RECV: 0x1 0x3 0x4 0x3f 0x5 0x28 0x40 0xf9 0xd6
DEBUG   2025-08-29 09:11:08,169  pymodbus.logging:base.py:92 Processing: 0x1 0x3 0x4 0x3f 0x5 0x28 0x40 0xf9 0xd6
DEBUG   2025-08-29 09:11:08,169  pymodbus.logging:decoders.py:103 decode PDU for 3
DEBUG   2025-08-29 09:11:08,169  pymodbus.logging:base.py:102 Frame advanced, resetting header!!
DEBUG   2025-08-29 09:11:08,169  pymodbus.logging:transaction.py:67 Adding transaction 0
DEBUG   2025-08-29 09:11:08,169  pymodbus.logging:transaction.py:78 Getting transaction 0
DEBUG   2025-08-29 09:11:08,169  pymodbus.logging:transaction.py:258 Changing transaction state from "PROCESSING REPLY" to "TRANSACTION_COMPLETE"
INFO    2025-08-29 09:11:08,169  root:modbus_rtu_tcp.py:44 read_measurement ret is:ReadHoldingRegistersResponse (2)
INFO    2025-08-29 09:11:08,169  root:acudc260_modbus_get.py:145 read i1_current ret is:[16133, 10304]
DEBUG   2025-08-29 09:11:08,169  pymodbus.logging:transaction.py:184 Current transaction state - TRANSACTION_COMPLETE
DEBUG   2025-08-29 09:11:08,169  pymodbus.logging:transaction.py:193 Running transaction 0
DEBUG   2025-08-29 09:11:08,169  pymodbus.logging:transaction.py:293 SEND: 0x1 0x3 0x30 0x4 0x0 0x2 0x8a 0xca
DEBUG   2025-08-29 09:11:08,170  pymodbus.logging:serial.py:271 Changing state to IDLE - Last Frame End - 1756429868.169077 Current Time stamp - 1756429868.17011
DEBUG   2025-08-29 09:11:08,170  pymodbus.logging:serial.py:279 Waiting for 3.5 char before next send - 1.823 ms
DEBUG   2025-08-29 09:11:08,172  pymodbus.logging:base.py:250 New Transaction state "SENDING"
DEBUG   2025-08-29 09:11:08,172  pymodbus.logging:transaction.py:317 Changing transaction state from "SENDING" to "WAITING FOR REPLY"
DEBUG   2025-08-29 09:11:08,202  pymodbus.logging:transaction.py:419 Changing transaction state from "WAITING FOR REPLY" to "PROCESSING REPLY"
DEBUG   2025-08-29 09:11:08,202  pymodbus.logging:transaction.py:324 RECV: 0x1 0x3 0x4 0x3f 0x3 0x39 0x45 0xd5 0x84
DEBUG   2025-08-29 09:11:08,202  pymodbus.logging:base.py:92 Processing: 0x1 0x3 0x4 0x3f 0x3 0x39 0x45 0xd5 0x84
DEBUG   2025-08-29 09:11:08,202  pymodbus.logging:decoders.py:103 decode PDU for 3
DEBUG   2025-08-29 09:11:08,202  pymodbus.logging:base.py:102 Frame advanced, resetting header!!
DEBUG   2025-08-29 09:11:08,202  pymodbus.logging:transaction.py:67 Adding transaction 0
DEBUG   2025-08-29 09:11:08,202  pymodbus.logging:transaction.py:78 Getting transaction 0
DEBUG   2025-08-29 09:11:08,202  pymodbus.logging:transaction.py:258 Changing transaction state from "PROCESSING REPLY" to "TRANSACTION_COMPLETE"
INFO    2025-08-29 09:11:08,203  root:modbus_rtu_tcp.py:44 read_measurement ret is:ReadHoldingRegistersResponse (2)
INFO    2025-08-29 09:11:08,203  root:acudc260_modbus_get.py:159 read i2_current ret is:[16131, 14661]
DEBUG   2025-08-29 09:11:08,203  pymodbus.logging:transaction.py:184 Current transaction state - TRANSACTION_COMPLETE
DEBUG   2025-08-29 09:11:08,203  pymodbus.logging:transaction.py:193 Running transaction 0
DEBUG   2025-08-29 09:11:08,203  pymodbus.logging:transaction.py:293 SEND: 0x1 0x3 0x30 0x6 0x0 0x2 0x2b 0xa
DEBUG   2025-08-29 09:11:08,203  pymodbus.logging:serial.py:271 Changing state to IDLE - Last Frame End - 1756429868.202869 Current Time stamp - 1756429868.203898
DEBUG   2025-08-29 09:11:08,203  pymodbus.logging:serial.py:279 Waiting for 3.5 char before next send - 1.823 ms
DEBUG   2025-08-29 09:11:08,206  pymodbus.logging:base.py:250 New Transaction state "SENDING"
DEBUG   2025-08-29 09:11:08,206  pymodbus.logging:transaction.py:317 Changing transaction state from "SENDING" to "WAITING FOR REPLY"
DEBUG   2025-08-29 09:11:08,233  pymodbus.logging:transaction.py:419 Changing transaction state from "WAITING FOR REPLY" to "PROCESSING REPLY"
DEBUG   2025-08-29 09:11:08,233  pymodbus.logging:transaction.py:324 RECV: 0x1 0x3 0x4 0x3f 0x83 0x59 0x20 0x3c 0x47
DEBUG   2025-08-29 09:11:08,233  pymodbus.logging:base.py:92 Processing: 0x1 0x3 0x4 0x3f 0x83 0x59 0x20 0x3c 0x47
DEBUG   2025-08-29 09:11:08,233  pymodbus.logging:decoders.py:103 decode PDU for 3
DEBUG   2025-08-29 09:11:08,233  pymodbus.logging:base.py:102 Frame advanced, resetting header!!
DEBUG   2025-08-29 09:11:08,233  pymodbus.logging:transaction.py:67 Adding transaction 0
DEBUG   2025-08-29 09:11:08,234  pymodbus.logging:transaction.py:78 Getting transaction 0
DEBUG   2025-08-29 09:11:08,234  pymodbus.logging:transaction.py:258 Changing transaction state from "PROCESSING REPLY" to "TRANSACTION_COMPLETE"
INFO    2025-08-29 09:11:08,234  root:modbus_rtu_tcp.py:44 read_measurement ret is:ReadHoldingRegistersResponse (2)
INFO    2025-08-29 09:11:08,234  root:acudc260_modbus_get.py:173 read i_sum_current ret is:[16259, 22816]
DEBUG   2025-08-29 09:11:08,234  pymodbus.logging:transaction.py:184 Current transaction state - TRANSACTION_COMPLETE
DEBUG   2025-08-29 09:11:08,234  pymodbus.logging:transaction.py:193 Running transaction 0
DEBUG   2025-08-29 09:11:08,234  pymodbus.logging:transaction.py:293 SEND: 0x1 0x3 0x30 0x8 0x0 0x2 0x4a 0xc9
DEBUG   2025-08-29 09:11:08,234  pymodbus.logging:serial.py:271 Changing state to IDLE - Last Frame End - 1756429868.233092 Current Time stamp - 1756429868.234206
DEBUG   2025-08-29 09:11:08,234  pymodbus.logging:serial.py:279 Waiting for 3.5 char before next send - 1.823 ms
DEBUG   2025-08-29 09:11:08,237  pymodbus.logging:base.py:250 New Transaction state "SENDING"
DEBUG   2025-08-29 09:11:08,237  pymodbus.logging:transaction.py:317 Changing transaction state from "SENDING" to "WAITING FOR REPLY"
DEBUG   2025-08-29 09:11:08,267  pymodbus.logging:transaction.py:419 Changing transaction state from "WAITING FOR REPLY" to "PROCESSING REPLY"
DEBUG   2025-08-29 09:11:08,267  pymodbus.logging:transaction.py:324 RECV: 0x1 0x3 0x4 0x0 0x0 0x0 0x0 0xfa 0x33
DEBUG   2025-08-29 09:11:08,267  pymodbus.logging:base.py:92 Processing: 0x1 0x3 0x4 0x0 0x0 0x0 0x0 0xfa 0x33
DEBUG   2025-08-29 09:11:08,267  pymodbus.logging:decoders.py:103 decode PDU for 3
DEBUG   2025-08-29 09:11:08,267  pymodbus.logging:base.py:102 Frame advanced, resetting header!!
DEBUG   2025-08-29 09:11:08,267  pymodbus.logging:transaction.py:67 Adding transaction 0
DEBUG   2025-08-29 09:11:08,267  pymodbus.logging:transaction.py:78 Getting transaction 0
DEBUG   2025-08-29 09:11:08,267  pymodbus.logging:transaction.py:258 Changing transaction state from "PROCESSING REPLY" to "TRANSACTION_COMPLETE"
INFO    2025-08-29 09:11:08,267  root:modbus_rtu_tcp.py:44 read_measurement ret is:ReadHoldingRegistersResponse (2)
INFO    2025-08-29 09:11:08,268  root:acudc260_modbus_get.py:187 read p1_power ret is:[0, 0]
DEBUG   2025-08-29 09:11:08,268  pymodbus.logging:transaction.py:184 Current transaction state - TRANSACTION_COMPLETE
DEBUG   2025-08-29 09:11:08,268  pymodbus.logging:transaction.py:193 Running transaction 0
DEBUG   2025-08-29 09:11:08,268  pymodbus.logging:transaction.py:293 SEND: 0x1 0x3 0x30 0xa 0x0 0x2 0xeb 0x9
DEBUG   2025-08-29 09:11:08,268  pymodbus.logging:serial.py:271 Changing state to IDLE - Last Frame End - 1756429868.267044 Current Time stamp - 1756429868.268053
DEBUG   2025-08-29 09:11:08,268  pymodbus.logging:serial.py:279 Waiting for 3.5 char before next send - 1.823 ms
DEBUG   2025-08-29 09:11:08,270  pymodbus.logging:base.py:250 New Transaction state "SENDING"
DEBUG   2025-08-29 09:11:08,270  pymodbus.logging:transaction.py:317 Changing transaction state from "SENDING" to "WAITING FOR REPLY"
DEBUG   2025-08-29 09:11:08,297  pymodbus.logging:transaction.py:419 Changing transaction state from "WAITING FOR REPLY" to "PROCESSING REPLY"
DEBUG   2025-08-29 09:11:08,297  pymodbus.logging:transaction.py:324 RECV: 0x1 0x3 0x4 0x0 0x0 0x0 0x0 0xfa 0x33
DEBUG   2025-08-29 09:11:08,297  pymodbus.logging:base.py:92 Processing: 0x1 0x3 0x4 0x0 0x0 0x0 0x0 0xfa 0x33
DEBUG   2025-08-29 09:11:08,297  pymodbus.logging:decoders.py:103 decode PDU for 3
DEBUG   2025-08-29 09:11:08,297  pymodbus.logging:base.py:102 Frame advanced, resetting header!!
DEBUG   2025-08-29 09:11:08,297  pymodbus.logging:transaction.py:67 Adding transaction 0
DEBUG   2025-08-29 09:11:08,297  pymodbus.logging:transaction.py:78 Getting transaction 0
DEBUG   2025-08-29 09:11:08,297  pymodbus.logging:transaction.py:258 Changing transaction state from "PROCESSING REPLY" to "TRANSACTION_COMPLETE"
INFO    2025-08-29 09:11:08,297  root:modbus_rtu_tcp.py:44 read_measurement ret is:ReadHoldingRegistersResponse (2)
INFO    2025-08-29 09:11:08,297  root:acudc260_modbus_get.py:201 read p2_power ret is:[0, 0]
DEBUG   2025-08-29 09:11:08,297  pymodbus.logging:transaction.py:184 Current transaction state - TRANSACTION_COMPLETE
DEBUG   2025-08-29 09:11:08,297  pymodbus.logging:transaction.py:193 Running transaction 0
DEBUG   2025-08-29 09:11:08,297  pymodbus.logging:transaction.py:293 SEND: 0x1 0x3 0x30 0xc 0x0 0x2 0xb 0x8
DEBUG   2025-08-29 09:11:08,297  pymodbus.logging:serial.py:271 Changing state to IDLE - Last Frame End - 1756429868.297406 Current Time stamp - 1756429868.297915
DEBUG   2025-08-29 09:11:08,297  pymodbus.logging:serial.py:279 Waiting for 3.5 char before next send - 1.823 ms
DEBUG   2025-08-29 09:11:08,300  pymodbus.logging:base.py:250 New Transaction state "SENDING"
DEBUG   2025-08-29 09:11:08,301  pymodbus.logging:transaction.py:317 Changing transaction state from "SENDING" to "WAITING FOR REPLY"
DEBUG   2025-08-29 09:11:08,330  pymodbus.logging:transaction.py:419 Changing transaction state from "WAITING FOR REPLY" to "PROCESSING REPLY"
DEBUG   2025-08-29 09:11:08,330  pymodbus.logging:transaction.py:324 RECV: 0x1 0x3 0x4 0x0 0x0 0x0 0x0 0xfa 0x33
DEBUG   2025-08-29 09:11:08,330  pymodbus.logging:base.py:92 Processing: 0x1 0x3 0x4 0x0 0x0 0x0 0x0 0xfa 0x33
DEBUG   2025-08-29 09:11:08,330  pymodbus.logging:decoders.py:103 decode PDU for 3
DEBUG   2025-08-29 09:11:08,331  pymodbus.logging:base.py:102 Frame advanced, resetting header!!
DEBUG   2025-08-29 09:11:08,331  pymodbus.logging:transaction.py:67 Adding transaction 0
DEBUG   2025-08-29 09:11:08,331  pymodbus.logging:transaction.py:78 Getting transaction 0
DEBUG   2025-08-29 09:11:08,331  pymodbus.logging:transaction.py:258 Changing transaction state from "PROCESSING REPLY" to "TRANSACTION_COMPLETE"
INFO    2025-08-29 09:11:08,331  root:modbus_rtu_tcp.py:44 read_measurement ret is:ReadHoldingRegistersResponse (2)
INFO    2025-08-29 09:11:08,331  root:acudc260_modbus_get.py:215 read p_sum_power ret is:[0, 0]
DEBUG   2025-08-29 09:11:08,431  pymodbus.logging:transaction.py:184 Current transaction state - TRANSACTION_COMPLETE
DEBUG   2025-08-29 09:11:08,431  pymodbus.logging:transaction.py:193 Running transaction 0
DEBUG   2025-08-29 09:11:08,431  pymodbus.logging:transaction.py:293 SEND: 0x1 0x3 0x30 0x0 0x0 0x2 0xcb 0xb
DEBUG   2025-08-29 09:11:08,431  pymodbus.logging:serial.py:271 Changing state to IDLE - Last Frame End - 1756429868.330506 Current Time stamp - 1756429868.431813
DEBUG   2025-08-29 09:11:08,431  pymodbus.logging:base.py:250 New Transaction state "SENDING"
DEBUG   2025-08-29 09:11:08,431  pymodbus.logging:transaction.py:317 Changing transaction state from "SENDING" to "WAITING FOR REPLY"
DEBUG   2025-08-29 09:11:08,458  pymodbus.logging:transaction.py:419 Changing transaction state from "WAITING FOR REPLY" to "PROCESSING REPLY"
DEBUG   2025-08-29 09:11:08,458  pymodbus.logging:transaction.py:324 RECV: 0x1 0x3 0x4 0x0 0x0 0x0 0x0 0xfa 0x33
DEBUG   2025-08-29 09:11:08,458  pymodbus.logging:base.py:92 Processing: 0x1 0x3 0x4 0x0 0x0 0x0 0x0 0xfa 0x33
DEBUG   2025-08-29 09:11:08,458  pymodbus.logging:decoders.py:103 decode PDU for 3
DEBUG   2025-08-29 09:11:08,458  pymodbus.logging:base.py:102 Frame advanced, resetting header!!
DEBUG   2025-08-29 09:11:08,458  pymodbus.logging:transaction.py:67 Adding transaction 0
DEBUG   2025-08-29 09:11:08,458  pymodbus.logging:transaction.py:78 Getting transaction 0
DEBUG   2025-08-29 09:11:08,458  pymodbus.logging:transaction.py:258 Changing transaction state from "PROCESSING REPLY" to "TRANSACTION_COMPLETE"
INFO    2025-08-29 09:11:08,458  root:modbus_rtu_tcp.py:44 read_measurement ret is:ReadHoldingRegistersResponse (2)
INFO    2025-08-29 09:11:08,459  root:acudc260_modbus_get.py:131 read u_voltage ret is:[0, 0]
DEBUG   2025-08-29 09:11:08,459  pymodbus.logging:transaction.py:184 Current transaction state - TRANSACTION_COMPLETE
DEBUG   2025-08-29 09:11:08,459  pymodbus.logging:transaction.py:193 Running transaction 0
DEBUG   2025-08-29 09:11:08,459  pymodbus.logging:transaction.py:293 SEND: 0x1 0x3 0x30 0x2 0x0 0x2 0x6a 0xcb
DEBUG   2025-08-29 09:11:08,459  pymodbus.logging:serial.py:271 Changing state to IDLE - Last Frame End - 1756429868.458129 Current Time stamp - 1756429868.459142
DEBUG   2025-08-29 09:11:08,459  pymodbus.logging:serial.py:279 Waiting for 3.5 char before next send - 1.823 ms
DEBUG   2025-08-29 09:11:08,461  pymodbus.logging:base.py:250 New Transaction state "SENDING"
DEBUG   2025-08-29 09:11:08,462  pymodbus.logging:transaction.py:317 Changing transaction state from "SENDING" to "WAITING FOR REPLY"
DEBUG   2025-08-29 09:11:08,488  pymodbus.logging:transaction.py:419 Changing transaction state from "WAITING FOR REPLY" to "PROCESSING REPLY"
DEBUG   2025-08-29 09:11:08,488  pymodbus.logging:transaction.py:324 RECV: 0x1 0x3 0x4 0x3f 0x3 0xd8 0xd0 0x5d 0xbb
DEBUG   2025-08-29 09:11:08,488  pymodbus.logging:base.py:92 Processing: 0x1 0x3 0x4 0x3f 0x3 0xd8 0xd0 0x5d 0xbb
DEBUG   2025-08-29 09:11:08,488  pymodbus.logging:decoders.py:103 decode PDU for 3
DEBUG   2025-08-29 09:11:08,488  pymodbus.logging:base.py:102 Frame advanced, resetting header!!
DEBUG   2025-08-29 09:11:08,488  pymodbus.logging:transaction.py:67 Adding transaction 0
DEBUG   2025-08-29 09:11:08,488  pymodbus.logging:transaction.py:78 Getting transaction 0
DEBUG   2025-08-29 09:11:08,488  pymodbus.logging:transaction.py:258 Changing transaction state from "PROCESSING REPLY" to "TRANSACTION_COMPLETE"
INFO    2025-08-29 09:11:08,488  root:modbus_rtu_tcp.py:44 read_measurement ret is:ReadHoldingRegistersResponse (2)
INFO    2025-08-29 09:11:08,489  root:acudc260_modbus_get.py:145 read i1_current ret is:[16131, 55504]
DEBUG   2025-08-29 09:11:08,489  pymodbus.logging:transaction.py:184 Current transaction state - TRANSACTION_COMPLETE
DEBUG   2025-08-29 09:11:08,489  pymodbus.logging:transaction.py:193 Running transaction 0
DEBUG   2025-08-29 09:11:08,489  pymodbus.logging:transaction.py:293 SEND: 0x1 0x3 0x30 0x4 0x0 0x2 0x8a 0xca
DEBUG   2025-08-29 09:11:08,489  pymodbus.logging:serial.py:271 Changing state to IDLE - Last Frame End - 1756429868.488842 Current Time stamp - 1756429868.489981
DEBUG   2025-08-29 09:11:08,489  pymodbus.logging:serial.py:279 Waiting for 3.5 char before next send - 1.823 ms
DEBUG   2025-08-29 09:11:08,492  pymodbus.logging:base.py:250 New Transaction state "SENDING"
DEBUG   2025-08-29 09:11:08,492  pymodbus.logging:transaction.py:317 Changing transaction state from "SENDING" to "WAITING FOR REPLY"
DEBUG   2025-08-29 09:11:08,523  pymodbus.logging:transaction.py:419 Changing transaction state from "WAITING FOR REPLY" to "PROCESSING REPLY"
DEBUG   2025-08-29 09:11:08,523  pymodbus.logging:transaction.py:324 RECV: 0x1 0x3 0x4 0x3f 0x1 0x50 0x66 0x1b 0xcd
DEBUG   2025-08-29 09:11:08,523  pymodbus.logging:base.py:92 Processing: 0x1 0x3 0x4 0x3f 0x1 0x50 0x66 0x1b 0xcd
DEBUG   2025-08-29 09:11:08,523  pymodbus.logging:decoders.py:103 decode PDU for 3
DEBUG   2025-08-29 09:11:08,523  pymodbus.logging:base.py:102 Frame advanced, resetting header!!
DEBUG   2025-08-29 09:11:08,523  pymodbus.logging:transaction.py:67 Adding transaction 0
DEBUG   2025-08-29 09:11:08,523  pymodbus.logging:transaction.py:78 Getting transaction 0
DEBUG   2025-08-29 09:11:08,523  pymodbus.logging:transaction.py:258 Changing transaction state from "PROCESSING REPLY" to "TRANSACTION_COMPLETE"
INFO    2025-08-29 09:11:08,523  root:modbus_rtu_tcp.py:44 read_measurement ret is:ReadHoldingRegistersResponse (2)
INFO    2025-08-29 09:11:08,523  root:acudc260_modbus_get.py:159 read i2_current ret is:[16129, 20582]
DEBUG   2025-08-29 09:11:08,523  pymodbus.logging:transaction.py:184 Current transaction state - TRANSACTION_COMPLETE
DEBUG   2025-08-29 09:11:08,524  pymodbus.logging:transaction.py:193 Running transaction 0
DEBUG   2025-08-29 09:11:08,524  pymodbus.logging:transaction.py:293 SEND: 0x1 0x3 0x30 0x6 0x0 0x2 0x2b 0xa
DEBUG   2025-08-29 09:11:08,524  pymodbus.logging:serial.py:271 Changing state to IDLE - Last Frame End - 1756429868.523158 Current Time stamp - 1756429868.524272
DEBUG   2025-08-29 09:11:08,524  pymodbus.logging:serial.py:279 Waiting for 3.5 char before next send - 1.823 ms
DEBUG   2025-08-29 09:11:08,526  pymodbus.logging:base.py:250 New Transaction state "SENDING"
DEBUG   2025-08-29 09:11:08,526  pymodbus.logging:transaction.py:317 Changing transaction state from "SENDING" to "WAITING FOR REPLY"
DEBUG   2025-08-29 09:11:08,555  pymodbus.logging:transaction.py:419 Changing transaction state from "WAITING FOR REPLY" to "PROCESSING REPLY"
DEBUG   2025-08-29 09:11:08,555  pymodbus.logging:transaction.py:324 RECV: 0x1 0x3 0x4 0x3f 0x82 0x94 0x9b 0x79 0x64
DEBUG   2025-08-29 09:11:08,555  pymodbus.logging:base.py:92 Processing: 0x1 0x3 0x4 0x3f 0x82 0x94 0x9b 0x79 0x64
DEBUG   2025-08-29 09:11:08,555  pymodbus.logging:decoders.py:103 decode PDU for 3
DEBUG   2025-08-29 09:11:08,555  pymodbus.logging:base.py:102 Frame advanced, resetting header!!
DEBUG   2025-08-29 09:11:08,555  pymodbus.logging:transaction.py:67 Adding transaction 0
DEBUG   2025-08-29 09:11:08,555  pymodbus.logging:transaction.py:78 Getting transaction 0
DEBUG   2025-08-29 09:11:08,555  pymodbus.logging:transaction.py:258 Changing transaction state from "PROCESSING REPLY" to "TRANSACTION_COMPLETE"
INFO    2025-08-29 09:11:08,555  root:modbus_rtu_tcp.py:44 read_measurement ret is:ReadHoldingRegistersResponse (2)
INFO    2025-08-29 09:11:08,555  root:acudc260_modbus_get.py:173 read i_sum_current ret is:[16258, 38043]
DEBUG   2025-08-29 09:11:08,556  pymodbus.logging:transaction.py:184 Current transaction state - TRANSACTION_COMPLETE
DEBUG   2025-08-29 09:11:08,556  pymodbus.logging:transaction.py:193 Running transaction 0
DEBUG   2025-08-29 09:11:08,556  pymodbus.logging:transaction.py:293 SEND: 0x1 0x3 0x30 0x8 0x0 0x2 0x4a 0xc9
DEBUG   2025-08-29 09:11:08,556  pymodbus.logging:serial.py:271 Changing state to IDLE - Last Frame End - 1756429868.555367 Current Time stamp - 1756429868.556478
DEBUG   2025-08-29 09:11:08,556  pymodbus.logging:serial.py:279 Waiting for 3.5 char before next send - 1.823 ms
DEBUG   2025-08-29 09:11:08,559  pymodbus.logging:base.py:250 New Transaction state "SENDING"
DEBUG   2025-08-29 09:11:08,559  pymodbus.logging:transaction.py:317 Changing transaction state from "SENDING" to "WAITING FOR REPLY"
DEBUG   2025-08-29 09:11:08,587  pymodbus.logging:transaction.py:419 Changing transaction state from "WAITING FOR REPLY" to "PROCESSING REPLY"
DEBUG   2025-08-29 09:11:08,587  pymodbus.logging:transaction.py:324 RECV: 0x1 0x3 0x4 0x0 0x0 0x0 0x0 0xfa 0x33
DEBUG   2025-08-29 09:11:08,587  pymodbus.logging:base.py:92 Processing: 0x1 0x3 0x4 0x0 0x0 0x0 0x0 0xfa 0x33
DEBUG   2025-08-29 09:11:08,587  pymodbus.logging:decoders.py:103 decode PDU for 3
DEBUG   2025-08-29 09:11:08,587  pymodbus.logging:base.py:102 Frame advanced, resetting header!!
DEBUG   2025-08-29 09:11:08,587  pymodbus.logging:transaction.py:67 Adding transaction 0
DEBUG   2025-08-29 09:11:08,587  pymodbus.logging:transaction.py:78 Getting transaction 0
DEBUG   2025-08-29 09:11:08,587  pymodbus.logging:transaction.py:258 Changing transaction state from "PROCESSING REPLY" to "TRANSACTION_COMPLETE"
INFO    2025-08-29 09:11:08,587  root:modbus_rtu_tcp.py:44 read_measurement ret is:ReadHoldingRegistersResponse (2)
INFO    2025-08-29 09:11:08,587  root:acudc260_modbus_get.py:187 read p1_power ret is:[0, 0]
DEBUG   2025-08-29 09:11:08,587  pymodbus.logging:transaction.py:184 Current transaction state - TRANSACTION_COMPLETE
DEBUG   2025-08-29 09:11:08,588  pymodbus.logging:transaction.py:193 Running transaction 0
DEBUG   2025-08-29 09:11:08,588  pymodbus.logging:transaction.py:293 SEND: 0x1 0x3 0x30 0xa 0x0 0x2 0xeb 0x9
DEBUG   2025-08-29 09:11:08,588  pymodbus.logging:serial.py:271 Changing state to IDLE - Last Frame End - 1756429868.587248 Current Time stamp - 1756429868.588363
DEBUG   2025-08-29 09:11:08,588  pymodbus.logging:serial.py:279 Waiting for 3.5 char before next send - 1.823 ms
DEBUG   2025-08-29 09:11:08,590  pymodbus.logging:base.py:250 New Transaction state "SENDING"
DEBUG   2025-08-29 09:11:08,590  pymodbus.logging:transaction.py:317 Changing transaction state from "SENDING" to "WAITING FOR REPLY"
DEBUG   2025-08-29 09:11:08,618  pymodbus.logging:transaction.py:419 Changing transaction state from "WAITING FOR REPLY" to "PROCESSING REPLY"
DEBUG   2025-08-29 09:11:08,618  pymodbus.logging:transaction.py:324 RECV: 0x1 0x3 0x4 0x0 0x0 0x0 0x0 0xfa 0x33
DEBUG   2025-08-29 09:11:08,618  pymodbus.logging:base.py:92 Processing: 0x1 0x3 0x4 0x0 0x0 0x0 0x0 0xfa 0x33
DEBUG   2025-08-29 09:11:08,618  pymodbus.logging:decoders.py:103 decode PDU for 3
DEBUG   2025-08-29 09:11:08,618  pymodbus.logging:base.py:102 Frame advanced, resetting header!!
DEBUG   2025-08-29 09:11:08,618  pymodbus.logging:transaction.py:67 Adding transaction 0
DEBUG   2025-08-29 09:11:08,618  pymodbus.logging:transaction.py:78 Getting transaction 0
DEBUG   2025-08-29 09:11:08,618  pymodbus.logging:transaction.py:258 Changing transaction state from "PROCESSING REPLY" to "TRANSACTION_COMPLETE"
INFO    2025-08-29 09:11:08,618  root:modbus_rtu_tcp.py:44 read_measurement ret is:ReadHoldingRegistersResponse (2)
INFO    2025-08-29 09:11:08,618  root:acudc260_modbus_get.py:201 read p2_power ret is:[0, 0]
DEBUG   2025-08-29 09:11:08,618  pymodbus.logging:transaction.py:184 Current transaction state - TRANSACTION_COMPLETE
DEBUG   2025-08-29 09:11:08,618  pymodbus.logging:transaction.py:193 Running transaction 0
DEBUG   2025-08-29 09:11:08,618  pymodbus.logging:transaction.py:293 SEND: 0x1 0x3 0x30 0xc 0x0 0x2 0xb 0x8
DEBUG   2025-08-29 09:11:08,619  pymodbus.logging:serial.py:271 Changing state to IDLE - Last Frame End - 1756429868.618243 Current Time stamp - 1756429868.619358
DEBUG   2025-08-29 09:11:08,619  pymodbus.logging:serial.py:279 Waiting for 3.5 char before next send - 1.823 ms
DEBUG   2025-08-29 09:11:08,621  pymodbus.logging:base.py:250 New Transaction state "SENDING"
DEBUG   2025-08-29 09:11:08,621  pymodbus.logging:transaction.py:317 Changing transaction state from "SENDING" to "WAITING FOR REPLY"
DEBUG   2025-08-29 09:11:08,649  pymodbus.logging:transaction.py:419 Changing transaction state from "WAITING FOR REPLY" to "PROCESSING REPLY"
DEBUG   2025-08-29 09:11:08,649  pymodbus.logging:transaction.py:324 RECV: 0x1 0x3 0x4 0x0 0x0 0x0 0x0 0xfa 0x33
DEBUG   2025-08-29 09:11:08,649  pymodbus.logging:base.py:92 Processing: 0x1 0x3 0x4 0x0 0x0 0x0 0x0 0xfa 0x33
DEBUG   2025-08-29 09:11:08,649  pymodbus.logging:decoders.py:103 decode PDU for 3
DEBUG   2025-08-29 09:11:08,649  pymodbus.logging:base.py:102 Frame advanced, resetting header!!
DEBUG   2025-08-29 09:11:08,649  pymodbus.logging:transaction.py:67 Adding transaction 0
DEBUG   2025-08-29 09:11:08,649  pymodbus.logging:transaction.py:78 Getting transaction 0
DEBUG   2025-08-29 09:11:08,649  pymodbus.logging:transaction.py:258 Changing transaction state from "PROCESSING REPLY" to "TRANSACTION_COMPLETE"
INFO    2025-08-29 09:11:08,649  root:modbus_rtu_tcp.py:44 read_measurement ret is:ReadHoldingRegistersResponse (2)
INFO    2025-08-29 09:11:08,649  root:acudc260_modbus_get.py:215 read p_sum_power ret is:[0, 0]
DEBUG   2025-08-29 09:11:08,750  pymodbus.logging:transaction.py:184 Current transaction state - TRANSACTION_COMPLETE
DEBUG   2025-08-29 09:11:08,750  pymodbus.logging:transaction.py:193 Running transaction 0
DEBUG   2025-08-29 09:11:08,750  pymodbus.logging:transaction.py:293 SEND: 0x1 0x3 0x30 0x0 0x0 0x2 0xcb 0xb
DEBUG   2025-08-29 09:11:08,750  pymodbus.logging:serial.py:271 Changing state to IDLE - Last Frame End - 1756429868.649364 Current Time stamp - 1756429868.750586
DEBUG   2025-08-29 09:11:08,750  pymodbus.logging:base.py:250 New Transaction state "SENDING"
DEBUG   2025-08-29 09:11:08,750  pymodbus.logging:transaction.py:317 Changing transaction state from "SENDING" to "WAITING FOR REPLY"
DEBUG   2025-08-29 09:11:08,777  pymodbus.logging:transaction.py:419 Changing transaction state from "WAITING FOR REPLY" to "PROCESSING REPLY"
DEBUG   2025-08-29 09:11:08,777  pymodbus.logging:transaction.py:324 RECV: 0x1 0x3 0x4 0x0 0x0 0x0 0x0 0xfa 0x33
DEBUG   2025-08-29 09:11:08,777  pymodbus.logging:base.py:92 Processing: 0x1 0x3 0x4 0x0 0x0 0x0 0x0 0xfa 0x33
DEBUG   2025-08-29 09:11:08,777  pymodbus.logging:decoders.py:103 decode PDU for 3
DEBUG   2025-08-29 09:11:08,777  pymodbus.logging:base.py:102 Frame advanced, resetting header!!
DEBUG   2025-08-29 09:11:08,777  pymodbus.logging:transaction.py:67 Adding transaction 0
DEBUG   2025-08-29 09:11:08,777  pymodbus.logging:transaction.py:78 Getting transaction 0
DEBUG   2025-08-29 09:11:08,777  pymodbus.logging:transaction.py:258 Changing transaction state from "PROCESSING REPLY" to "TRANSACTION_COMPLETE"
INFO    2025-08-29 09:11:08,777  root:modbus_rtu_tcp.py:44 read_measurement ret is:ReadHoldingRegistersResponse (2)
INFO    2025-08-29 09:11:08,777  root:acudc260_modbus_get.py:131 read u_voltage ret is:[0, 0]
DEBUG   2025-08-29 09:11:08,777  pymodbus.logging:transaction.py:184 Current transaction state - TRANSACTION_COMPLETE
DEBUG   2025-08-29 09:11:08,777  pymodbus.logging:transaction.py:193 Running transaction 0
DEBUG   2025-08-29 09:11:08,777  pymodbus.logging:transaction.py:293 SEND: 0x1 0x3 0x30 0x2 0x0 0x2 0x6a 0xcb
DEBUG   2025-08-29 09:11:08,777  pymodbus.logging:serial.py:271 Changing state to IDLE - Last Frame End - 1756429868.77707 Current Time stamp - 1756429868.77707
DEBUG   2025-08-29 09:11:08,777  pymodbus.logging:serial.py:279 Waiting for 3.5 char before next send - 1.823 ms
DEBUG   2025-08-29 09:11:08,780  pymodbus.logging:base.py:250 New Transaction state "SENDING"
DEBUG   2025-08-29 09:11:08,780  pymodbus.logging:transaction.py:317 Changing transaction state from "SENDING" to "WAITING FOR REPLY"
DEBUG   2025-08-29 09:11:08,811  pymodbus.logging:transaction.py:419 Changing transaction state from "WAITING FOR REPLY" to "PROCESSING REPLY"
DEBUG   2025-08-29 09:11:08,811  pymodbus.logging:transaction.py:324 RECV: 0x1 0x3 0x4 0x3f 0x5 0xf 0x4b 0xa3 0xe1
DEBUG   2025-08-29 09:11:08,811  pymodbus.logging:base.py:92 Processing: 0x1 0x3 0x4 0x3f 0x5 0xf 0x4b 0xa3 0xe1
DEBUG   2025-08-29 09:11:08,811  pymodbus.logging:decoders.py:103 decode PDU for 3
DEBUG   2025-08-29 09:11:08,811  pymodbus.logging:base.py:102 Frame advanced, resetting header!!
DEBUG   2025-08-29 09:11:08,811  pymodbus.logging:transaction.py:67 Adding transaction 0
DEBUG   2025-08-29 09:11:08,811  pymodbus.logging:transaction.py:78 Getting transaction 0
DEBUG   2025-08-29 09:11:08,811  pymodbus.logging:transaction.py:258 Changing transaction state from "PROCESSING REPLY" to "TRANSACTION_COMPLETE"
INFO    2025-08-29 09:11:08,811  root:modbus_rtu_tcp.py:44 read_measurement ret is:ReadHoldingRegistersResponse (2)
INFO    2025-08-29 09:11:08,811  root:acudc260_modbus_get.py:145 read i1_current ret is:[16133, 3915]
DEBUG   2025-08-29 09:11:08,811  pymodbus.logging:transaction.py:184 Current transaction state - TRANSACTION_COMPLETE
DEBUG   2025-08-29 09:11:08,811  pymodbus.logging:transaction.py:193 Running transaction 0
DEBUG   2025-08-29 09:11:08,811  pymodbus.logging:transaction.py:293 SEND: 0x1 0x3 0x30 0x4 0x0 0x2 0x8a 0xca
DEBUG   2025-08-29 09:11:08,811  pymodbus.logging:serial.py:271 Changing state to IDLE - Last Frame End - 1756429868.811035 Current Time stamp - 1756429868.811035
DEBUG   2025-08-29 09:11:08,811  pymodbus.logging:serial.py:279 Waiting for 3.5 char before next send - 1.823 ms
DEBUG   2025-08-29 09:11:08,813  pymodbus.logging:base.py:250 New Transaction state "SENDING"
DEBUG   2025-08-29 09:11:08,813  pymodbus.logging:transaction.py:317 Changing transaction state from "SENDING" to "WAITING FOR REPLY"
DEBUG   2025-08-29 09:11:08,838  pymodbus.logging:transaction.py:419 Changing transaction state from "WAITING FOR REPLY" to "PROCESSING REPLY"
DEBUG   2025-08-29 09:11:08,838  pymodbus.logging:transaction.py:324 RECV: 0x1 0x3 0x4 0x3e 0xfd 0xbe 0xf6 0x97 0xcd
DEBUG   2025-08-29 09:11:08,838  pymodbus.logging:base.py:92 Processing: 0x1 0x3 0x4 0x3e 0xfd 0xbe 0xf6 0x97 0xcd
DEBUG   2025-08-29 09:11:08,838  pymodbus.logging:decoders.py:103 decode PDU for 3
DEBUG   2025-08-29 09:11:08,838  pymodbus.logging:base.py:102 Frame advanced, resetting header!!
DEBUG   2025-08-29 09:11:08,838  pymodbus.logging:transaction.py:67 Adding transaction 0
DEBUG   2025-08-29 09:11:08,838  pymodbus.logging:transaction.py:78 Getting transaction 0
DEBUG   2025-08-29 09:11:08,838  pymodbus.logging:transaction.py:258 Changing transaction state from "PROCESSING REPLY" to "TRANSACTION_COMPLETE"
INFO    2025-08-29 09:11:08,838  root:modbus_rtu_tcp.py:44 read_measurement ret is:ReadHoldingRegistersResponse (2)
INFO    2025-08-29 09:11:08,838  root:acudc260_modbus_get.py:159 read i2_current ret is:[16125, 48886]
DEBUG   2025-08-29 09:11:08,838  pymodbus.logging:transaction.py:184 Current transaction state - TRANSACTION_COMPLETE
DEBUG   2025-08-29 09:11:08,838  pymodbus.logging:transaction.py:193 Running transaction 0
DEBUG   2025-08-29 09:11:08,838  pymodbus.logging:transaction.py:293 SEND: 0x1 0x3 0x30 0x6 0x0 0x2 0x2b 0xa
DEBUG   2025-08-29 09:11:08,838  pymodbus.logging:serial.py:271 Changing state to IDLE - Last Frame End - 1756429868.838307 Current Time stamp - 1756429868.838307
DEBUG   2025-08-29 09:11:08,838  pymodbus.logging:serial.py:279 Waiting for 3.5 char before next send - 1.823 ms
DEBUG   2025-08-29 09:11:08,841  pymodbus.logging:base.py:250 New Transaction state "SENDING"
DEBUG   2025-08-29 09:11:08,842  pymodbus.logging:transaction.py:317 Changing transaction state from "SENDING" to "WAITING FOR REPLY"
DEBUG   2025-08-29 09:11:08,874  pymodbus.logging:transaction.py:419 Changing transaction state from "WAITING FOR REPLY" to "PROCESSING REPLY"
DEBUG   2025-08-29 09:11:08,874  pymodbus.logging:transaction.py:324 RECV: 0x1 0x3 0x4 0x3f 0x81 0xf7 0x63 0xa0 0x16
DEBUG   2025-08-29 09:11:08,874  pymodbus.logging:base.py:92 Processing: 0x1 0x3 0x4 0x3f 0x81 0xf7 0x63 0xa0 0x16
DEBUG   2025-08-29 09:11:08,874  pymodbus.logging:decoders.py:103 decode PDU for 3
DEBUG   2025-08-29 09:11:08,874  pymodbus.logging:base.py:102 Frame advanced, resetting header!!
DEBUG   2025-08-29 09:11:08,874  pymodbus.logging:transaction.py:67 Adding transaction 0
DEBUG   2025-08-29 09:11:08,874  pymodbus.logging:transaction.py:78 Getting transaction 0
DEBUG   2025-08-29 09:11:08,874  pymodbus.logging:transaction.py:258 Changing transaction state from "PROCESSING REPLY" to "TRANSACTION_COMPLETE"
INFO    2025-08-29 09:11:08,874  root:modbus_rtu_tcp.py:44 read_measurement ret is:ReadHoldingRegistersResponse (2)
INFO    2025-08-29 09:11:08,874  root:acudc260_modbus_get.py:173 read i_sum_current ret is:[16257, 63331]
DEBUG   2025-08-29 09:11:08,874  pymodbus.logging:transaction.py:184 Current transaction state - TRANSACTION_COMPLETE
DEBUG   2025-08-29 09:11:08,874  pymodbus.logging:transaction.py:193 Running transaction 0
DEBUG   2025-08-29 09:11:08,874  pymodbus.logging:transaction.py:293 SEND: 0x1 0x3 0x30 0x8 0x0 0x2 0x4a 0xc9
DEBUG   2025-08-29 09:11:08,874  pymodbus.logging:serial.py:271 Changing state to IDLE - Last Frame End - 1756429868.874803 Current Time stamp - 1756429868.874803
DEBUG   2025-08-29 09:11:08,875  pymodbus.logging:serial.py:279 Waiting for 3.5 char before next send - 1.823 ms
DEBUG   2025-08-29 09:11:08,877  pymodbus.logging:base.py:250 New Transaction state "SENDING"
DEBUG   2025-08-29 09:11:08,878  pymodbus.logging:transaction.py:317 Changing transaction state from "SENDING" to "WAITING FOR REPLY"
DEBUG   2025-08-29 09:11:08,905  pymodbus.logging:transaction.py:419 Changing transaction state from "WAITING FOR REPLY" to "PROCESSING REPLY"
DEBUG   2025-08-29 09:11:08,905  pymodbus.logging:transaction.py:324 RECV: 0x1 0x3 0x4 0x0 0x0 0x0 0x0 0xfa 0x33
DEBUG   2025-08-29 09:11:08,905  pymodbus.logging:base.py:92 Processing: 0x1 0x3 0x4 0x0 0x0 0x0 0x0 0xfa 0x33
DEBUG   2025-08-29 09:11:08,905  pymodbus.logging:decoders.py:103 decode PDU for 3
DEBUG   2025-08-29 09:11:08,905  pymodbus.logging:base.py:102 Frame advanced, resetting header!!
DEBUG   2025-08-29 09:11:08,905  pymodbus.logging:transaction.py:67 Adding transaction 0
DEBUG   2025-08-29 09:11:08,905  pymodbus.logging:transaction.py:78 Getting transaction 0
DEBUG   2025-08-29 09:11:08,905  pymodbus.logging:transaction.py:258 Changing transaction state from "PROCESSING REPLY" to "TRANSACTION_COMPLETE"
INFO    2025-08-29 09:11:08,905  root:modbus_rtu_tcp.py:44 read_measurement ret is:ReadHoldingRegistersResponse (2)
INFO    2025-08-29 09:11:08,905  root:acudc260_modbus_get.py:187 read p1_power ret is:[0, 0]
DEBUG   2025-08-29 09:11:08,905  pymodbus.logging:transaction.py:184 Current transaction state - TRANSACTION_COMPLETE
DEBUG   2025-08-29 09:11:08,905  pymodbus.logging:transaction.py:193 Running transaction 0
DEBUG   2025-08-29 09:11:08,905  pymodbus.logging:transaction.py:293 SEND: 0x1 0x3 0x30 0xa 0x0 0x2 0xeb 0x9
DEBUG   2025-08-29 09:11:08,905  pymodbus.logging:serial.py:271 Changing state to IDLE - Last Frame End - 1756429868.905993 Current Time stamp - 1756429868.905993
DEBUG   2025-08-29 09:11:08,905  pymodbus.logging:serial.py:279 Waiting for 3.5 char before next send - 1.823 ms
DEBUG   2025-08-29 09:11:08,908  pymodbus.logging:base.py:250 New Transaction state "SENDING"
DEBUG   2025-08-29 09:11:08,908  pymodbus.logging:transaction.py:317 Changing transaction state from "SENDING" to "WAITING FOR REPLY"
DEBUG   2025-08-29 09:11:08,939  pymodbus.logging:transaction.py:419 Changing transaction state from "WAITING FOR REPLY" to "PROCESSING REPLY"
DEBUG   2025-08-29 09:11:08,939  pymodbus.logging:transaction.py:324 RECV: 0x1 0x3 0x4 0x0 0x0 0x0 0x0 0xfa 0x33
DEBUG   2025-08-29 09:11:08,939  pymodbus.logging:base.py:92 Processing: 0x1 0x3 0x4 0x0 0x0 0x0 0x0 0xfa 0x33
DEBUG   2025-08-29 09:11:08,939  pymodbus.logging:decoders.py:103 decode PDU for 3
DEBUG   2025-08-29 09:11:08,939  pymodbus.logging:base.py:102 Frame advanced, resetting header!!
DEBUG   2025-08-29 09:11:08,939  pymodbus.logging:transaction.py:67 Adding transaction 0
DEBUG   2025-08-29 09:11:08,939  pymodbus.logging:transaction.py:78 Getting transaction 0
DEBUG   2025-08-29 09:11:08,939  pymodbus.logging:transaction.py:258 Changing transaction state from "PROCESSING REPLY" to "TRANSACTION_COMPLETE"
INFO    2025-08-29 09:11:08,939  root:modbus_rtu_tcp.py:44 read_measurement ret is:ReadHoldingRegistersResponse (2)
INFO    2025-08-29 09:11:08,939  root:acudc260_modbus_get.py:201 read p2_power ret is:[0, 0]
DEBUG   2025-08-29 09:11:08,939  pymodbus.logging:transaction.py:184 Current transaction state - TRANSACTION_COMPLETE
DEBUG   2025-08-29 09:11:08,939  pymodbus.logging:transaction.py:193 Running transaction 0
DEBUG   2025-08-29 09:11:08,939  pymodbus.logging:transaction.py:293 SEND: 0x1 0x3 0x30 0xc 0x0 0x2 0xb 0x8
DEBUG   2025-08-29 09:11:08,939  pymodbus.logging:serial.py:271 Changing state to IDLE - Last Frame End - 1756429868.939223 Current Time stamp - 1756429868.939829
DEBUG   2025-08-29 09:11:08,939  pymodbus.logging:serial.py:279 Waiting for 3.5 char before next send - 1.823 ms
DEBUG   2025-08-29 09:11:08,942  pymodbus.logging:base.py:250 New Transaction state "SENDING"
DEBUG   2025-08-29 09:11:08,942  pymodbus.logging:transaction.py:317 Changing transaction state from "SENDING" to "WAITING FOR REPLY"
DEBUG   2025-08-29 09:11:08,970  pymodbus.logging:transaction.py:419 Changing transaction state from "WAITING FOR REPLY" to "PROCESSING REPLY"
DEBUG   2025-08-29 09:11:08,970  pymodbus.logging:transaction.py:324 RECV: 0x1 0x3 0x4 0x0 0x0 0x0 0x0 0xfa 0x33
DEBUG   2025-08-29 09:11:08,970  pymodbus.logging:base.py:92 Processing: 0x1 0x3 0x4 0x0 0x0 0x0 0x0 0xfa 0x33
DEBUG   2025-08-29 09:11:08,970  pymodbus.logging:decoders.py:103 decode PDU for 3
DEBUG   2025-08-29 09:11:08,970  pymodbus.logging:base.py:102 Frame advanced, resetting header!!
DEBUG   2025-08-29 09:11:08,970  pymodbus.logging:transaction.py:67 Adding transaction 0
DEBUG   2025-08-29 09:11:08,970  pymodbus.logging:transaction.py:78 Getting transaction 0
DEBUG   2025-08-29 09:11:08,970  pymodbus.logging:transaction.py:258 Changing transaction state from "PROCESSING REPLY" to "TRANSACTION_COMPLETE"
INFO    2025-08-29 09:11:08,970  root:modbus_rtu_tcp.py:44 read_measurement ret is:ReadHoldingRegistersResponse (2)
INFO    2025-08-29 09:11:08,970  root:acudc260_modbus_get.py:215 read p_sum_power ret is:[0, 0]
DEBUG   2025-08-29 09:11:09,071  pymodbus.logging:transaction.py:184 Current transaction state - TRANSACTION_COMPLETE
DEBUG   2025-08-29 09:11:09,071  pymodbus.logging:transaction.py:193 Running transaction 0
DEBUG   2025-08-29 09:11:09,071  pymodbus.logging:transaction.py:293 SEND: 0x1 0x3 0x30 0x0 0x0 0x2 0xcb 0xb
DEBUG   2025-08-29 09:11:09,071  pymodbus.logging:serial.py:271 Changing state to IDLE - Last Frame End - 1756429868.970463 Current Time stamp - 1756429869.07183
DEBUG   2025-08-29 09:11:09,071  pymodbus.logging:base.py:250 New Transaction state "SENDING"
DEBUG   2025-08-29 09:11:09,071  pymodbus.logging:transaction.py:317 Changing transaction state from "SENDING" to "WAITING FOR REPLY"
DEBUG   2025-08-29 09:11:09,098  pymodbus.logging:transaction.py:419 Changing transaction state from "WAITING FOR REPLY" to "PROCESSING REPLY"
DEBUG   2025-08-29 09:11:09,098  pymodbus.logging:transaction.py:324 RECV: 0x1 0x3 0x4 0x0 0x0 0x0 0x0 0xfa 0x33
DEBUG   2025-08-29 09:11:09,098  pymodbus.logging:base.py:92 Processing: 0x1 0x3 0x4 0x0 0x0 0x0 0x0 0xfa 0x33
DEBUG   2025-08-29 09:11:09,098  pymodbus.logging:decoders.py:103 decode PDU for 3
DEBUG   2025-08-29 09:11:09,098  pymodbus.logging:base.py:102 Frame advanced, resetting header!!
DEBUG   2025-08-29 09:11:09,098  pymodbus.logging:transaction.py:67 Adding transaction 0
DEBUG   2025-08-29 09:11:09,098  pymodbus.logging:transaction.py:78 Getting transaction 0
DEBUG   2025-08-29 09:11:09,098  pymodbus.logging:transaction.py:258 Changing transaction state from "PROCESSING REPLY" to "TRANSACTION_COMPLETE"
INFO    2025-08-29 09:11:09,098  root:modbus_rtu_tcp.py:44 read_measurement ret is:ReadHoldingRegistersResponse (2)
INFO    2025-08-29 09:11:09,098  root:acudc260_modbus_get.py:131 read u_voltage ret is:[0, 0]
DEBUG   2025-08-29 09:11:09,098  pymodbus.logging:transaction.py:184 Current transaction state - TRANSACTION_COMPLETE
DEBUG   2025-08-29 09:11:09,098  pymodbus.logging:transaction.py:193 Running transaction 0
DEBUG   2025-08-29 09:11:09,098  pymodbus.logging:transaction.py:293 SEND: 0x1 0x3 0x30 0x2 0x0 0x2 0x6a 0xcb
DEBUG   2025-08-29 09:11:09,098  pymodbus.logging:serial.py:271 Changing state to IDLE - Last Frame End - 1756429869.09838 Current Time stamp - 1756429869.098884
DEBUG   2025-08-29 09:11:09,098  pymodbus.logging:serial.py:279 Waiting for 3.5 char before next send - 1.823 ms
DEBUG   2025-08-29 09:11:09,101  pymodbus.logging:base.py:250 New Transaction state "SENDING"
DEBUG   2025-08-29 09:11:09,101  pymodbus.logging:transaction.py:317 Changing transaction state from "SENDING" to "WAITING FOR REPLY"
DEBUG   2025-08-29 09:11:09,129  pymodbus.logging:transaction.py:419 Changing transaction state from "WAITING FOR REPLY" to "PROCESSING REPLY"
DEBUG   2025-08-29 09:11:09,129  pymodbus.logging:transaction.py:324 RECV: 0x1 0x3 0x4 0x3f 0x8 0xc3 0xa6 0xa7 0x6f
DEBUG   2025-08-29 09:11:09,129  pymodbus.logging:base.py:92 Processing: 0x1 0x3 0x4 0x3f 0x8 0xc3 0xa6 0xa7 0x6f
DEBUG   2025-08-29 09:11:09,129  pymodbus.logging:decoders.py:103 decode PDU for 3
DEBUG   2025-08-29 09:11:09,129  pymodbus.logging:base.py:102 Frame advanced, resetting header!!
DEBUG   2025-08-29 09:11:09,129  pymodbus.logging:transaction.py:67 Adding transaction 0
DEBUG   2025-08-29 09:11:09,129  pymodbus.logging:transaction.py:78 Getting transaction 0
DEBUG   2025-08-29 09:11:09,129  pymodbus.logging:transaction.py:258 Changing transaction state from "PROCESSING REPLY" to "TRANSACTION_COMPLETE"
INFO    2025-08-29 09:11:09,129  root:modbus_rtu_tcp.py:44 read_measurement ret is:ReadHoldingRegistersResponse (2)
INFO    2025-08-29 09:11:09,129  root:acudc260_modbus_get.py:145 read i1_current ret is:[16136, 50086]
DEBUG   2025-08-29 09:11:09,129  pymodbus.logging:transaction.py:184 Current transaction state - TRANSACTION_COMPLETE
DEBUG   2025-08-29 09:11:09,129  pymodbus.logging:transaction.py:193 Running transaction 0
DEBUG   2025-08-29 09:11:09,129  pymodbus.logging:transaction.py:293 SEND: 0x1 0x3 0x30 0x4 0x0 0x2 0x8a 0xca
DEBUG   2025-08-29 09:11:09,129  pymodbus.logging:serial.py:271 Changing state to IDLE - Last Frame End - 1756429869.1292 Current Time stamp - 1756429869.1292
DEBUG   2025-08-29 09:11:09,129  pymodbus.logging:serial.py:279 Waiting for 3.5 char before next send - 1.823 ms
DEBUG   2025-08-29 09:11:09,132  pymodbus.logging:base.py:250 New Transaction state "SENDING"
DEBUG   2025-08-29 09:11:09,132  pymodbus.logging:transaction.py:317 Changing transaction state from "SENDING" to "WAITING FOR REPLY"
DEBUG   2025-08-29 09:11:09,160  pymodbus.logging:transaction.py:419 Changing transaction state from "WAITING FOR REPLY" to "PROCESSING REPLY"
DEBUG   2025-08-29 09:11:09,160  pymodbus.logging:transaction.py:324 RECV: 0x1 0x3 0x4 0x3f 0x4 0xa2 0xfa 0x4e 0xc5
DEBUG   2025-08-29 09:11:09,160  pymodbus.logging:base.py:92 Processing: 0x1 0x3 0x4 0x3f 0x4 0xa2 0xfa 0x4e 0xc5
DEBUG   2025-08-29 09:11:09,160  pymodbus.logging:decoders.py:103 decode PDU for 3
DEBUG   2025-08-29 09:11:09,160  pymodbus.logging:base.py:102 Frame advanced, resetting header!!
DEBUG   2025-08-29 09:11:09,160  pymodbus.logging:transaction.py:67 Adding transaction 0
DEBUG   2025-08-29 09:11:09,160  pymodbus.logging:transaction.py:78 Getting transaction 0
DEBUG   2025-08-29 09:11:09,160  pymodbus.logging:transaction.py:258 Changing transaction state from "PROCESSING REPLY" to "TRANSACTION_COMPLETE"
INFO    2025-08-29 09:11:09,160  root:modbus_rtu_tcp.py:44 read_measurement ret is:ReadHoldingRegistersResponse (2)
INFO    2025-08-29 09:11:09,160  root:acudc260_modbus_get.py:159 read i2_current ret is:[16132, 41722]
DEBUG   2025-08-29 09:11:09,160  pymodbus.logging:transaction.py:184 Current transaction state - TRANSACTION_COMPLETE
DEBUG   2025-08-29 09:11:09,160  pymodbus.logging:transaction.py:193 Running transaction 0
DEBUG   2025-08-29 09:11:09,160  pymodbus.logging:transaction.py:293 SEND: 0x1 0x3 0x30 0x6 0x0 0x2 0x2b 0xa
DEBUG   2025-08-29 09:11:09,160  pymodbus.logging:serial.py:271 Changing state to IDLE - Last Frame End - 1756429869.160501 Current Time stamp - 1756429869.160501
DEBUG   2025-08-29 09:11:09,160  pymodbus.logging:serial.py:279 Waiting for 3.5 char before next send - 1.823 ms
DEBUG   2025-08-29 09:11:09,163  pymodbus.logging:base.py:250 New Transaction state "SENDING"
DEBUG   2025-08-29 09:11:09,163  pymodbus.logging:transaction.py:317 Changing transaction state from "SENDING" to "WAITING FOR REPLY"
DEBUG   2025-08-29 09:11:09,189  pymodbus.logging:transaction.py:419 Changing transaction state from "WAITING FOR REPLY" to "PROCESSING REPLY"
DEBUG   2025-08-29 09:11:09,189  pymodbus.logging:transaction.py:324 RECV: 0x1 0x3 0x4 0x3f 0x84 0x6c 0xb2 0x1b 0x7b
DEBUG   2025-08-29 09:11:09,190  pymodbus.logging:base.py:92 Processing: 0x1 0x3 0x4 0x3f 0x84 0x6c 0xb2 0x1b 0x7b
DEBUG   2025-08-29 09:11:09,190  pymodbus.logging:decoders.py:103 decode PDU for 3
DEBUG   2025-08-29 09:11:09,190  pymodbus.logging:base.py:102 Frame advanced, resetting header!!
DEBUG   2025-08-29 09:11:09,190  pymodbus.logging:transaction.py:67 Adding transaction 0
DEBUG   2025-08-29 09:11:09,190  pymodbus.logging:transaction.py:78 Getting transaction 0
DEBUG   2025-08-29 09:11:09,190  pymodbus.logging:transaction.py:258 Changing transaction state from "PROCESSING REPLY" to "TRANSACTION_COMPLETE"
INFO    2025-08-29 09:11:09,190  root:modbus_rtu_tcp.py:44 read_measurement ret is:ReadHoldingRegistersResponse (2)
INFO    2025-08-29 09:11:09,190  root:acudc260_modbus_get.py:173 read i_sum_current ret is:[16260, 27826]
DEBUG   2025-08-29 09:11:09,190  pymodbus.logging:transaction.py:184 Current transaction state - TRANSACTION_COMPLETE
DEBUG   2025-08-29 09:11:09,190  pymodbus.logging:transaction.py:193 Running transaction 0
DEBUG   2025-08-29 09:11:09,190  pymodbus.logging:transaction.py:293 SEND: 0x1 0x3 0x30 0x8 0x0 0x2 0x4a 0xc9
DEBUG   2025-08-29 09:11:09,190  pymodbus.logging:serial.py:271 Changing state to IDLE - Last Frame End - 1756429869.189385 Current Time stamp - 1756429869.190385
DEBUG   2025-08-29 09:11:09,190  pymodbus.logging:serial.py:279 Waiting for 3.5 char before next send - 1.823 ms
DEBUG   2025-08-29 09:11:09,193  pymodbus.logging:base.py:250 New Transaction state "SENDING"
DEBUG   2025-08-29 09:11:09,193  pymodbus.logging:transaction.py:317 Changing transaction state from "SENDING" to "WAITING FOR REPLY"
DEBUG   2025-08-29 09:11:09,221  pymodbus.logging:transaction.py:419 Changing transaction state from "WAITING FOR REPLY" to "PROCESSING REPLY"
DEBUG   2025-08-29 09:11:09,221  pymodbus.logging:transaction.py:324 RECV: 0x1 0x3 0x4 0x0 0x0 0x0 0x0 0xfa 0x33
DEBUG   2025-08-29 09:11:09,221  pymodbus.logging:base.py:92 Processing: 0x1 0x3 0x4 0x0 0x0 0x0 0x0 0xfa 0x33
DEBUG   2025-08-29 09:11:09,221  pymodbus.logging:decoders.py:103 decode PDU for 3
DEBUG   2025-08-29 09:11:09,221  pymodbus.logging:base.py:102 Frame advanced, resetting header!!
DEBUG   2025-08-29 09:11:09,221  pymodbus.logging:transaction.py:67 Adding transaction 0
DEBUG   2025-08-29 09:11:09,221  pymodbus.logging:transaction.py:78 Getting transaction 0
DEBUG   2025-08-29 09:11:09,222  pymodbus.logging:transaction.py:258 Changing transaction state from "PROCESSING REPLY" to "TRANSACTION_COMPLETE"
INFO    2025-08-29 09:11:09,222  root:modbus_rtu_tcp.py:44 read_measurement ret is:ReadHoldingRegistersResponse (2)
INFO    2025-08-29 09:11:09,222  root:acudc260_modbus_get.py:187 read p1_power ret is:[0, 0]
DEBUG   2025-08-29 09:11:09,222  pymodbus.logging:transaction.py:184 Current transaction state - TRANSACTION_COMPLETE
DEBUG   2025-08-29 09:11:09,222  pymodbus.logging:transaction.py:193 Running transaction 0
DEBUG   2025-08-29 09:11:09,222  pymodbus.logging:transaction.py:293 SEND: 0x1 0x3 0x30 0xa 0x0 0x2 0xeb 0x9
DEBUG   2025-08-29 09:11:09,222  pymodbus.logging:serial.py:271 Changing state to IDLE - Last Frame End - 1756429869.221501 Current Time stamp - 1756429869.222478
DEBUG   2025-08-29 09:11:09,222  pymodbus.logging:serial.py:279 Waiting for 3.5 char before next send - 1.823 ms
DEBUG   2025-08-29 09:11:09,224  pymodbus.logging:base.py:250 New Transaction state "SENDING"
DEBUG   2025-08-29 09:11:09,224  pymodbus.logging:transaction.py:317 Changing transaction state from "SENDING" to "WAITING FOR REPLY"
DEBUG   2025-08-29 09:11:09,257  pymodbus.logging:transaction.py:419 Changing transaction state from "WAITING FOR REPLY" to "PROCESSING REPLY"
DEBUG   2025-08-29 09:11:09,257  pymodbus.logging:transaction.py:324 RECV: 0x1 0x3 0x4 0x0 0x0 0x0 0x0 0xfa 0x33
DEBUG   2025-08-29 09:11:09,257  pymodbus.logging:base.py:92 Processing: 0x1 0x3 0x4 0x0 0x0 0x0 0x0 0xfa 0x33
DEBUG   2025-08-29 09:11:09,257  pymodbus.logging:decoders.py:103 decode PDU for 3
DEBUG   2025-08-29 09:11:09,257  pymodbus.logging:base.py:102 Frame advanced, resetting header!!
DEBUG   2025-08-29 09:11:09,257  pymodbus.logging:transaction.py:67 Adding transaction 0
DEBUG   2025-08-29 09:11:09,257  pymodbus.logging:transaction.py:78 Getting transaction 0
DEBUG   2025-08-29 09:11:09,257  pymodbus.logging:transaction.py:258 Changing transaction state from "PROCESSING REPLY" to "TRANSACTION_COMPLETE"
INFO    2025-08-29 09:11:09,257  root:modbus_rtu_tcp.py:44 read_measurement ret is:ReadHoldingRegistersResponse (2)
INFO    2025-08-29 09:11:09,257  root:acudc260_modbus_get.py:201 read p2_power ret is:[0, 0]
DEBUG   2025-08-29 09:11:09,257  pymodbus.logging:transaction.py:184 Current transaction state - TRANSACTION_COMPLETE
DEBUG   2025-08-29 09:11:09,257  pymodbus.logging:transaction.py:193 Running transaction 0
DEBUG   2025-08-29 09:11:09,257  pymodbus.logging:transaction.py:293 SEND: 0x1 0x3 0x30 0xc 0x0 0x2 0xb 0x8
DEBUG   2025-08-29 09:11:09,257  pymodbus.logging:serial.py:271 Changing state to IDLE - Last Frame End - 1756429869.257114 Current Time stamp - 1756429869.257114
DEBUG   2025-08-29 09:11:09,257  pymodbus.logging:serial.py:279 Waiting for 3.5 char before next send - 1.823 ms
DEBUG   2025-08-29 09:11:09,260  pymodbus.logging:base.py:250 New Transaction state "SENDING"
DEBUG   2025-08-29 09:11:09,260  pymodbus.logging:transaction.py:317 Changing transaction state from "SENDING" to "WAITING FOR REPLY"
DEBUG   2025-08-29 09:11:09,288  pymodbus.logging:transaction.py:419 Changing transaction state from "WAITING FOR REPLY" to "PROCESSING REPLY"
DEBUG   2025-08-29 09:11:09,288  pymodbus.logging:transaction.py:324 RECV: 0x1 0x3 0x4 0x0 0x0 0x0 0x0 0xfa 0x33
DEBUG   2025-08-29 09:11:09,288  pymodbus.logging:base.py:92 Processing: 0x1 0x3 0x4 0x0 0x0 0x0 0x0 0xfa 0x33
DEBUG   2025-08-29 09:11:09,288  pymodbus.logging:decoders.py:103 decode PDU for 3
DEBUG   2025-08-29 09:11:09,288  pymodbus.logging:base.py:102 Frame advanced, resetting header!!
DEBUG   2025-08-29 09:11:09,288  pymodbus.logging:transaction.py:67 Adding transaction 0
DEBUG   2025-08-29 09:11:09,288  pymodbus.logging:transaction.py:78 Getting transaction 0
DEBUG   2025-08-29 09:11:09,288  pymodbus.logging:transaction.py:258 Changing transaction state from "PROCESSING REPLY" to "TRANSACTION_COMPLETE"
INFO    2025-08-29 09:11:09,288  root:modbus_rtu_tcp.py:44 read_measurement ret is:ReadHoldingRegistersResponse (2)
INFO    2025-08-29 09:11:09,288  root:acudc260_modbus_get.py:215 read p_sum_power ret is:[0, 0]
DEBUG   2025-08-29 09:11:09,390  pymodbus.logging:transaction.py:184 Current transaction state - TRANSACTION_COMPLETE
DEBUG   2025-08-29 09:11:09,390  pymodbus.logging:transaction.py:193 Running transaction 0
DEBUG   2025-08-29 09:11:09,390  pymodbus.logging:transaction.py:293 SEND: 0x1 0x3 0x30 0x0 0x0 0x2 0xcb 0xb
DEBUG   2025-08-29 09:11:09,390  pymodbus.logging:serial.py:271 Changing state to IDLE - Last Frame End - 1756429869.288817 Current Time stamp - 1756429869.390022
DEBUG   2025-08-29 09:11:09,390  pymodbus.logging:base.py:250 New Transaction state "SENDING"
DEBUG   2025-08-29 09:11:09,390  pymodbus.logging:transaction.py:317 Changing transaction state from "SENDING" to "WAITING FOR REPLY"
DEBUG   2025-08-29 09:11:09,417  pymodbus.logging:transaction.py:419 Changing transaction state from "WAITING FOR REPLY" to "PROCESSING REPLY"
DEBUG   2025-08-29 09:11:09,417  pymodbus.logging:transaction.py:324 RECV: 0x1 0x3 0x4 0x0 0x0 0x0 0x0 0xfa 0x33
DEBUG   2025-08-29 09:11:09,417  pymodbus.logging:base.py:92 Processing: 0x1 0x3 0x4 0x0 0x0 0x0 0x0 0xfa 0x33
DEBUG   2025-08-29 09:11:09,417  pymodbus.logging:decoders.py:103 decode PDU for 3
DEBUG   2025-08-29 09:11:09,417  pymodbus.logging:base.py:102 Frame advanced, resetting header!!
DEBUG   2025-08-29 09:11:09,417  pymodbus.logging:transaction.py:67 Adding transaction 0
DEBUG   2025-08-29 09:11:09,417  pymodbus.logging:transaction.py:78 Getting transaction 0
DEBUG   2025-08-29 09:11:09,417  pymodbus.logging:transaction.py:258 Changing transaction state from "PROCESSING REPLY" to "TRANSACTION_COMPLETE"
INFO    2025-08-29 09:11:09,417  root:modbus_rtu_tcp.py:44 read_measurement ret is:ReadHoldingRegistersResponse (2)
INFO    2025-08-29 09:11:09,417  root:acudc260_modbus_get.py:131 read u_voltage ret is:[0, 0]
DEBUG   2025-08-29 09:11:09,417  pymodbus.logging:transaction.py:184 Current transaction state - TRANSACTION_COMPLETE
DEBUG   2025-08-29 09:11:09,417  pymodbus.logging:transaction.py:193 Running transaction 0
DEBUG   2025-08-29 09:11:09,417  pymodbus.logging:transaction.py:293 SEND: 0x1 0x3 0x30 0x2 0x0 0x2 0x6a 0xcb
DEBUG   2025-08-29 09:11:09,417  pymodbus.logging:serial.py:271 Changing state to IDLE - Last Frame End - 1756429869.41708 Current Time stamp - 1756429869.41708
DEBUG   2025-08-29 09:11:09,417  pymodbus.logging:serial.py:279 Waiting for 3.5 char before next send - 1.823 ms
DEBUG   2025-08-29 09:11:09,420  pymodbus.logging:base.py:250 New Transaction state "SENDING"
DEBUG   2025-08-29 09:11:09,420  pymodbus.logging:transaction.py:317 Changing transaction state from "SENDING" to "WAITING FOR REPLY"
DEBUG   2025-08-29 09:11:09,450  pymodbus.logging:transaction.py:419 Changing transaction state from "WAITING FOR REPLY" to "PROCESSING REPLY"
DEBUG   2025-08-29 09:11:09,450  pymodbus.logging:transaction.py:324 RECV: 0x1 0x3 0x4 0x3f 0x3 0x26 0x46 0x9d 0xb5
DEBUG   2025-08-29 09:11:09,450  pymodbus.logging:base.py:92 Processing: 0x1 0x3 0x4 0x3f 0x3 0x26 0x46 0x9d 0xb5
DEBUG   2025-08-29 09:11:09,450  pymodbus.logging:decoders.py:103 decode PDU for 3
DEBUG   2025-08-29 09:11:09,450  pymodbus.logging:base.py:102 Frame advanced, resetting header!!
DEBUG   2025-08-29 09:11:09,450  pymodbus.logging:transaction.py:67 Adding transaction 0
DEBUG   2025-08-29 09:11:09,450  pymodbus.logging:transaction.py:78 Getting transaction 0
DEBUG   2025-08-29 09:11:09,450  pymodbus.logging:transaction.py:258 Changing transaction state from "PROCESSING REPLY" to "TRANSACTION_COMPLETE"
INFO    2025-08-29 09:11:09,450  root:modbus_rtu_tcp.py:44 read_measurement ret is:ReadHoldingRegistersResponse (2)
INFO    2025-08-29 09:11:09,450  root:acudc260_modbus_get.py:145 read i1_current ret is:[16131, 9798]
DEBUG   2025-08-29 09:11:09,450  pymodbus.logging:transaction.py:184 Current transaction state - TRANSACTION_COMPLETE
DEBUG   2025-08-29 09:11:09,450  pymodbus.logging:transaction.py:193 Running transaction 0
DEBUG   2025-08-29 09:11:09,450  pymodbus.logging:transaction.py:293 SEND: 0x1 0x3 0x30 0x4 0x0 0x2 0x8a 0xca
DEBUG   2025-08-29 09:11:09,450  pymodbus.logging:serial.py:271 Changing state to IDLE - Last Frame End - 1756429869.450355 Current Time stamp - 1756429869.450355
DEBUG   2025-08-29 09:11:09,450  pymodbus.logging:serial.py:279 Waiting for 3.5 char before next send - 1.823 ms
DEBUG   2025-08-29 09:11:09,453  pymodbus.logging:base.py:250 New Transaction state "SENDING"
DEBUG   2025-08-29 09:11:09,453  pymodbus.logging:transaction.py:317 Changing transaction state from "SENDING" to "WAITING FOR REPLY"
DEBUG   2025-08-29 09:11:09,482  pymodbus.logging:transaction.py:419 Changing transaction state from "WAITING FOR REPLY" to "PROCESSING REPLY"
DEBUG   2025-08-29 09:11:09,492  pymodbus.logging:transaction.py:324 RECV: 0x1 0x3 0x4 0x3f 0x2 0xbc 0x73 0x66 0xc2
DEBUG   2025-08-29 09:11:09,492  pymodbus.logging:base.py:92 Processing: 0x1 0x3 0x4 0x3f 0x2 0xbc 0x73 0x66 0xc2
DEBUG   2025-08-29 09:11:09,492  pymodbus.logging:decoders.py:103 decode PDU for 3
DEBUG   2025-08-29 09:11:09,492  pymodbus.logging:base.py:102 Frame advanced, resetting header!!
DEBUG   2025-08-29 09:11:09,492  pymodbus.logging:transaction.py:67 Adding transaction 0
DEBUG   2025-08-29 09:11:09,492  pymodbus.logging:transaction.py:78 Getting transaction 0
DEBUG   2025-08-29 09:11:09,492  pymodbus.logging:transaction.py:258 Changing transaction state from "PROCESSING REPLY" to "TRANSACTION_COMPLETE"
INFO    2025-08-29 09:11:09,492  root:modbus_rtu_tcp.py:44 read_measurement ret is:ReadHoldingRegistersResponse (2)
INFO    2025-08-29 09:11:09,492  root:acudc260_modbus_get.py:159 read i2_current ret is:[16130, 48243]
DEBUG   2025-08-29 09:11:09,492  pymodbus.logging:transaction.py:184 Current transaction state - TRANSACTION_COMPLETE
DEBUG   2025-08-29 09:11:09,492  pymodbus.logging:transaction.py:193 Running transaction 0
DEBUG   2025-08-29 09:11:09,492  pymodbus.logging:transaction.py:293 SEND: 0x1 0x3 0x30 0x6 0x0 0x2 0x2b 0xa
DEBUG   2025-08-29 09:11:09,492  pymodbus.logging:serial.py:271 Changing state to IDLE - Last Frame End - 1756429869.482299 Current Time stamp - 1756429869.49212
DEBUG   2025-08-29 09:11:09,493  pymodbus.logging:base.py:250 New Transaction state "SENDING"
DEBUG   2025-08-29 09:11:09,493  pymodbus.logging:transaction.py:317 Changing transaction state from "SENDING" to "WAITING FOR REPLY"
DEBUG   2025-08-29 09:11:09,515  pymodbus.logging:transaction.py:419 Changing transaction state from "WAITING FOR REPLY" to "PROCESSING REPLY"
DEBUG   2025-08-29 09:11:09,515  pymodbus.logging:transaction.py:324 RECV: 0x1 0x3 0x4 0x3f 0x85 0x15 0x82 0x69 0x3f
DEBUG   2025-08-29 09:11:09,515  pymodbus.logging:base.py:92 Processing: 0x1 0x3 0x4 0x3f 0x85 0x15 0x82 0x69 0x3f
DEBUG   2025-08-29 09:11:09,515  pymodbus.logging:decoders.py:103 decode PDU for 3
DEBUG   2025-08-29 09:11:09,515  pymodbus.logging:base.py:102 Frame advanced, resetting header!!
DEBUG   2025-08-29 09:11:09,515  pymodbus.logging:transaction.py:67 Adding transaction 0
DEBUG   2025-08-29 09:11:09,515  pymodbus.logging:transaction.py:78 Getting transaction 0
DEBUG   2025-08-29 09:11:09,515  pymodbus.logging:transaction.py:258 Changing transaction state from "PROCESSING REPLY" to "TRANSACTION_COMPLETE"
INFO    2025-08-29 09:11:09,515  root:modbus_rtu_tcp.py:44 read_measurement ret is:ReadHoldingRegistersResponse (2)
INFO    2025-08-29 09:11:09,515  root:acudc260_modbus_get.py:173 read i_sum_current ret is:[16261, 5506]
DEBUG   2025-08-29 09:11:09,515  pymodbus.logging:transaction.py:184 Current transaction state - TRANSACTION_COMPLETE
DEBUG   2025-08-29 09:11:09,515  pymodbus.logging:transaction.py:193 Running transaction 0
DEBUG   2025-08-29 09:11:09,515  pymodbus.logging:transaction.py:293 SEND: 0x1 0x3 0x30 0x8 0x0 0x2 0x4a 0xc9
DEBUG   2025-08-29 09:11:09,515  pymodbus.logging:serial.py:271 Changing state to IDLE - Last Frame End - 1756429869.5157 Current Time stamp - 1756429869.5157
DEBUG   2025-08-29 09:11:09,516  pymodbus.logging:serial.py:279 Waiting for 3.5 char before next send - 1.823 ms
DEBUG   2025-08-29 09:11:09,518  pymodbus.logging:base.py:250 New Transaction state "SENDING"
DEBUG   2025-08-29 09:11:09,518  pymodbus.logging:transaction.py:317 Changing transaction state from "SENDING" to "WAITING FOR REPLY"
DEBUG   2025-08-29 09:11:09,545  pymodbus.logging:transaction.py:419 Changing transaction state from "WAITING FOR REPLY" to "PROCESSING REPLY"
DEBUG   2025-08-29 09:11:09,545  pymodbus.logging:transaction.py:324 RECV: 0x1 0x3 0x4 0x0 0x0 0x0 0x0 0xfa 0x33
DEBUG   2025-08-29 09:11:09,545  pymodbus.logging:base.py:92 Processing: 0x1 0x3 0x4 0x0 0x0 0x0 0x0 0xfa 0x33
DEBUG   2025-08-29 09:11:09,545  pymodbus.logging:decoders.py:103 decode PDU for 3
DEBUG   2025-08-29 09:11:09,545  pymodbus.logging:base.py:102 Frame advanced, resetting header!!
DEBUG   2025-08-29 09:11:09,545  pymodbus.logging:transaction.py:67 Adding transaction 0
DEBUG   2025-08-29 09:11:09,545  pymodbus.logging:transaction.py:78 Getting transaction 0
DEBUG   2025-08-29 09:11:09,545  pymodbus.logging:transaction.py:258 Changing transaction state from "PROCESSING REPLY" to "TRANSACTION_COMPLETE"
INFO    2025-08-29 09:11:09,545  root:modbus_rtu_tcp.py:44 read_measurement ret is:ReadHoldingRegistersResponse (2)
INFO    2025-08-29 09:11:09,545  root:acudc260_modbus_get.py:187 read p1_power ret is:[0, 0]
DEBUG   2025-08-29 09:11:09,545  pymodbus.logging:transaction.py:184 Current transaction state - TRANSACTION_COMPLETE
DEBUG   2025-08-29 09:11:09,545  pymodbus.logging:transaction.py:193 Running transaction 0
DEBUG   2025-08-29 09:11:09,545  pymodbus.logging:transaction.py:293 SEND: 0x1 0x3 0x30 0xa 0x0 0x2 0xeb 0x9
DEBUG   2025-08-29 09:11:09,545  pymodbus.logging:serial.py:271 Changing state to IDLE - Last Frame End - 1756429869.545762 Current Time stamp - 1756429869.545762
DEBUG   2025-08-29 09:11:09,546  pymodbus.logging:serial.py:279 Waiting for 3.5 char before next send - 1.823 ms
DEBUG   2025-08-29 09:11:09,549  pymodbus.logging:base.py:250 New Transaction state "SENDING"
DEBUG   2025-08-29 09:11:09,549  pymodbus.logging:transaction.py:317 Changing transaction state from "SENDING" to "WAITING FOR REPLY"
DEBUG   2025-08-29 09:11:09,573  pymodbus.logging:transaction.py:419 Changing transaction state from "WAITING FOR REPLY" to "PROCESSING REPLY"
DEBUG   2025-08-29 09:11:09,573  pymodbus.logging:transaction.py:324 RECV: 0x1 0x3 0x4 0x0 0x0 0x0 0x0 0xfa 0x33
DEBUG   2025-08-29 09:11:09,573  pymodbus.logging:base.py:92 Processing: 0x1 0x3 0x4 0x0 0x0 0x0 0x0 0xfa 0x33
DEBUG   2025-08-29 09:11:09,574  pymodbus.logging:decoders.py:103 decode PDU for 3
DEBUG   2025-08-29 09:11:09,574  pymodbus.logging:base.py:102 Frame advanced, resetting header!!
DEBUG   2025-08-29 09:11:09,574  pymodbus.logging:transaction.py:67 Adding transaction 0
DEBUG   2025-08-29 09:11:09,574  pymodbus.logging:transaction.py:78 Getting transaction 0
DEBUG   2025-08-29 09:11:09,574  pymodbus.logging:transaction.py:258 Changing transaction state from "PROCESSING REPLY" to "TRANSACTION_COMPLETE"
INFO    2025-08-29 09:11:09,574  root:modbus_rtu_tcp.py:44 read_measurement ret is:ReadHoldingRegistersResponse (2)
INFO    2025-08-29 09:11:09,574  root:acudc260_modbus_get.py:201 read p2_power ret is:[0, 0]
DEBUG   2025-08-29 09:11:09,574  pymodbus.logging:transaction.py:184 Current transaction state - TRANSACTION_COMPLETE
DEBUG   2025-08-29 09:11:09,574  pymodbus.logging:transaction.py:193 Running transaction 0
DEBUG   2025-08-29 09:11:09,574  pymodbus.logging:transaction.py:293 SEND: 0x1 0x3 0x30 0xc 0x0 0x2 0xb 0x8
DEBUG   2025-08-29 09:11:09,574  pymodbus.logging:serial.py:271 Changing state to IDLE - Last Frame End - 1756429869.573506 Current Time stamp - 1756429869.574512
DEBUG   2025-08-29 09:11:09,574  pymodbus.logging:serial.py:279 Waiting for 3.5 char before next send - 1.823 ms
DEBUG   2025-08-29 09:11:09,577  pymodbus.logging:base.py:250 New Transaction state "SENDING"
DEBUG   2025-08-29 09:11:09,577  pymodbus.logging:transaction.py:317 Changing transaction state from "SENDING" to "WAITING FOR REPLY"
DEBUG   2025-08-29 09:11:09,610  pymodbus.logging:transaction.py:419 Changing transaction state from "WAITING FOR REPLY" to "PROCESSING REPLY"
DEBUG   2025-08-29 09:11:09,610  pymodbus.logging:transaction.py:324 RECV: 0x1 0x3 0x4 0x0 0x0 0x0 0x0 0xfa 0x33
DEBUG   2025-08-29 09:11:09,610  pymodbus.logging:base.py:92 Processing: 0x1 0x3 0x4 0x0 0x0 0x0 0x0 0xfa 0x33
DEBUG   2025-08-29 09:11:09,610  pymodbus.logging:decoders.py:103 decode PDU for 3
DEBUG   2025-08-29 09:11:09,610  pymodbus.logging:base.py:102 Frame advanced, resetting header!!
DEBUG   2025-08-29 09:11:09,610  pymodbus.logging:transaction.py:67 Adding transaction 0
DEBUG   2025-08-29 09:11:09,610  pymodbus.logging:transaction.py:78 Getting transaction 0
DEBUG   2025-08-29 09:11:09,610  pymodbus.logging:transaction.py:258 Changing transaction state from "PROCESSING REPLY" to "TRANSACTION_COMPLETE"
INFO    2025-08-29 09:11:09,610  root:modbus_rtu_tcp.py:44 read_measurement ret is:ReadHoldingRegistersResponse (2)
INFO    2025-08-29 09:11:09,610  root:acudc260_modbus_get.py:215 read p_sum_power ret is:[0, 0]
DEBUG   2025-08-29 09:11:09,711  pymodbus.logging:transaction.py:184 Current transaction state - TRANSACTION_COMPLETE
DEBUG   2025-08-29 09:11:09,711  pymodbus.logging:transaction.py:193 Running transaction 0
DEBUG   2025-08-29 09:11:09,711  pymodbus.logging:transaction.py:293 SEND: 0x1 0x3 0x30 0x0 0x0 0x2 0xcb 0xb
DEBUG   2025-08-29 09:11:09,711  pymodbus.logging:serial.py:271 Changing state to IDLE - Last Frame End - 1756429869.610487 Current Time stamp - 1756429869.711293
DEBUG   2025-08-29 09:11:09,711  pymodbus.logging:base.py:250 New Transaction state "SENDING"
DEBUG   2025-08-29 09:11:09,711  pymodbus.logging:transaction.py:317 Changing transaction state from "SENDING" to "WAITING FOR REPLY"
DEBUG   2025-08-29 09:11:09,739  pymodbus.logging:transaction.py:419 Changing transaction state from "WAITING FOR REPLY" to "PROCESSING REPLY"
DEBUG   2025-08-29 09:11:09,739  pymodbus.logging:transaction.py:324 RECV: 0x1 0x3 0x4 0x0 0x0 0x0 0x0 0xfa 0x33
DEBUG   2025-08-29 09:11:09,739  pymodbus.logging:base.py:92 Processing: 0x1 0x3 0x4 0x0 0x0 0x0 0x0 0xfa 0x33
DEBUG   2025-08-29 09:11:09,739  pymodbus.logging:decoders.py:103 decode PDU for 3
DEBUG   2025-08-29 09:11:09,739  pymodbus.logging:base.py:102 Frame advanced, resetting header!!
DEBUG   2025-08-29 09:11:09,739  pymodbus.logging:transaction.py:67 Adding transaction 0
DEBUG   2025-08-29 09:11:09,739  pymodbus.logging:transaction.py:78 Getting transaction 0
DEBUG   2025-08-29 09:11:09,739  pymodbus.logging:transaction.py:258 Changing transaction state from "PROCESSING REPLY" to "TRANSACTION_COMPLETE"
INFO    2025-08-29 09:11:09,739  root:modbus_rtu_tcp.py:44 read_measurement ret is:ReadHoldingRegistersResponse (2)
INFO    2025-08-29 09:11:09,739  root:acudc260_modbus_get.py:131 read u_voltage ret is:[0, 0]
DEBUG   2025-08-29 09:11:09,739  pymodbus.logging:transaction.py:184 Current transaction state - TRANSACTION_COMPLETE
DEBUG   2025-08-29 09:11:09,739  pymodbus.logging:transaction.py:193 Running transaction 0
DEBUG   2025-08-29 09:11:09,739  pymodbus.logging:transaction.py:293 SEND: 0x1 0x3 0x30 0x2 0x0 0x2 0x6a 0xcb
DEBUG   2025-08-29 09:11:09,739  pymodbus.logging:serial.py:271 Changing state to IDLE - Last Frame End - 1756429869.739127 Current Time stamp - 1756429869.739127
DEBUG   2025-08-29 09:11:09,739  pymodbus.logging:serial.py:279 Waiting for 3.5 char before next send - 1.823 ms
DEBUG   2025-08-29 09:11:09,742  pymodbus.logging:base.py:250 New Transaction state "SENDING"
DEBUG   2025-08-29 09:11:09,742  pymodbus.logging:transaction.py:317 Changing transaction state from "SENDING" to "WAITING FOR REPLY"
DEBUG   2025-08-29 09:11:09,769  pymodbus.logging:transaction.py:419 Changing transaction state from "WAITING FOR REPLY" to "PROCESSING REPLY"
DEBUG   2025-08-29 09:11:09,769  pymodbus.logging:transaction.py:324 RECV: 0x1 0x3 0x4 0x3f 0x4 0x8a 0x82 0x50 0xe7
DEBUG   2025-08-29 09:11:09,769  pymodbus.logging:base.py:92 Processing: 0x1 0x3 0x4 0x3f 0x4 0x8a 0x82 0x50 0xe7
DEBUG   2025-08-29 09:11:09,769  pymodbus.logging:decoders.py:103 decode PDU for 3
DEBUG   2025-08-29 09:11:09,769  pymodbus.logging:base.py:102 Frame advanced, resetting header!!
DEBUG   2025-08-29 09:11:09,769  pymodbus.logging:transaction.py:67 Adding transaction 0
DEBUG   2025-08-29 09:11:09,769  pymodbus.logging:transaction.py:78 Getting transaction 0
DEBUG   2025-08-29 09:11:09,769  pymodbus.logging:transaction.py:258 Changing transaction state from "PROCESSING REPLY" to "TRANSACTION_COMPLETE"
INFO    2025-08-29 09:11:09,769  root:modbus_rtu_tcp.py:44 read_measurement ret is:ReadHoldingRegistersResponse (2)
INFO    2025-08-29 09:11:09,769  root:acudc260_modbus_get.py:145 read i1_current ret is:[16132, 35458]
DEBUG   2025-08-29 09:11:09,769  pymodbus.logging:transaction.py:184 Current transaction state - TRANSACTION_COMPLETE
DEBUG   2025-08-29 09:11:09,769  pymodbus.logging:transaction.py:193 Running transaction 0
DEBUG   2025-08-29 09:11:09,769  pymodbus.logging:transaction.py:293 SEND: 0x1 0x3 0x30 0x4 0x0 0x2 0x8a 0xca
DEBUG   2025-08-29 09:11:09,769  pymodbus.logging:serial.py:271 Changing state to IDLE - Last Frame End - 1756429869.76979 Current Time stamp - 1756429869.76979
DEBUG   2025-08-29 09:11:09,769  pymodbus.logging:serial.py:279 Waiting for 3.5 char before next send - 1.823 ms
DEBUG   2025-08-29 09:11:09,772  pymodbus.logging:base.py:250 New Transaction state "SENDING"
DEBUG   2025-08-29 09:11:09,772  pymodbus.logging:transaction.py:317 Changing transaction state from "SENDING" to "WAITING FOR REPLY"
DEBUG   2025-08-29 09:11:09,798  pymodbus.logging:transaction.py:419 Changing transaction state from "WAITING FOR REPLY" to "PROCESSING REPLY"
DEBUG   2025-08-29 09:11:09,798  pymodbus.logging:transaction.py:324 RECV: 0x1 0x3 0x4 0x3f 0x2 0x41 0x3e 0xe6 0x67
DEBUG   2025-08-29 09:11:09,798  pymodbus.logging:base.py:92 Processing: 0x1 0x3 0x4 0x3f 0x2 0x41 0x3e 0xe6 0x67
DEBUG   2025-08-29 09:11:09,798  pymodbus.logging:decoders.py:103 decode PDU for 3
DEBUG   2025-08-29 09:11:09,798  pymodbus.logging:base.py:102 Frame advanced, resetting header!!
DEBUG   2025-08-29 09:11:09,798  pymodbus.logging:transaction.py:67 Adding transaction 0
DEBUG   2025-08-29 09:11:09,798  pymodbus.logging:transaction.py:78 Getting transaction 0
DEBUG   2025-08-29 09:11:09,798  pymodbus.logging:transaction.py:258 Changing transaction state from "PROCESSING REPLY" to "TRANSACTION_COMPLETE"
INFO    2025-08-29 09:11:09,798  root:modbus_rtu_tcp.py:44 read_measurement ret is:ReadHoldingRegistersResponse (2)
INFO    2025-08-29 09:11:09,798  root:acudc260_modbus_get.py:159 read i2_current ret is:[16130, 16702]
DEBUG   2025-08-29 09:11:09,798  pymodbus.logging:transaction.py:184 Current transaction state - TRANSACTION_COMPLETE
DEBUG   2025-08-29 09:11:09,798  pymodbus.logging:transaction.py:193 Running transaction 0
DEBUG   2025-08-29 09:11:09,798  pymodbus.logging:transaction.py:293 SEND: 0x1 0x3 0x30 0x6 0x0 0x2 0x2b 0xa
DEBUG   2025-08-29 09:11:09,798  pymodbus.logging:serial.py:271 Changing state to IDLE - Last Frame End - 1756429869.798058 Current Time stamp - 1756429869.798058
DEBUG   2025-08-29 09:11:09,798  pymodbus.logging:serial.py:279 Waiting for 3.5 char before next send - 1.823 ms
DEBUG   2025-08-29 09:11:09,801  pymodbus.logging:base.py:250 New Transaction state "SENDING"
DEBUG   2025-08-29 09:11:09,801  pymodbus.logging:transaction.py:317 Changing transaction state from "SENDING" to "WAITING FOR REPLY"
DEBUG   2025-08-29 09:11:09,833  pymodbus.logging:transaction.py:419 Changing transaction state from "WAITING FOR REPLY" to "PROCESSING REPLY"
DEBUG   2025-08-29 09:11:09,833  pymodbus.logging:transaction.py:324 RECV: 0x1 0x3 0x4 0x3f 0x83 0x95 0x14 0x68 0x90
DEBUG   2025-08-29 09:11:09,833  pymodbus.logging:base.py:92 Processing: 0x1 0x3 0x4 0x3f 0x83 0x95 0x14 0x68 0x90
DEBUG   2025-08-29 09:11:09,833  pymodbus.logging:decoders.py:103 decode PDU for 3
DEBUG   2025-08-29 09:11:09,833  pymodbus.logging:base.py:102 Frame advanced, resetting header!!
DEBUG   2025-08-29 09:11:09,833  pymodbus.logging:transaction.py:67 Adding transaction 0
DEBUG   2025-08-29 09:11:09,833  pymodbus.logging:transaction.py:78 Getting transaction 0
DEBUG   2025-08-29 09:11:09,833  pymodbus.logging:transaction.py:258 Changing transaction state from "PROCESSING REPLY" to "TRANSACTION_COMPLETE"
INFO    2025-08-29 09:11:09,833  root:modbus_rtu_tcp.py:44 read_measurement ret is:ReadHoldingRegistersResponse (2)
INFO    2025-08-29 09:11:09,833  root:acudc260_modbus_get.py:173 read i_sum_current ret is:[16259, 38164]
DEBUG   2025-08-29 09:11:09,833  pymodbus.logging:transaction.py:184 Current transaction state - TRANSACTION_COMPLETE
DEBUG   2025-08-29 09:11:09,833  pymodbus.logging:transaction.py:193 Running transaction 0
DEBUG   2025-08-29 09:11:09,833  pymodbus.logging:transaction.py:293 SEND: 0x1 0x3 0x30 0x8 0x0 0x2 0x4a 0xc9
DEBUG   2025-08-29 09:11:09,833  pymodbus.logging:serial.py:271 Changing state to IDLE - Last Frame End - 1756429869.833827 Current Time stamp - 1756429869.833827
DEBUG   2025-08-29 09:11:09,833  pymodbus.logging:serial.py:279 Waiting for 3.5 char before next send - 1.823 ms
DEBUG   2025-08-29 09:11:09,836  pymodbus.logging:base.py:250 New Transaction state "SENDING"
DEBUG   2025-08-29 09:11:09,836  pymodbus.logging:transaction.py:317 Changing transaction state from "SENDING" to "WAITING FOR REPLY"
DEBUG   2025-08-29 09:11:09,866  pymodbus.logging:transaction.py:419 Changing transaction state from "WAITING FOR REPLY" to "PROCESSING REPLY"
DEBUG   2025-08-29 09:11:09,866  pymodbus.logging:transaction.py:324 RECV: 0x1 0x3 0x4 0x0 0x0 0x0 0x0 0xfa 0x33
DEBUG   2025-08-29 09:11:09,866  pymodbus.logging:base.py:92 Processing: 0x1 0x3 0x4 0x0 0x0 0x0 0x0 0xfa 0x33
DEBUG   2025-08-29 09:11:09,866  pymodbus.logging:decoders.py:103 decode PDU for 3
DEBUG   2025-08-29 09:11:09,866  pymodbus.logging:base.py:102 Frame advanced, resetting header!!
DEBUG   2025-08-29 09:11:09,866  pymodbus.logging:transaction.py:67 Adding transaction 0
DEBUG   2025-08-29 09:11:09,866  pymodbus.logging:transaction.py:78 Getting transaction 0
DEBUG   2025-08-29 09:11:09,866  pymodbus.logging:transaction.py:258 Changing transaction state from "PROCESSING REPLY" to "TRANSACTION_COMPLETE"
INFO    2025-08-29 09:11:09,866  root:modbus_rtu_tcp.py:44 read_measurement ret is:ReadHoldingRegistersResponse (2)
INFO    2025-08-29 09:11:09,866  root:acudc260_modbus_get.py:187 read p1_power ret is:[0, 0]
DEBUG   2025-08-29 09:11:09,866  pymodbus.logging:transaction.py:184 Current transaction state - TRANSACTION_COMPLETE
DEBUG   2025-08-29 09:11:09,866  pymodbus.logging:transaction.py:193 Running transaction 0
DEBUG   2025-08-29 09:11:09,866  pymodbus.logging:transaction.py:293 SEND: 0x1 0x3 0x30 0xa 0x0 0x2 0xeb 0x9
DEBUG   2025-08-29 09:11:09,866  pymodbus.logging:serial.py:271 Changing state to IDLE - Last Frame End - 1756429869.866449 Current Time stamp - 1756429869.866449
DEBUG   2025-08-29 09:11:09,866  pymodbus.logging:serial.py:279 Waiting for 3.5 char before next send - 1.823 ms
DEBUG   2025-08-29 09:11:09,869  pymodbus.logging:base.py:250 New Transaction state "SENDING"
DEBUG   2025-08-29 09:11:09,869  pymodbus.logging:transaction.py:317 Changing transaction state from "SENDING" to "WAITING FOR REPLY"
DEBUG   2025-08-29 09:11:09,899  pymodbus.logging:transaction.py:419 Changing transaction state from "WAITING FOR REPLY" to "PROCESSING REPLY"
DEBUG   2025-08-29 09:11:09,899  pymodbus.logging:transaction.py:324 RECV: 0x1 0x3 0x4 0x0 0x0 0x0 0x0 0xfa 0x33
DEBUG   2025-08-29 09:11:09,899  pymodbus.logging:base.py:92 Processing: 0x1 0x3 0x4 0x0 0x0 0x0 0x0 0xfa 0x33
DEBUG   2025-08-29 09:11:09,899  pymodbus.logging:decoders.py:103 decode PDU for 3
DEBUG   2025-08-29 09:11:09,899  pymodbus.logging:base.py:102 Frame advanced, resetting header!!
DEBUG   2025-08-29 09:11:09,899  pymodbus.logging:transaction.py:67 Adding transaction 0
DEBUG   2025-08-29 09:11:09,899  pymodbus.logging:transaction.py:78 Getting transaction 0
DEBUG   2025-08-29 09:11:09,899  pymodbus.logging:transaction.py:258 Changing transaction state from "PROCESSING REPLY" to "TRANSACTION_COMPLETE"
INFO    2025-08-29 09:11:09,899  root:modbus_rtu_tcp.py:44 read_measurement ret is:ReadHoldingRegistersResponse (2)
INFO    2025-08-29 09:11:09,899  root:acudc260_modbus_get.py:201 read p2_power ret is:[0, 0]
DEBUG   2025-08-29 09:11:09,899  pymodbus.logging:transaction.py:184 Current transaction state - TRANSACTION_COMPLETE
DEBUG   2025-08-29 09:11:09,899  pymodbus.logging:transaction.py:193 Running transaction 0
DEBUG   2025-08-29 09:11:09,899  pymodbus.logging:transaction.py:293 SEND: 0x1 0x3 0x30 0xc 0x0 0x2 0xb 0x8
DEBUG   2025-08-29 09:11:09,899  pymodbus.logging:serial.py:271 Changing state to IDLE - Last Frame End - 1756429869.899428 Current Time stamp - 1756429869.899428
DEBUG   2025-08-29 09:11:09,899  pymodbus.logging:serial.py:279 Waiting for 3.5 char before next send - 1.823 ms
DEBUG   2025-08-29 09:11:09,902  pymodbus.logging:base.py:250 New Transaction state "SENDING"
DEBUG   2025-08-29 09:11:09,902  pymodbus.logging:transaction.py:317 Changing transaction state from "SENDING" to "WAITING FOR REPLY"
DEBUG   2025-08-29 09:11:09,930  pymodbus.logging:transaction.py:419 Changing transaction state from "WAITING FOR REPLY" to "PROCESSING REPLY"
DEBUG   2025-08-29 09:11:09,930  pymodbus.logging:transaction.py:324 RECV: 0x1 0x3 0x4 0x0 0x0 0x0 0x0 0xfa 0x33
DEBUG   2025-08-29 09:11:09,930  pymodbus.logging:base.py:92 Processing: 0x1 0x3 0x4 0x0 0x0 0x0 0x0 0xfa 0x33
DEBUG   2025-08-29 09:11:09,930  pymodbus.logging:decoders.py:103 decode PDU for 3
DEBUG   2025-08-29 09:11:09,930  pymodbus.logging:base.py:102 Frame advanced, resetting header!!
DEBUG   2025-08-29 09:11:09,930  pymodbus.logging:transaction.py:67 Adding transaction 0
DEBUG   2025-08-29 09:11:09,930  pymodbus.logging:transaction.py:78 Getting transaction 0
DEBUG   2025-08-29 09:11:09,930  pymodbus.logging:transaction.py:258 Changing transaction state from "PROCESSING REPLY" to "TRANSACTION_COMPLETE"
INFO    2025-08-29 09:11:09,930  root:modbus_rtu_tcp.py:44 read_measurement ret is:ReadHoldingRegistersResponse (2)
INFO    2025-08-29 09:11:09,930  root:acudc260_modbus_get.py:215 read p_sum_power ret is:[0, 0]
DEBUG   2025-08-29 09:11:10,031  pymodbus.logging:transaction.py:184 Current transaction state - TRANSACTION_COMPLETE
DEBUG   2025-08-29 09:11:10,031  pymodbus.logging:transaction.py:193 Running transaction 0
DEBUG   2025-08-29 09:11:10,031  pymodbus.logging:transaction.py:293 SEND: 0x1 0x3 0x30 0x0 0x0 0x2 0xcb 0xb
DEBUG   2025-08-29 09:11:10,031  pymodbus.logging:serial.py:271 Changing state to IDLE - Last Frame End - 1756429869.930785 Current Time stamp - 1756429870.031809
DEBUG   2025-08-29 09:11:10,031  pymodbus.logging:base.py:250 New Transaction state "SENDING"
DEBUG   2025-08-29 09:11:10,032  pymodbus.logging:transaction.py:317 Changing transaction state from "SENDING" to "WAITING FOR REPLY"
DEBUG   2025-08-29 09:11:10,057  pymodbus.logging:transaction.py:419 Changing transaction state from "WAITING FOR REPLY" to "PROCESSING REPLY"
DEBUG   2025-08-29 09:11:10,057  pymodbus.logging:transaction.py:324 RECV: 0x1 0x3 0x4 0x0 0x0 0x0 0x0 0xfa 0x33
DEBUG   2025-08-29 09:11:10,057  pymodbus.logging:base.py:92 Processing: 0x1 0x3 0x4 0x0 0x0 0x0 0x0 0xfa 0x33
DEBUG   2025-08-29 09:11:10,057  pymodbus.logging:decoders.py:103 decode PDU for 3
DEBUG   2025-08-29 09:11:10,057  pymodbus.logging:base.py:102 Frame advanced, resetting header!!
DEBUG   2025-08-29 09:11:10,057  pymodbus.logging:transaction.py:67 Adding transaction 0
DEBUG   2025-08-29 09:11:10,057  pymodbus.logging:transaction.py:78 Getting transaction 0
DEBUG   2025-08-29 09:11:10,057  pymodbus.logging:transaction.py:258 Changing transaction state from "PROCESSING REPLY" to "TRANSACTION_COMPLETE"
INFO    2025-08-29 09:11:10,057  root:modbus_rtu_tcp.py:44 read_measurement ret is:ReadHoldingRegistersResponse (2)
INFO    2025-08-29 09:11:10,057  root:acudc260_modbus_get.py:131 read u_voltage ret is:[0, 0]
DEBUG   2025-08-29 09:11:10,057  pymodbus.logging:transaction.py:184 Current transaction state - TRANSACTION_COMPLETE
DEBUG   2025-08-29 09:11:10,057  pymodbus.logging:transaction.py:193 Running transaction 0
DEBUG   2025-08-29 09:11:10,057  pymodbus.logging:transaction.py:293 SEND: 0x1 0x3 0x30 0x2 0x0 0x2 0x6a 0xcb
DEBUG   2025-08-29 09:11:10,057  pymodbus.logging:serial.py:271 Changing state to IDLE - Last Frame End - 1756429870.057175 Current Time stamp - 1756429870.057175
DEBUG   2025-08-29 09:11:10,057  pymodbus.logging:serial.py:279 Waiting for 3.5 char before next send - 1.823 ms
DEBUG   2025-08-29 09:11:10,059  pymodbus.logging:base.py:250 New Transaction state "SENDING"
DEBUG   2025-08-29 09:11:10,059  pymodbus.logging:transaction.py:317 Changing transaction state from "SENDING" to "WAITING FOR REPLY"
DEBUG   2025-08-29 09:11:10,089  pymodbus.logging:transaction.py:419 Changing transaction state from "WAITING FOR REPLY" to "PROCESSING REPLY"
DEBUG   2025-08-29 09:11:10,089  pymodbus.logging:transaction.py:324 RECV: 0x1 0x3 0x4 0x3f 0x7 0xac 0xc8 0x3b 0x70
DEBUG   2025-08-29 09:11:10,089  pymodbus.logging:base.py:92 Processing: 0x1 0x3 0x4 0x3f 0x7 0xac 0xc8 0x3b 0x70
DEBUG   2025-08-29 09:11:10,089  pymodbus.logging:decoders.py:103 decode PDU for 3
DEBUG   2025-08-29 09:11:10,089  pymodbus.logging:base.py:102 Frame advanced, resetting header!!
DEBUG   2025-08-29 09:11:10,089  pymodbus.logging:transaction.py:67 Adding transaction 0
DEBUG   2025-08-29 09:11:10,089  pymodbus.logging:transaction.py:78 Getting transaction 0
DEBUG   2025-08-29 09:11:10,089  pymodbus.logging:transaction.py:258 Changing transaction state from "PROCESSING REPLY" to "TRANSACTION_COMPLETE"
INFO    2025-08-29 09:11:10,089  root:modbus_rtu_tcp.py:44 read_measurement ret is:ReadHoldingRegistersResponse (2)
INFO    2025-08-29 09:11:10,089  root:acudc260_modbus_get.py:145 read i1_current ret is:[16135, 44232]
DEBUG   2025-08-29 09:11:10,089  pymodbus.logging:transaction.py:184 Current transaction state - TRANSACTION_COMPLETE
DEBUG   2025-08-29 09:11:10,089  pymodbus.logging:transaction.py:193 Running transaction 0
DEBUG   2025-08-29 09:11:10,089  pymodbus.logging:transaction.py:293 SEND: 0x1 0x3 0x30 0x4 0x0 0x2 0x8a 0xca
DEBUG   2025-08-29 09:11:10,089  pymodbus.logging:serial.py:271 Changing state to IDLE - Last Frame End - 1756429870.089673 Current Time stamp - 1756429870.089673
DEBUG   2025-08-29 09:11:10,089  pymodbus.logging:serial.py:279 Waiting for 3.5 char before next send - 1.823 ms
DEBUG   2025-08-29 09:11:10,093  pymodbus.logging:base.py:250 New Transaction state "SENDING"
DEBUG   2025-08-29 09:11:10,093  pymodbus.logging:transaction.py:317 Changing transaction state from "SENDING" to "WAITING FOR REPLY"
DEBUG   2025-08-29 09:11:10,122  pymodbus.logging:transaction.py:419 Changing transaction state from "WAITING FOR REPLY" to "PROCESSING REPLY"
DEBUG   2025-08-29 09:11:10,122  pymodbus.logging:transaction.py:324 RECV: 0x1 0x3 0x4 0x3f 0x2 0xec 0x8b 0x5b 0x40
DEBUG   2025-08-29 09:11:10,122  pymodbus.logging:base.py:92 Processing: 0x1 0x3 0x4 0x3f 0x2 0xec 0x8b 0x5b 0x40
DEBUG   2025-08-29 09:11:10,122  pymodbus.logging:decoders.py:103 decode PDU for 3
DEBUG   2025-08-29 09:11:10,122  pymodbus.logging:base.py:102 Frame advanced, resetting header!!
DEBUG   2025-08-29 09:11:10,122  pymodbus.logging:transaction.py:67 Adding transaction 0
DEBUG   2025-08-29 09:11:10,122  pymodbus.logging:transaction.py:78 Getting transaction 0
DEBUG   2025-08-29 09:11:10,122  pymodbus.logging:transaction.py:258 Changing transaction state from "PROCESSING REPLY" to "TRANSACTION_COMPLETE"
INFO    2025-08-29 09:11:10,122  root:modbus_rtu_tcp.py:44 read_measurement ret is:ReadHoldingRegistersResponse (2)
INFO    2025-08-29 09:11:10,123  root:acudc260_modbus_get.py:159 read i2_current ret is:[16130, 60555]
DEBUG   2025-08-29 09:11:10,123  pymodbus.logging:transaction.py:184 Current transaction state - TRANSACTION_COMPLETE
DEBUG   2025-08-29 09:11:10,123  pymodbus.logging:transaction.py:193 Running transaction 0
DEBUG   2025-08-29 09:11:10,123  pymodbus.logging:transaction.py:293 SEND: 0x1 0x3 0x30 0x6 0x0 0x2 0x2b 0xa
DEBUG   2025-08-29 09:11:10,123  pymodbus.logging:serial.py:271 Changing state to IDLE - Last Frame End - 1756429870.122558 Current Time stamp - 1756429870.123667
DEBUG   2025-08-29 09:11:10,123  pymodbus.logging:serial.py:279 Waiting for 3.5 char before next send - 1.823 ms
DEBUG   2025-08-29 09:11:10,126  pymodbus.logging:base.py:250 New Transaction state "SENDING"
DEBUG   2025-08-29 09:11:10,126  pymodbus.logging:transaction.py:317 Changing transaction state from "SENDING" to "WAITING FOR REPLY"
DEBUG   2025-08-29 09:11:10,152  pymodbus.logging:transaction.py:419 Changing transaction state from "WAITING FOR REPLY" to "PROCESSING REPLY"
DEBUG   2025-08-29 09:11:10,152  pymodbus.logging:transaction.py:324 RECV: 0x1 0x3 0x4 0x3f 0x85 0x4c 0xaa 0x53 0x71
DEBUG   2025-08-29 09:11:10,152  pymodbus.logging:base.py:92 Processing: 0x1 0x3 0x4 0x3f 0x85 0x4c 0xaa 0x53 0x71
DEBUG   2025-08-29 09:11:10,152  pymodbus.logging:decoders.py:103 decode PDU for 3
DEBUG   2025-08-29 09:11:10,152  pymodbus.logging:base.py:102 Frame advanced, resetting header!!
DEBUG   2025-08-29 09:11:10,152  pymodbus.logging:transaction.py:67 Adding transaction 0
DEBUG   2025-08-29 09:11:10,152  pymodbus.logging:transaction.py:78 Getting transaction 0
DEBUG   2025-08-29 09:11:10,152  pymodbus.logging:transaction.py:258 Changing transaction state from "PROCESSING REPLY" to "TRANSACTION_COMPLETE"
INFO    2025-08-29 09:11:10,152  root:modbus_rtu_tcp.py:44 read_measurement ret is:ReadHoldingRegistersResponse (2)
INFO    2025-08-29 09:11:10,152  root:acudc260_modbus_get.py:173 read i_sum_current ret is:[16261, 19626]
DEBUG   2025-08-29 09:11:10,153  pymodbus.logging:transaction.py:184 Current transaction state - TRANSACTION_COMPLETE
DEBUG   2025-08-29 09:11:10,153  pymodbus.logging:transaction.py:193 Running transaction 0
DEBUG   2025-08-29 09:11:10,153  pymodbus.logging:transaction.py:293 SEND: 0x1 0x3 0x30 0x8 0x0 0x2 0x4a 0xc9
DEBUG   2025-08-29 09:11:10,153  pymodbus.logging:serial.py:271 Changing state to IDLE - Last Frame End - 1756429870.152718 Current Time stamp - 1756429870.153832
DEBUG   2025-08-29 09:11:10,153  pymodbus.logging:serial.py:279 Waiting for 3.5 char before next send - 1.823 ms
DEBUG   2025-08-29 09:11:10,156  pymodbus.logging:base.py:250 New Transaction state "SENDING"
DEBUG   2025-08-29 09:11:10,156  pymodbus.logging:transaction.py:317 Changing transaction state from "SENDING" to "WAITING FOR REPLY"
DEBUG   2025-08-29 09:11:10,181  pymodbus.logging:transaction.py:419 Changing transaction state from "WAITING FOR REPLY" to "PROCESSING REPLY"
DEBUG   2025-08-29 09:11:10,181  pymodbus.logging:transaction.py:324 RECV: 0x1 0x3 0x4 0x0 0x0 0x0 0x0 0xfa 0x33
DEBUG   2025-08-29 09:11:10,181  pymodbus.logging:base.py:92 Processing: 0x1 0x3 0x4 0x0 0x0 0x0 0x0 0xfa 0x33
DEBUG   2025-08-29 09:11:10,181  pymodbus.logging:decoders.py:103 decode PDU for 3
DEBUG   2025-08-29 09:11:10,181  pymodbus.logging:base.py:102 Frame advanced, resetting header!!
DEBUG   2025-08-29 09:11:10,181  pymodbus.logging:transaction.py:67 Adding transaction 0
DEBUG   2025-08-29 09:11:10,181  pymodbus.logging:transaction.py:78 Getting transaction 0
DEBUG   2025-08-29 09:11:10,181  pymodbus.logging:transaction.py:258 Changing transaction state from "PROCESSING REPLY" to "TRANSACTION_COMPLETE"
INFO    2025-08-29 09:11:10,181  root:modbus_rtu_tcp.py:44 read_measurement ret is:ReadHoldingRegistersResponse (2)
INFO    2025-08-29 09:11:10,181  root:acudc260_modbus_get.py:187 read p1_power ret is:[0, 0]
DEBUG   2025-08-29 09:11:10,181  pymodbus.logging:transaction.py:184 Current transaction state - TRANSACTION_COMPLETE
DEBUG   2025-08-29 09:11:10,181  pymodbus.logging:transaction.py:193 Running transaction 0
DEBUG   2025-08-29 09:11:10,181  pymodbus.logging:transaction.py:293 SEND: 0x1 0x3 0x30 0xa 0x0 0x2 0xeb 0x9
DEBUG   2025-08-29 09:11:10,181  pymodbus.logging:serial.py:271 Changing state to IDLE - Last Frame End - 1756429870.18192 Current Time stamp - 1756429870.18192
DEBUG   2025-08-29 09:11:10,181  pymodbus.logging:serial.py:279 Waiting for 3.5 char before next send - 1.823 ms
DEBUG   2025-08-29 09:11:10,185  pymodbus.logging:base.py:250 New Transaction state "SENDING"
DEBUG   2025-08-29 09:11:10,185  pymodbus.logging:transaction.py:317 Changing transaction state from "SENDING" to "WAITING FOR REPLY"
DEBUG   2025-08-29 09:11:10,216  pymodbus.logging:transaction.py:419 Changing transaction state from "WAITING FOR REPLY" to "PROCESSING REPLY"
DEBUG   2025-08-29 09:11:10,216  pymodbus.logging:transaction.py:324 RECV: 0x1 0x3 0x4 0x0 0x0 0x0 0x0 0xfa 0x33
DEBUG   2025-08-29 09:11:10,216  pymodbus.logging:base.py:92 Processing: 0x1 0x3 0x4 0x0 0x0 0x0 0x0 0xfa 0x33
DEBUG   2025-08-29 09:11:10,216  pymodbus.logging:decoders.py:103 decode PDU for 3
DEBUG   2025-08-29 09:11:10,216  pymodbus.logging:base.py:102 Frame advanced, resetting header!!
DEBUG   2025-08-29 09:11:10,216  pymodbus.logging:transaction.py:67 Adding transaction 0
DEBUG   2025-08-29 09:11:10,216  pymodbus.logging:transaction.py:78 Getting transaction 0
DEBUG   2025-08-29 09:11:10,216  pymodbus.logging:transaction.py:258 Changing transaction state from "PROCESSING REPLY" to "TRANSACTION_COMPLETE"
INFO    2025-08-29 09:11:10,216  root:modbus_rtu_tcp.py:44 read_measurement ret is:ReadHoldingRegistersResponse (2)
INFO    2025-08-29 09:11:10,216  root:acudc260_modbus_get.py:201 read p2_power ret is:[0, 0]
DEBUG   2025-08-29 09:11:10,216  pymodbus.logging:transaction.py:184 Current transaction state - TRANSACTION_COMPLETE
DEBUG   2025-08-29 09:11:10,216  pymodbus.logging:transaction.py:193 Running transaction 0
DEBUG   2025-08-29 09:11:10,216  pymodbus.logging:transaction.py:293 SEND: 0x1 0x3 0x30 0xc 0x0 0x2 0xb 0x8
DEBUG   2025-08-29 09:11:10,217  pymodbus.logging:serial.py:271 Changing state to IDLE - Last Frame End - 1756429870.2165 Current Time stamp - 1756429870.217529
DEBUG   2025-08-29 09:11:10,217  pymodbus.logging:serial.py:279 Waiting for 3.5 char before next send - 1.823 ms
DEBUG   2025-08-29 09:11:10,219  pymodbus.logging:base.py:250 New Transaction state "SENDING"
DEBUG   2025-08-29 09:11:10,219  pymodbus.logging:transaction.py:317 Changing transaction state from "SENDING" to "WAITING FOR REPLY"
DEBUG   2025-08-29 09:11:10,248  pymodbus.logging:transaction.py:419 Changing transaction state from "WAITING FOR REPLY" to "PROCESSING REPLY"
DEBUG   2025-08-29 09:11:10,248  pymodbus.logging:transaction.py:324 RECV: 0x1 0x3 0x4 0x0 0x0 0x0 0x0 0xfa 0x33
DEBUG   2025-08-29 09:11:10,248  pymodbus.logging:base.py:92 Processing: 0x1 0x3 0x4 0x0 0x0 0x0 0x0 0xfa 0x33
DEBUG   2025-08-29 09:11:10,248  pymodbus.logging:decoders.py:103 decode PDU for 3
DEBUG   2025-08-29 09:11:10,248  pymodbus.logging:base.py:102 Frame advanced, resetting header!!
DEBUG   2025-08-29 09:11:10,248  pymodbus.logging:transaction.py:67 Adding transaction 0
DEBUG   2025-08-29 09:11:10,248  pymodbus.logging:transaction.py:78 Getting transaction 0
DEBUG   2025-08-29 09:11:10,248  pymodbus.logging:transaction.py:258 Changing transaction state from "PROCESSING REPLY" to "TRANSACTION_COMPLETE"
INFO    2025-08-29 09:11:10,248  root:modbus_rtu_tcp.py:44 read_measurement ret is:ReadHoldingRegistersResponse (2)
INFO    2025-08-29 09:11:10,248  root:acudc260_modbus_get.py:215 read p_sum_power ret is:[0, 0]
DEBUG   2025-08-29 09:11:10,350  pymodbus.logging:transaction.py:184 Current transaction state - TRANSACTION_COMPLETE
DEBUG   2025-08-29 09:11:10,350  pymodbus.logging:transaction.py:193 Running transaction 0
DEBUG   2025-08-29 09:11:10,350  pymodbus.logging:transaction.py:293 SEND: 0x1 0x3 0x30 0x0 0x0 0x2 0xcb 0xb
DEBUG   2025-08-29 09:11:10,350  pymodbus.logging:serial.py:271 Changing state to IDLE - Last Frame End - 1756429870.248958 Current Time stamp - 1756429870.35024
DEBUG   2025-08-29 09:11:10,350  pymodbus.logging:base.py:250 New Transaction state "SENDING"
DEBUG   2025-08-29 09:11:10,350  pymodbus.logging:transaction.py:317 Changing transaction state from "SENDING" to "WAITING FOR REPLY"
DEBUG   2025-08-29 09:11:10,377  pymodbus.logging:transaction.py:419 Changing transaction state from "WAITING FOR REPLY" to "PROCESSING REPLY"
DEBUG   2025-08-29 09:11:10,377  pymodbus.logging:transaction.py:324 RECV: 0x1 0x3 0x4 0x0 0x0 0x0 0x0 0xfa 0x33
DEBUG   2025-08-29 09:11:10,377  pymodbus.logging:base.py:92 Processing: 0x1 0x3 0x4 0x0 0x0 0x0 0x0 0xfa 0x33
DEBUG   2025-08-29 09:11:10,377  pymodbus.logging:decoders.py:103 decode PDU for 3
DEBUG   2025-08-29 09:11:10,377  pymodbus.logging:base.py:102 Frame advanced, resetting header!!
DEBUG   2025-08-29 09:11:10,377  pymodbus.logging:transaction.py:67 Adding transaction 0
DEBUG   2025-08-29 09:11:10,377  pymodbus.logging:transaction.py:78 Getting transaction 0
DEBUG   2025-08-29 09:11:10,377  pymodbus.logging:transaction.py:258 Changing transaction state from "PROCESSING REPLY" to "TRANSACTION_COMPLETE"
INFO    2025-08-29 09:11:10,377  root:modbus_rtu_tcp.py:44 read_measurement ret is:ReadHoldingRegistersResponse (2)
INFO    2025-08-29 09:11:10,377  root:acudc260_modbus_get.py:131 read u_voltage ret is:[0, 0]
DEBUG   2025-08-29 09:11:10,377  pymodbus.logging:transaction.py:184 Current transaction state - TRANSACTION_COMPLETE
DEBUG   2025-08-29 09:11:10,377  pymodbus.logging:transaction.py:193 Running transaction 0
DEBUG   2025-08-29 09:11:10,377  pymodbus.logging:transaction.py:293 SEND: 0x1 0x3 0x30 0x2 0x0 0x2 0x6a 0xcb
DEBUG   2025-08-29 09:11:10,377  pymodbus.logging:serial.py:271 Changing state to IDLE - Last Frame End - 1756429870.377703 Current Time stamp - 1756429870.377703
DEBUG   2025-08-29 09:11:10,377  pymodbus.logging:serial.py:279 Waiting for 3.5 char before next send - 1.823 ms
DEBUG   2025-08-29 09:11:10,380  pymodbus.logging:base.py:250 New Transaction state "SENDING"
DEBUG   2025-08-29 09:11:10,380  pymodbus.logging:transaction.py:317 Changing transaction state from "SENDING" to "WAITING FOR REPLY"
DEBUG   2025-08-29 09:11:10,409  pymodbus.logging:transaction.py:419 Changing transaction state from "WAITING FOR REPLY" to "PROCESSING REPLY"
DEBUG   2025-08-29 09:11:10,409  pymodbus.logging:transaction.py:324 RECV: 0x1 0x3 0x4 0x3f 0x6 0xd 0x65 0xd2 0x9d
DEBUG   2025-08-29 09:11:10,409  pymodbus.logging:base.py:92 Processing: 0x1 0x3 0x4 0x3f 0x6 0xd 0x65 0xd2 0x9d
DEBUG   2025-08-29 09:11:10,409  pymodbus.logging:decoders.py:103 decode PDU for 3
DEBUG   2025-08-29 09:11:10,409  pymodbus.logging:base.py:102 Frame advanced, resetting header!!
DEBUG   2025-08-29 09:11:10,409  pymodbus.logging:transaction.py:67 Adding transaction 0
DEBUG   2025-08-29 09:11:10,409  pymodbus.logging:transaction.py:78 Getting transaction 0
DEBUG   2025-08-29 09:11:10,409  pymodbus.logging:transaction.py:258 Changing transaction state from "PROCESSING REPLY" to "TRANSACTION_COMPLETE"
INFO    2025-08-29 09:11:10,409  root:modbus_rtu_tcp.py:44 read_measurement ret is:ReadHoldingRegistersResponse (2)
INFO    2025-08-29 09:11:10,409  root:acudc260_modbus_get.py:145 read i1_current ret is:[16134, 3429]
DEBUG   2025-08-29 09:11:10,409  pymodbus.logging:transaction.py:184 Current transaction state - TRANSACTION_COMPLETE
DEBUG   2025-08-29 09:11:10,409  pymodbus.logging:transaction.py:193 Running transaction 0
DEBUG   2025-08-29 09:11:10,410  pymodbus.logging:transaction.py:293 SEND: 0x1 0x3 0x30 0x4 0x0 0x2 0x8a 0xca
DEBUG   2025-08-29 09:11:10,410  pymodbus.logging:serial.py:271 Changing state to IDLE - Last Frame End - 1756429870.409459 Current Time stamp - 1756429870.410471
DEBUG   2025-08-29 09:11:10,410  pymodbus.logging:serial.py:279 Waiting for 3.5 char before next send - 1.823 ms
DEBUG   2025-08-29 09:11:10,412  pymodbus.logging:base.py:250 New Transaction state "SENDING"
DEBUG   2025-08-29 09:11:10,413  pymodbus.logging:transaction.py:317 Changing transaction state from "SENDING" to "WAITING FOR REPLY"
DEBUG   2025-08-29 09:11:10,442  pymodbus.logging:transaction.py:419 Changing transaction state from "WAITING FOR REPLY" to "PROCESSING REPLY"
DEBUG   2025-08-29 09:11:10,442  pymodbus.logging:transaction.py:324 RECV: 0x1 0x3 0x4 0x3f 0x3 0x3f 0x83 0x56 0x76
DEBUG   2025-08-29 09:11:10,442  pymodbus.logging:base.py:92 Processing: 0x1 0x3 0x4 0x3f 0x3 0x3f 0x83 0x56 0x76
DEBUG   2025-08-29 09:11:10,442  pymodbus.logging:decoders.py:103 decode PDU for 3
DEBUG   2025-08-29 09:11:10,442  pymodbus.logging:base.py:102 Frame advanced, resetting header!!
DEBUG   2025-08-29 09:11:10,442  pymodbus.logging:transaction.py:67 Adding transaction 0
DEBUG   2025-08-29 09:11:10,442  pymodbus.logging:transaction.py:78 Getting transaction 0
DEBUG   2025-08-29 09:11:10,442  pymodbus.logging:transaction.py:258 Changing transaction state from "PROCESSING REPLY" to "TRANSACTION_COMPLETE"
INFO    2025-08-29 09:11:10,442  root:modbus_rtu_tcp.py:44 read_measurement ret is:ReadHoldingRegistersResponse (2)
INFO    2025-08-29 09:11:10,442  root:acudc260_modbus_get.py:159 read i2_current ret is:[16131, 16259]
DEBUG   2025-08-29 09:11:10,442  pymodbus.logging:transaction.py:184 Current transaction state - TRANSACTION_COMPLETE
DEBUG   2025-08-29 09:11:10,442  pymodbus.logging:transaction.py:193 Running transaction 0
DEBUG   2025-08-29 09:11:10,442  pymodbus.logging:transaction.py:293 SEND: 0x1 0x3 0x30 0x6 0x0 0x2 0x2b 0xa
DEBUG   2025-08-29 09:11:10,442  pymodbus.logging:serial.py:271 Changing state to IDLE - Last Frame End - 1756429870.442626 Current Time stamp - 1756429870.442626
DEBUG   2025-08-29 09:11:10,442  pymodbus.logging:serial.py:279 Waiting for 3.5 char before next send - 1.823 ms
DEBUG   2025-08-29 09:11:10,445  pymodbus.logging:base.py:250 New Transaction state "SENDING"
DEBUG   2025-08-29 09:11:10,445  pymodbus.logging:transaction.py:317 Changing transaction state from "SENDING" to "WAITING FOR REPLY"
DEBUG   2025-08-29 09:11:10,474  pymodbus.logging:transaction.py:419 Changing transaction state from "WAITING FOR REPLY" to "PROCESSING REPLY"
DEBUG   2025-08-29 09:11:10,474  pymodbus.logging:transaction.py:324 RECV: 0x1 0x3 0x4 0x3f 0x84 0xa6 0x74 0xcd 0x89
