INFO    2025-08-29 15:37:26,537  root:acudc260_fast_test.py:477 测试进度:['test_case', 'Voltage', 'Current_1', 'Current_2', '等待时间(h)', 'voltage_accuracy', 'current_accuracy', 'power_accuracy', '采样次数', '采样间隔'],执行时间:2025_08_29 15:37:26
INFO    2025-08-29 15:37:26,538  root:source_control.py:26 <源输出>
    电压检定点:0.0%;
    电流检定点:0.08%;
    电压纹波比例:0%;
    电流纹波比例:0%;
    电压纹波相位:0度;
    电流纹波相位:0度;
    纹波频率:300Hz;
    电能方向:正向;
    <End>
INFO    2025-08-29 15:37:29,562  root:source_control.py:30 recv_data ret is:<源输出应答>
电压总值:0.000000V;
电流总值:0.400000A;
功率总值:0.000000W;
电压直流:0.000000V;
电流直流:0.400000A;
功率直流:0.000000W;
电压纹波:0.000000V;
电流纹波:0.000000A;
功率纹波:0.000000W;
<End>
DEBUG   2025-08-29 15:37:39,665  pymodbus.logging:transaction.py:184 Current transaction state - IDLE
DEBUG   2025-08-29 15:37:39,665  pymodbus.logging:transaction.py:193 Running transaction 0
DEBUG   2025-08-29 15:37:39,665  pymodbus.logging:transaction.py:293 SEND: 0x1 0x3 0x30 0x0 0x0 0x2 0xcb 0xb
DEBUG   2025-08-29 15:37:39,665  pymodbus.logging:base.py:250 New Transaction state "SENDING"
DEBUG   2025-08-29 15:37:39,665  pymodbus.logging:transaction.py:317 Changing transaction state from "SENDING" to "WAITING FOR REPLY"
DEBUG   2025-08-29 15:37:39,691  pymodbus.logging:transaction.py:419 Changing transaction state from "WAITING FOR REPLY" to "PROCESSING REPLY"
DEBUG   2025-08-29 15:37:39,691  pymodbus.logging:transaction.py:324 RECV: 0x1 0x3 0x4 0x0 0x0 0x0 0x0 0xfa 0x33
DEBUG   2025-08-29 15:37:39,691  pymodbus.logging:base.py:92 Processing: 0x1 0x3 0x4 0x0 0x0 0x0 0x0 0xfa 0x33
DEBUG   2025-08-29 15:37:39,691  pymodbus.logging:decoders.py:103 decode PDU for 3
DEBUG   2025-08-29 15:37:39,691  pymodbus.logging:base.py:102 Frame advanced, resetting header!!
DEBUG   2025-08-29 15:37:39,691  pymodbus.logging:transaction.py:67 Adding transaction 0
DEBUG   2025-08-29 15:37:39,691  pymodbus.logging:transaction.py:78 Getting transaction 0
DEBUG   2025-08-29 15:37:39,691  pymodbus.logging:transaction.py:258 Changing transaction state from "PROCESSING REPLY" to "TRANSACTION_COMPLETE"
INFO    2025-08-29 15:37:39,691  root:modbus_rtu_tcp.py:44 read_measurement ret is:ReadHoldingRegistersResponse (2)
INFO    2025-08-29 15:37:39,691  root:acudc260_modbus_get.py:131 read u_voltage ret is:[0, 0]
DEBUG   2025-08-29 15:37:39,691  pymodbus.logging:transaction.py:184 Current transaction state - TRANSACTION_COMPLETE
DEBUG   2025-08-29 15:37:39,691  pymodbus.logging:transaction.py:193 Running transaction 0
DEBUG   2025-08-29 15:37:39,691  pymodbus.logging:transaction.py:293 SEND: 0x1 0x3 0x30 0x2 0x0 0x2 0x6a 0xcb
DEBUG   2025-08-29 15:37:39,691  pymodbus.logging:serial.py:271 Changing state to IDLE - Last Frame End - 1756453059.691456 Current Time stamp - 1756453059.691456
DEBUG   2025-08-29 15:37:39,691  pymodbus.logging:serial.py:279 Waiting for 3.5 char before next send - 1.823 ms
DEBUG   2025-08-29 15:37:39,695  pymodbus.logging:base.py:250 New Transaction state "SENDING"
DEBUG   2025-08-29 15:37:39,695  pymodbus.logging:transaction.py:317 Changing transaction state from "SENDING" to "WAITING FOR REPLY"
DEBUG   2025-08-29 15:37:39,723  pymodbus.logging:transaction.py:419 Changing transaction state from "WAITING FOR REPLY" to "PROCESSING REPLY"
DEBUG   2025-08-29 15:37:39,723  pymodbus.logging:transaction.py:324 RECV: 0x1 0x3 0x4 0x3e 0xca 0x5e 0x53 0xaf 0xb8
DEBUG   2025-08-29 15:37:39,723  pymodbus.logging:base.py:92 Processing: 0x1 0x3 0x4 0x3e 0xca 0x5e 0x53 0xaf 0xb8
DEBUG   2025-08-29 15:37:39,723  pymodbus.logging:decoders.py:103 decode PDU for 3
DEBUG   2025-08-29 15:37:39,723  pymodbus.logging:base.py:102 Frame advanced, resetting header!!
DEBUG   2025-08-29 15:37:39,723  pymodbus.logging:transaction.py:67 Adding transaction 0
DEBUG   2025-08-29 15:37:39,723  pymodbus.logging:transaction.py:78 Getting transaction 0
DEBUG   2025-08-29 15:37:39,723  pymodbus.logging:transaction.py:258 Changing transaction state from "PROCESSING REPLY" to "TRANSACTION_COMPLETE"
INFO    2025-08-29 15:37:39,723  root:modbus_rtu_tcp.py:44 read_measurement ret is:ReadHoldingRegistersResponse (2)
INFO    2025-08-29 15:37:39,723  root:acudc260_modbus_get.py:145 read i1_current ret is:[16074, 24147]
DEBUG   2025-08-29 15:37:39,723  pymodbus.logging:transaction.py:184 Current transaction state - TRANSACTION_COMPLETE
DEBUG   2025-08-29 15:37:39,723  pymodbus.logging:transaction.py:193 Running transaction 0
DEBUG   2025-08-29 15:37:39,723  pymodbus.logging:transaction.py:293 SEND: 0x1 0x3 0x30 0x4 0x0 0x2 0x8a 0xca
DEBUG   2025-08-29 15:37:39,723  pymodbus.logging:serial.py:271 Changing state to IDLE - Last Frame End - 1756453059.723824 Current Time stamp - 1756453059.723824
DEBUG   2025-08-29 15:37:39,723  pymodbus.logging:serial.py:279 Waiting for 3.5 char before next send - 1.823 ms
DEBUG   2025-08-29 15:37:39,727  pymodbus.logging:base.py:250 New Transaction state "SENDING"
DEBUG   2025-08-29 15:37:39,727  pymodbus.logging:transaction.py:317 Changing transaction state from "SENDING" to "WAITING FOR REPLY"
DEBUG   2025-08-29 15:37:39,755  pymodbus.logging:transaction.py:419 Changing transaction state from "WAITING FOR REPLY" to "PROCESSING REPLY"
DEBUG   2025-08-29 15:37:39,755  pymodbus.logging:transaction.py:324 RECV: 0x1 0x3 0x4 0x3e 0xcb 0x1a 0x9d 0x4c 0xec
DEBUG   2025-08-29 15:37:39,755  pymodbus.logging:base.py:92 Processing: 0x1 0x3 0x4 0x3e 0xcb 0x1a 0x9d 0x4c 0xec
DEBUG   2025-08-29 15:37:39,755  pymodbus.logging:decoders.py:103 decode PDU for 3
DEBUG   2025-08-29 15:37:39,755  pymodbus.logging:base.py:102 Frame advanced, resetting header!!
DEBUG   2025-08-29 15:37:39,755  pymodbus.logging:transaction.py:67 Adding transaction 0
DEBUG   2025-08-29 15:37:39,755  pymodbus.logging:transaction.py:78 Getting transaction 0
DEBUG   2025-08-29 15:37:39,755  pymodbus.logging:transaction.py:258 Changing transaction state from "PROCESSING REPLY" to "TRANSACTION_COMPLETE"
INFO    2025-08-29 15:37:39,755  root:modbus_rtu_tcp.py:44 read_measurement ret is:ReadHoldingRegistersResponse (2)
INFO    2025-08-29 15:37:39,755  root:acudc260_modbus_get.py:159 read i2_current ret is:[16075, 6813]
DEBUG   2025-08-29 15:37:39,755  pymodbus.logging:transaction.py:184 Current transaction state - TRANSACTION_COMPLETE
DEBUG   2025-08-29 15:37:39,755  pymodbus.logging:transaction.py:193 Running transaction 0
DEBUG   2025-08-29 15:37:39,755  pymodbus.logging:transaction.py:293 SEND: 0x1 0x3 0x30 0x6 0x0 0x2 0x2b 0xa
DEBUG   2025-08-29 15:37:39,755  pymodbus.logging:serial.py:271 Changing state to IDLE - Last Frame End - 1756453059.755156 Current Time stamp - 1756453059.755156
DEBUG   2025-08-29 15:37:39,755  pymodbus.logging:serial.py:279 Waiting for 3.5 char before next send - 1.823 ms
DEBUG   2025-08-29 15:37:39,758  pymodbus.logging:base.py:250 New Transaction state "SENDING"
DEBUG   2025-08-29 15:37:39,758  pymodbus.logging:transaction.py:317 Changing transaction state from "SENDING" to "WAITING FOR REPLY"
DEBUG   2025-08-29 15:37:39,787  pymodbus.logging:transaction.py:419 Changing transaction state from "WAITING FOR REPLY" to "PROCESSING REPLY"
DEBUG   2025-08-29 15:37:39,787  pymodbus.logging:transaction.py:324 RECV: 0x1 0x3 0x4 0x3f 0x4e 0x28 0x2c 0x89 0xed
DEBUG   2025-08-29 15:37:39,787  pymodbus.logging:base.py:92 Processing: 0x1 0x3 0x4 0x3f 0x4e 0x28 0x2c 0x89 0xed
DEBUG   2025-08-29 15:37:39,787  pymodbus.logging:decoders.py:103 decode PDU for 3
DEBUG   2025-08-29 15:37:39,787  pymodbus.logging:base.py:102 Frame advanced, resetting header!!
DEBUG   2025-08-29 15:37:39,787  pymodbus.logging:transaction.py:67 Adding transaction 0
DEBUG   2025-08-29 15:37:39,787  pymodbus.logging:transaction.py:78 Getting transaction 0
DEBUG   2025-08-29 15:37:39,787  pymodbus.logging:transaction.py:258 Changing transaction state from "PROCESSING REPLY" to "TRANSACTION_COMPLETE"
INFO    2025-08-29 15:37:39,787  root:modbus_rtu_tcp.py:44 read_measurement ret is:ReadHoldingRegistersResponse (2)
INFO    2025-08-29 15:37:39,787  root:acudc260_modbus_get.py:173 read i_sum_current ret is:[16206, 10284]
DEBUG   2025-08-29 15:37:39,787  pymodbus.logging:transaction.py:184 Current transaction state - TRANSACTION_COMPLETE
DEBUG   2025-08-29 15:37:39,787  pymodbus.logging:transaction.py:193 Running transaction 0
DEBUG   2025-08-29 15:37:39,787  pymodbus.logging:transaction.py:293 SEND: 0x1 0x3 0x30 0x8 0x0 0x2 0x4a 0xc9
DEBUG   2025-08-29 15:37:39,787  pymodbus.logging:serial.py:271 Changing state to IDLE - Last Frame End - 1756453059.787336 Current Time stamp - 1756453059.787336
DEBUG   2025-08-29 15:37:39,787  pymodbus.logging:serial.py:279 Waiting for 3.5 char before next send - 1.823 ms
DEBUG   2025-08-29 15:37:39,791  pymodbus.logging:base.py:250 New Transaction state "SENDING"
DEBUG   2025-08-29 15:37:39,791  pymodbus.logging:transaction.py:317 Changing transaction state from "SENDING" to "WAITING FOR REPLY"
DEBUG   2025-08-29 15:37:39,820  pymodbus.logging:transaction.py:419 Changing transaction state from "WAITING FOR REPLY" to "PROCESSING REPLY"
DEBUG   2025-08-29 15:37:39,820  pymodbus.logging:transaction.py:324 RECV: 0x1 0x3 0x4 0x0 0x0 0x0 0x0 0xfa 0x33
DEBUG   2025-08-29 15:37:39,820  pymodbus.logging:base.py:92 Processing: 0x1 0x3 0x4 0x0 0x0 0x0 0x0 0xfa 0x33
DEBUG   2025-08-29 15:37:39,820  pymodbus.logging:decoders.py:103 decode PDU for 3
DEBUG   2025-08-29 15:37:39,820  pymodbus.logging:base.py:102 Frame advanced, resetting header!!
DEBUG   2025-08-29 15:37:39,820  pymodbus.logging:transaction.py:67 Adding transaction 0
DEBUG   2025-08-29 15:37:39,820  pymodbus.logging:transaction.py:78 Getting transaction 0
DEBUG   2025-08-29 15:37:39,820  pymodbus.logging:transaction.py:258 Changing transaction state from "PROCESSING REPLY" to "TRANSACTION_COMPLETE"
INFO    2025-08-29 15:37:39,820  root:modbus_rtu_tcp.py:44 read_measurement ret is:ReadHoldingRegistersResponse (2)
INFO    2025-08-29 15:37:39,820  root:acudc260_modbus_get.py:187 read p1_power ret is:[0, 0]
DEBUG   2025-08-29 15:37:39,820  pymodbus.logging:transaction.py:184 Current transaction state - TRANSACTION_COMPLETE
DEBUG   2025-08-29 15:37:39,820  pymodbus.logging:transaction.py:193 Running transaction 0
DEBUG   2025-08-29 15:37:39,820  pymodbus.logging:transaction.py:293 SEND: 0x1 0x3 0x30 0xa 0x0 0x2 0xeb 0x9
DEBUG   2025-08-29 15:37:39,820  pymodbus.logging:serial.py:271 Changing state to IDLE - Last Frame End - 1756453059.820635 Current Time stamp - 1756453059.820635
DEBUG   2025-08-29 15:37:39,820  pymodbus.logging:serial.py:279 Waiting for 3.5 char before next send - 1.823 ms
DEBUG   2025-08-29 15:37:39,824  pymodbus.logging:base.py:250 New Transaction state "SENDING"
DEBUG   2025-08-29 15:37:39,824  pymodbus.logging:transaction.py:317 Changing transaction state from "SENDING" to "WAITING FOR REPLY"
DEBUG   2025-08-29 15:37:39,852  pymodbus.logging:transaction.py:419 Changing transaction state from "WAITING FOR REPLY" to "PROCESSING REPLY"
DEBUG   2025-08-29 15:37:39,852  pymodbus.logging:transaction.py:324 RECV: 0x1 0x3 0x4 0x0 0x0 0x0 0x0 0xfa 0x33
DEBUG   2025-08-29 15:37:39,852  pymodbus.logging:base.py:92 Processing: 0x1 0x3 0x4 0x0 0x0 0x0 0x0 0xfa 0x33
DEBUG   2025-08-29 15:37:39,852  pymodbus.logging:decoders.py:103 decode PDU for 3
DEBUG   2025-08-29 15:37:39,852  pymodbus.logging:base.py:102 Frame advanced, resetting header!!
DEBUG   2025-08-29 15:37:39,852  pymodbus.logging:transaction.py:67 Adding transaction 0
DEBUG   2025-08-29 15:37:39,852  pymodbus.logging:transaction.py:78 Getting transaction 0
DEBUG   2025-08-29 15:37:39,852  pymodbus.logging:transaction.py:258 Changing transaction state from "PROCESSING REPLY" to "TRANSACTION_COMPLETE"
INFO    2025-08-29 15:37:39,852  root:modbus_rtu_tcp.py:44 read_measurement ret is:ReadHoldingRegistersResponse (2)
INFO    2025-08-29 15:37:39,852  root:acudc260_modbus_get.py:201 read p2_power ret is:[0, 0]
DEBUG   2025-08-29 15:37:39,852  pymodbus.logging:transaction.py:184 Current transaction state - TRANSACTION_COMPLETE
DEBUG   2025-08-29 15:37:39,852  pymodbus.logging:transaction.py:193 Running transaction 0
DEBUG   2025-08-29 15:37:39,852  pymodbus.logging:transaction.py:293 SEND: 0x1 0x3 0x30 0xc 0x0 0x2 0xb 0x8
DEBUG   2025-08-29 15:37:39,852  pymodbus.logging:serial.py:271 Changing state to IDLE - Last Frame End - 1756453059.852374 Current Time stamp - 1756453059.852374
DEBUG   2025-08-29 15:37:39,852  pymodbus.logging:serial.py:279 Waiting for 3.5 char before next send - 1.823 ms
DEBUG   2025-08-29 15:37:39,856  pymodbus.logging:base.py:250 New Transaction state "SENDING"
DEBUG   2025-08-29 15:37:39,856  pymodbus.logging:transaction.py:317 Changing transaction state from "SENDING" to "WAITING FOR REPLY"
DEBUG   2025-08-29 15:37:39,884  pymodbus.logging:transaction.py:419 Changing transaction state from "WAITING FOR REPLY" to "PROCESSING REPLY"
DEBUG   2025-08-29 15:37:39,884  pymodbus.logging:transaction.py:324 RECV: 0x1 0x3 0x4 0x0 0x0 0x0 0x0 0xfa 0x33
DEBUG   2025-08-29 15:37:39,884  pymodbus.logging:base.py:92 Processing: 0x1 0x3 0x4 0x0 0x0 0x0 0x0 0xfa 0x33
DEBUG   2025-08-29 15:37:39,884  pymodbus.logging:decoders.py:103 decode PDU for 3
DEBUG   2025-08-29 15:37:39,884  pymodbus.logging:base.py:102 Frame advanced, resetting header!!
DEBUG   2025-08-29 15:37:39,884  pymodbus.logging:transaction.py:67 Adding transaction 0
DEBUG   2025-08-29 15:37:39,884  pymodbus.logging:transaction.py:78 Getting transaction 0
DEBUG   2025-08-29 15:37:39,884  pymodbus.logging:transaction.py:258 Changing transaction state from "PROCESSING REPLY" to "TRANSACTION_COMPLETE"
INFO    2025-08-29 15:37:39,884  root:modbus_rtu_tcp.py:44 read_measurement ret is:ReadHoldingRegistersResponse (2)
INFO    2025-08-29 15:37:39,884  root:acudc260_modbus_get.py:215 read p_sum_power ret is:[0, 0]
DEBUG   2025-08-29 15:37:39,986  pymodbus.logging:transaction.py:184 Current transaction state - TRANSACTION_COMPLETE
DEBUG   2025-08-29 15:37:39,986  pymodbus.logging:transaction.py:193 Running transaction 0
DEBUG   2025-08-29 15:37:39,986  pymodbus.logging:transaction.py:293 SEND: 0x1 0x3 0x30 0x0 0x0 0x2 0xcb 0xb
DEBUG   2025-08-29 15:37:39,986  pymodbus.logging:serial.py:271 Changing state to IDLE - Last Frame End - 1756453059.884647 Current Time stamp - 1756453059.986209
DEBUG   2025-08-29 15:37:39,986  pymodbus.logging:base.py:250 New Transaction state "SENDING"
DEBUG   2025-08-29 15:37:39,987  pymodbus.logging:transaction.py:317 Changing transaction state from "SENDING" to "WAITING FOR REPLY"
DEBUG   2025-08-29 15:37:40,011  pymodbus.logging:transaction.py:419 Changing transaction state from "WAITING FOR REPLY" to "PROCESSING REPLY"
DEBUG   2025-08-29 15:37:40,011  pymodbus.logging:transaction.py:324 RECV: 0x1 0x3 0x4 0x0 0x0 0x0 0x0 0xfa 0x33
DEBUG   2025-08-29 15:37:40,011  pymodbus.logging:base.py:92 Processing: 0x1 0x3 0x4 0x0 0x0 0x0 0x0 0xfa 0x33
DEBUG   2025-08-29 15:37:40,011  pymodbus.logging:decoders.py:103 decode PDU for 3
DEBUG   2025-08-29 15:37:40,011  pymodbus.logging:base.py:102 Frame advanced, resetting header!!
DEBUG   2025-08-29 15:37:40,011  pymodbus.logging:transaction.py:67 Adding transaction 0
DEBUG   2025-08-29 15:37:40,011  pymodbus.logging:transaction.py:78 Getting transaction 0
DEBUG   2025-08-29 15:37:40,011  pymodbus.logging:transaction.py:258 Changing transaction state from "PROCESSING REPLY" to "TRANSACTION_COMPLETE"
INFO    2025-08-29 15:37:40,011  root:modbus_rtu_tcp.py:44 read_measurement ret is:ReadHoldingRegistersResponse (2)
INFO    2025-08-29 15:37:40,011  root:acudc260_modbus_get.py:131 read u_voltage ret is:[0, 0]
DEBUG   2025-08-29 15:37:40,011  pymodbus.logging:transaction.py:184 Current transaction state - TRANSACTION_COMPLETE
DEBUG   2025-08-29 15:37:40,011  pymodbus.logging:transaction.py:193 Running transaction 0
DEBUG   2025-08-29 15:37:40,011  pymodbus.logging:transaction.py:293 SEND: 0x1 0x3 0x30 0x2 0x0 0x2 0x6a 0xcb
DEBUG   2025-08-29 15:37:40,011  pymodbus.logging:serial.py:271 Changing state to IDLE - Last Frame End - 1756453060.011883 Current Time stamp - 1756453060.011883
DEBUG   2025-08-29 15:37:40,011  pymodbus.logging:serial.py:279 Waiting for 3.5 char before next send - 1.823 ms
DEBUG   2025-08-29 15:37:40,015  pymodbus.logging:base.py:250 New Transaction state "SENDING"
DEBUG   2025-08-29 15:37:40,015  pymodbus.logging:transaction.py:317 Changing transaction state from "SENDING" to "WAITING FOR REPLY"
DEBUG   2025-08-29 15:37:40,035  pymodbus.logging:transaction.py:419 Changing transaction state from "WAITING FOR REPLY" to "PROCESSING REPLY"
DEBUG   2025-08-29 15:37:40,035  pymodbus.logging:transaction.py:324 RECV: 0x1 0x3 0x4 0x3e 0xd1 0x56 0x76 0x19 0xa4
DEBUG   2025-08-29 15:37:40,035  pymodbus.logging:base.py:92 Processing: 0x1 0x3 0x4 0x3e 0xd1 0x56 0x76 0x19 0xa4
DEBUG   2025-08-29 15:37:40,035  pymodbus.logging:decoders.py:103 decode PDU for 3
DEBUG   2025-08-29 15:37:40,035  pymodbus.logging:base.py:102 Frame advanced, resetting header!!
DEBUG   2025-08-29 15:37:40,035  pymodbus.logging:transaction.py:67 Adding transaction 0
DEBUG   2025-08-29 15:37:40,035  pymodbus.logging:transaction.py:78 Getting transaction 0
DEBUG   2025-08-29 15:37:40,035  pymodbus.logging:transaction.py:258 Changing transaction state from "PROCESSING REPLY" to "TRANSACTION_COMPLETE"
INFO    2025-08-29 15:37:40,035  root:modbus_rtu_tcp.py:44 read_measurement ret is:ReadHoldingRegistersResponse (2)
INFO    2025-08-29 15:37:40,035  root:acudc260_modbus_get.py:145 read i1_current ret is:[16081, 22134]
DEBUG   2025-08-29 15:37:40,035  pymodbus.logging:transaction.py:184 Current transaction state - TRANSACTION_COMPLETE
DEBUG   2025-08-29 15:37:40,035  pymodbus.logging:transaction.py:193 Running transaction 0
DEBUG   2025-08-29 15:37:40,035  pymodbus.logging:transaction.py:293 SEND: 0x1 0x3 0x30 0x4 0x0 0x2 0x8a 0xca
DEBUG   2025-08-29 15:37:40,035  pymodbus.logging:serial.py:271 Changing state to IDLE - Last Frame End - 1756453060.035305 Current Time stamp - 1756453060.035305
DEBUG   2025-08-29 15:37:40,035  pymodbus.logging:serial.py:279 Waiting for 3.5 char before next send - 1.823 ms
DEBUG   2025-08-29 15:37:40,043  pymodbus.logging:base.py:250 New Transaction state "SENDING"
DEBUG   2025-08-29 15:37:40,043  pymodbus.logging:transaction.py:317 Changing transaction state from "SENDING" to "WAITING FOR REPLY"
DEBUG   2025-08-29 15:37:40,077  pymodbus.logging:transaction.py:419 Changing transaction state from "WAITING FOR REPLY" to "PROCESSING REPLY"
DEBUG   2025-08-29 15:37:40,077  pymodbus.logging:transaction.py:324 RECV: 0x1 0x3 0x4 0x3e 0xc7 0xf0 0xc3 0x42 0x77
DEBUG   2025-08-29 15:37:40,077  pymodbus.logging:base.py:92 Processing: 0x1 0x3 0x4 0x3e 0xc7 0xf0 0xc3 0x42 0x77
DEBUG   2025-08-29 15:37:40,077  pymodbus.logging:decoders.py:103 decode PDU for 3
DEBUG   2025-08-29 15:37:40,077  pymodbus.logging:base.py:102 Frame advanced, resetting header!!
DEBUG   2025-08-29 15:37:40,077  pymodbus.logging:transaction.py:67 Adding transaction 0
DEBUG   2025-08-29 15:37:40,077  pymodbus.logging:transaction.py:78 Getting transaction 0
DEBUG   2025-08-29 15:37:40,077  pymodbus.logging:transaction.py:258 Changing transaction state from "PROCESSING REPLY" to "TRANSACTION_COMPLETE"
INFO    2025-08-29 15:37:40,077  root:modbus_rtu_tcp.py:44 read_measurement ret is:ReadHoldingRegistersResponse (2)
INFO    2025-08-29 15:37:40,077  root:acudc260_modbus_get.py:159 read i2_current ret is:[16071, 61635]
DEBUG   2025-08-29 15:37:40,077  pymodbus.logging:transaction.py:184 Current transaction state - TRANSACTION_COMPLETE
DEBUG   2025-08-29 15:37:40,077  pymodbus.logging:transaction.py:193 Running transaction 0
DEBUG   2025-08-29 15:37:40,077  pymodbus.logging:transaction.py:293 SEND: 0x1 0x3 0x30 0x6 0x0 0x2 0x2b 0xa
DEBUG   2025-08-29 15:37:40,077  pymodbus.logging:serial.py:271 Changing state to IDLE - Last Frame End - 1756453060.077246 Current Time stamp - 1756453060.077246
DEBUG   2025-08-29 15:37:40,077  pymodbus.logging:serial.py:279 Waiting for 3.5 char before next send - 1.823 ms
DEBUG   2025-08-29 15:37:40,081  pymodbus.logging:base.py:250 New Transaction state "SENDING"
DEBUG   2025-08-29 15:37:40,081  pymodbus.logging:transaction.py:317 Changing transaction state from "SENDING" to "WAITING FOR REPLY"
DEBUG   2025-08-29 15:37:40,109  pymodbus.logging:transaction.py:419 Changing transaction state from "WAITING FOR REPLY" to "PROCESSING REPLY"
DEBUG   2025-08-29 15:37:40,109  pymodbus.logging:transaction.py:324 RECV: 0x1 0x3 0x4 0x3f 0x49 0xa1 0x4e 0xde 0x55
DEBUG   2025-08-29 15:37:40,109  pymodbus.logging:base.py:92 Processing: 0x1 0x3 0x4 0x3f 0x49 0xa1 0x4e 0xde 0x55
DEBUG   2025-08-29 15:37:40,109  pymodbus.logging:decoders.py:103 decode PDU for 3
DEBUG   2025-08-29 15:37:40,109  pymodbus.logging:base.py:102 Frame advanced, resetting header!!
DEBUG   2025-08-29 15:37:40,109  pymodbus.logging:transaction.py:67 Adding transaction 0
DEBUG   2025-08-29 15:37:40,109  pymodbus.logging:transaction.py:78 Getting transaction 0
DEBUG   2025-08-29 15:37:40,109  pymodbus.logging:transaction.py:258 Changing transaction state from "PROCESSING REPLY" to "TRANSACTION_COMPLETE"
INFO    2025-08-29 15:37:40,109  root:modbus_rtu_tcp.py:44 read_measurement ret is:ReadHoldingRegistersResponse (2)
INFO    2025-08-29 15:37:40,109  root:acudc260_modbus_get.py:173 read i_sum_current ret is:[16201, 41294]
DEBUG   2025-08-29 15:37:40,109  pymodbus.logging:transaction.py:184 Current transaction state - TRANSACTION_COMPLETE
DEBUG   2025-08-29 15:37:40,109  pymodbus.logging:transaction.py:193 Running transaction 0
DEBUG   2025-08-29 15:37:40,109  pymodbus.logging:transaction.py:293 SEND: 0x1 0x3 0x30 0x8 0x0 0x2 0x4a 0xc9
DEBUG   2025-08-29 15:37:40,109  pymodbus.logging:serial.py:271 Changing state to IDLE - Last Frame End - 1756453060.109344 Current Time stamp - 1756453060.109344
DEBUG   2025-08-29 15:37:40,109  pymodbus.logging:serial.py:279 Waiting for 3.5 char before next send - 1.823 ms
DEBUG   2025-08-29 15:37:40,112  pymodbus.logging:base.py:250 New Transaction state "SENDING"
DEBUG   2025-08-29 15:37:40,112  pymodbus.logging:transaction.py:317 Changing transaction state from "SENDING" to "WAITING FOR REPLY"
DEBUG   2025-08-29 15:37:40,140  pymodbus.logging:transaction.py:419 Changing transaction state from "WAITING FOR REPLY" to "PROCESSING REPLY"
DEBUG   2025-08-29 15:37:40,140  pymodbus.logging:transaction.py:324 RECV: 0x1 0x3 0x4 0x0 0x0 0x0 0x0 0xfa 0x33
DEBUG   2025-08-29 15:37:40,140  pymodbus.logging:base.py:92 Processing: 0x1 0x3 0x4 0x0 0x0 0x0 0x0 0xfa 0x33
DEBUG   2025-08-29 15:37:40,140  pymodbus.logging:decoders.py:103 decode PDU for 3
DEBUG   2025-08-29 15:37:40,140  pymodbus.logging:base.py:102 Frame advanced, resetting header!!
DEBUG   2025-08-29 15:37:40,140  pymodbus.logging:transaction.py:67 Adding transaction 0
DEBUG   2025-08-29 15:37:40,140  pymodbus.logging:transaction.py:78 Getting transaction 0
DEBUG   2025-08-29 15:37:40,140  pymodbus.logging:transaction.py:258 Changing transaction state from "PROCESSING REPLY" to "TRANSACTION_COMPLETE"
INFO    2025-08-29 15:37:40,140  root:modbus_rtu_tcp.py:44 read_measurement ret is:ReadHoldingRegistersResponse (2)
INFO    2025-08-29 15:37:40,140  root:acudc260_modbus_get.py:187 read p1_power ret is:[0, 0]
DEBUG   2025-08-29 15:37:40,140  pymodbus.logging:transaction.py:184 Current transaction state - TRANSACTION_COMPLETE
DEBUG   2025-08-29 15:37:40,140  pymodbus.logging:transaction.py:193 Running transaction 0
DEBUG   2025-08-29 15:37:40,140  pymodbus.logging:transaction.py:293 SEND: 0x1 0x3 0x30 0xa 0x0 0x2 0xeb 0x9
DEBUG   2025-08-29 15:37:40,140  pymodbus.logging:serial.py:271 Changing state to IDLE - Last Frame End - 1756453060.140766 Current Time stamp - 1756453060.140766
DEBUG   2025-08-29 15:37:40,140  pymodbus.logging:serial.py:279 Waiting for 3.5 char before next send - 1.823 ms
DEBUG   2025-08-29 15:37:40,143  pymodbus.logging:base.py:250 New Transaction state "SENDING"
DEBUG   2025-08-29 15:37:40,143  pymodbus.logging:transaction.py:317 Changing transaction state from "SENDING" to "WAITING FOR REPLY"
DEBUG   2025-08-29 15:37:40,171  pymodbus.logging:transaction.py:419 Changing transaction state from "WAITING FOR REPLY" to "PROCESSING REPLY"
DEBUG   2025-08-29 15:37:40,171  pymodbus.logging:transaction.py:324 RECV: 0x1 0x3 0x4 0x0 0x0 0x0 0x0 0xfa 0x33
DEBUG   2025-08-29 15:37:40,171  pymodbus.logging:base.py:92 Processing: 0x1 0x3 0x4 0x0 0x0 0x0 0x0 0xfa 0x33
DEBUG   2025-08-29 15:37:40,171  pymodbus.logging:decoders.py:103 decode PDU for 3
DEBUG   2025-08-29 15:37:40,171  pymodbus.logging:base.py:102 Frame advanced, resetting header!!
DEBUG   2025-08-29 15:37:40,171  pymodbus.logging:transaction.py:67 Adding transaction 0
DEBUG   2025-08-29 15:37:40,171  pymodbus.logging:transaction.py:78 Getting transaction 0
DEBUG   2025-08-29 15:37:40,171  pymodbus.logging:transaction.py:258 Changing transaction state from "PROCESSING REPLY" to "TRANSACTION_COMPLETE"
INFO    2025-08-29 15:37:40,171  root:modbus_rtu_tcp.py:44 read_measurement ret is:ReadHoldingRegistersResponse (2)
INFO    2025-08-29 15:37:40,171  root:acudc260_modbus_get.py:201 read p2_power ret is:[0, 0]
DEBUG   2025-08-29 15:37:40,171  pymodbus.logging:transaction.py:184 Current transaction state - TRANSACTION_COMPLETE
DEBUG   2025-08-29 15:37:40,171  pymodbus.logging:transaction.py:193 Running transaction 0
DEBUG   2025-08-29 15:37:40,171  pymodbus.logging:transaction.py:293 SEND: 0x1 0x3 0x30 0xc 0x0 0x2 0xb 0x8
DEBUG   2025-08-29 15:37:40,171  pymodbus.logging:serial.py:271 Changing state to IDLE - Last Frame End - 1756453060.171115 Current Time stamp - 1756453060.171115
DEBUG   2025-08-29 15:37:40,171  pymodbus.logging:serial.py:279 Waiting for 3.5 char before next send - 1.823 ms
DEBUG   2025-08-29 15:37:40,174  pymodbus.logging:base.py:250 New Transaction state "SENDING"
DEBUG   2025-08-29 15:37:40,174  pymodbus.logging:transaction.py:317 Changing transaction state from "SENDING" to "WAITING FOR REPLY"
DEBUG   2025-08-29 15:37:40,195  pymodbus.logging:transaction.py:419 Changing transaction state from "WAITING FOR REPLY" to "PROCESSING REPLY"
DEBUG   2025-08-29 15:37:40,195  pymodbus.logging:transaction.py:324 RECV: 0x1 0x3 0x4 0x0 0x0 0x0 0x0 0xfa 0x33
DEBUG   2025-08-29 15:37:40,195  pymodbus.logging:base.py:92 Processing: 0x1 0x3 0x4 0x0 0x0 0x0 0x0 0xfa 0x33
DEBUG   2025-08-29 15:37:40,195  pymodbus.logging:decoders.py:103 decode PDU for 3
DEBUG   2025-08-29 15:37:40,195  pymodbus.logging:base.py:102 Frame advanced, resetting header!!
DEBUG   2025-08-29 15:37:40,195  pymodbus.logging:transaction.py:67 Adding transaction 0
DEBUG   2025-08-29 15:37:40,195  pymodbus.logging:transaction.py:78 Getting transaction 0
DEBUG   2025-08-29 15:37:40,195  pymodbus.logging:transaction.py:258 Changing transaction state from "PROCESSING REPLY" to "TRANSACTION_COMPLETE"
INFO    2025-08-29 15:37:40,195  root:modbus_rtu_tcp.py:44 read_measurement ret is:ReadHoldingRegistersResponse (2)
INFO    2025-08-29 15:37:40,195  root:acudc260_modbus_get.py:215 read p_sum_power ret is:[0, 0]
DEBUG   2025-08-29 15:37:40,301  pymodbus.logging:transaction.py:184 Current transaction state - TRANSACTION_COMPLETE
DEBUG   2025-08-29 15:37:40,301  pymodbus.logging:transaction.py:193 Running transaction 0
DEBUG   2025-08-29 15:37:40,301  pymodbus.logging:transaction.py:293 SEND: 0x1 0x3 0x30 0x0 0x0 0x2 0xcb 0xb
DEBUG   2025-08-29 15:37:40,301  pymodbus.logging:serial.py:271 Changing state to IDLE - Last Frame End - 1756453060.195198 Current Time stamp - 1756453060.301631
DEBUG   2025-08-29 15:37:40,301  pymodbus.logging:base.py:250 New Transaction state "SENDING"
DEBUG   2025-08-29 15:37:40,301  pymodbus.logging:transaction.py:317 Changing transaction state from "SENDING" to "WAITING FOR REPLY"
DEBUG   2025-08-29 15:37:40,327  pymodbus.logging:transaction.py:419 Changing transaction state from "WAITING FOR REPLY" to "PROCESSING REPLY"
DEBUG   2025-08-29 15:37:40,327  pymodbus.logging:transaction.py:324 RECV: 0x1 0x3 0x4 0x0 0x0 0x0 0x0 0xfa 0x33
DEBUG   2025-08-29 15:37:40,327  pymodbus.logging:base.py:92 Processing: 0x1 0x3 0x4 0x0 0x0 0x0 0x0 0xfa 0x33
DEBUG   2025-08-29 15:37:40,327  pymodbus.logging:decoders.py:103 decode PDU for 3
DEBUG   2025-08-29 15:37:40,327  pymodbus.logging:base.py:102 Frame advanced, resetting header!!
DEBUG   2025-08-29 15:37:40,327  pymodbus.logging:transaction.py:67 Adding transaction 0
DEBUG   2025-08-29 15:37:40,327  pymodbus.logging:transaction.py:78 Getting transaction 0
DEBUG   2025-08-29 15:37:40,327  pymodbus.logging:transaction.py:258 Changing transaction state from "PROCESSING REPLY" to "TRANSACTION_COMPLETE"
INFO    2025-08-29 15:37:40,327  root:modbus_rtu_tcp.py:44 read_measurement ret is:ReadHoldingRegistersResponse (2)
INFO    2025-08-29 15:37:40,327  root:acudc260_modbus_get.py:131 read u_voltage ret is:[0, 0]
DEBUG   2025-08-29 15:37:40,327  pymodbus.logging:transaction.py:184 Current transaction state - TRANSACTION_COMPLETE
DEBUG   2025-08-29 15:37:40,327  pymodbus.logging:transaction.py:193 Running transaction 0
DEBUG   2025-08-29 15:37:40,327  pymodbus.logging:transaction.py:293 SEND: 0x1 0x3 0x30 0x2 0x0 0x2 0x6a 0xcb
DEBUG   2025-08-29 15:37:40,327  pymodbus.logging:serial.py:271 Changing state to IDLE - Last Frame End - 1756453060.327916 Current Time stamp - 1756453060.327916
DEBUG   2025-08-29 15:37:40,327  pymodbus.logging:serial.py:279 Waiting for 3.5 char before next send - 1.823 ms
DEBUG   2025-08-29 15:37:40,332  pymodbus.logging:base.py:250 New Transaction state "SENDING"
DEBUG   2025-08-29 15:37:40,332  pymodbus.logging:transaction.py:317 Changing transaction state from "SENDING" to "WAITING FOR REPLY"
DEBUG   2025-08-29 15:37:40,363  pymodbus.logging:transaction.py:419 Changing transaction state from "WAITING FOR REPLY" to "PROCESSING REPLY"
DEBUG   2025-08-29 15:37:40,363  pymodbus.logging:transaction.py:324 RECV: 0x1 0x3 0x4 0x3e 0xce 0xc9 0x8d 0x0 0x11
DEBUG   2025-08-29 15:37:40,363  pymodbus.logging:base.py:92 Processing: 0x1 0x3 0x4 0x3e 0xce 0xc9 0x8d 0x0 0x11
DEBUG   2025-08-29 15:37:40,363  pymodbus.logging:decoders.py:103 decode PDU for 3
DEBUG   2025-08-29 15:37:40,363  pymodbus.logging:base.py:102 Frame advanced, resetting header!!
DEBUG   2025-08-29 15:37:40,363  pymodbus.logging:transaction.py:67 Adding transaction 0
DEBUG   2025-08-29 15:37:40,363  pymodbus.logging:transaction.py:78 Getting transaction 0
DEBUG   2025-08-29 15:37:40,363  pymodbus.logging:transaction.py:258 Changing transaction state from "PROCESSING REPLY" to "TRANSACTION_COMPLETE"
INFO    2025-08-29 15:37:40,363  root:modbus_rtu_tcp.py:44 read_measurement ret is:ReadHoldingRegistersResponse (2)
INFO    2025-08-29 15:37:40,363  root:acudc260_modbus_get.py:145 read i1_current ret is:[16078, 51597]
DEBUG   2025-08-29 15:37:40,363  pymodbus.logging:transaction.py:184 Current transaction state - TRANSACTION_COMPLETE
DEBUG   2025-08-29 15:37:40,363  pymodbus.logging:transaction.py:193 Running transaction 0
DEBUG   2025-08-29 15:37:40,363  pymodbus.logging:transaction.py:293 SEND: 0x1 0x3 0x30 0x4 0x0 0x2 0x8a 0xca
DEBUG   2025-08-29 15:37:40,363  pymodbus.logging:serial.py:271 Changing state to IDLE - Last Frame End - 1756453060.363269 Current Time stamp - 1756453060.363269
DEBUG   2025-08-29 15:37:40,363  pymodbus.logging:serial.py:279 Waiting for 3.5 char before next send - 1.823 ms
DEBUG   2025-08-29 15:37:40,366  pymodbus.logging:base.py:250 New Transaction state "SENDING"
DEBUG   2025-08-29 15:37:40,366  pymodbus.logging:transaction.py:317 Changing transaction state from "SENDING" to "WAITING FOR REPLY"
DEBUG   2025-08-29 15:37:40,397  pymodbus.logging:transaction.py:419 Changing transaction state from "WAITING FOR REPLY" to "PROCESSING REPLY"
DEBUG   2025-08-29 15:37:40,397  pymodbus.logging:transaction.py:324 RECV: 0x1 0x3 0x4 0x3e 0xc9 0x59 0x83 0x5c 0x14
DEBUG   2025-08-29 15:37:40,397  pymodbus.logging:base.py:92 Processing: 0x1 0x3 0x4 0x3e 0xc9 0x59 0x83 0x5c 0x14
DEBUG   2025-08-29 15:37:40,397  pymodbus.logging:decoders.py:103 decode PDU for 3
DEBUG   2025-08-29 15:37:40,397  pymodbus.logging:base.py:102 Frame advanced, resetting header!!
DEBUG   2025-08-29 15:37:40,397  pymodbus.logging:transaction.py:67 Adding transaction 0
DEBUG   2025-08-29 15:37:40,397  pymodbus.logging:transaction.py:78 Getting transaction 0
DEBUG   2025-08-29 15:37:40,397  pymodbus.logging:transaction.py:258 Changing transaction state from "PROCESSING REPLY" to "TRANSACTION_COMPLETE"
INFO    2025-08-29 15:37:40,397  root:modbus_rtu_tcp.py:44 read_measurement ret is:ReadHoldingRegistersResponse (2)
INFO    2025-08-29 15:37:40,397  root:acudc260_modbus_get.py:159 read i2_current ret is:[16073, 22915]
DEBUG   2025-08-29 15:37:40,397  pymodbus.logging:transaction.py:184 Current transaction state - TRANSACTION_COMPLETE
DEBUG   2025-08-29 15:37:40,397  pymodbus.logging:transaction.py:193 Running transaction 0
DEBUG   2025-08-29 15:37:40,397  pymodbus.logging:transaction.py:293 SEND: 0x1 0x3 0x30 0x6 0x0 0x2 0x2b 0xa
DEBUG   2025-08-29 15:37:40,397  pymodbus.logging:serial.py:271 Changing state to IDLE - Last Frame End - 1756453060.397653 Current Time stamp - 1756453060.397653
DEBUG   2025-08-29 15:37:40,397  pymodbus.logging:serial.py:279 Waiting for 3.5 char before next send - 1.823 ms
DEBUG   2025-08-29 15:37:40,401  pymodbus.logging:base.py:250 New Transaction state "SENDING"
DEBUG   2025-08-29 15:37:40,401  pymodbus.logging:transaction.py:317 Changing transaction state from "SENDING" to "WAITING FOR REPLY"
DEBUG   2025-08-29 15:37:40,427  pymodbus.logging:transaction.py:419 Changing transaction state from "WAITING FOR REPLY" to "PROCESSING REPLY"
DEBUG   2025-08-29 15:37:40,427  pymodbus.logging:transaction.py:324 RECV: 0x1 0x3 0x4 0x3f 0x4c 0x11 0x88 0x3b 0xc6
DEBUG   2025-08-29 15:37:40,427  pymodbus.logging:base.py:92 Processing: 0x1 0x3 0x4 0x3f 0x4c 0x11 0x88 0x3b 0xc6
DEBUG   2025-08-29 15:37:40,427  pymodbus.logging:decoders.py:103 decode PDU for 3
DEBUG   2025-08-29 15:37:40,427  pymodbus.logging:base.py:102 Frame advanced, resetting header!!
DEBUG   2025-08-29 15:37:40,427  pymodbus.logging:transaction.py:67 Adding transaction 0
DEBUG   2025-08-29 15:37:40,427  pymodbus.logging:transaction.py:78 Getting transaction 0
DEBUG   2025-08-29 15:37:40,427  pymodbus.logging:transaction.py:258 Changing transaction state from "PROCESSING REPLY" to "TRANSACTION_COMPLETE"
INFO    2025-08-29 15:37:40,427  root:modbus_rtu_tcp.py:44 read_measurement ret is:ReadHoldingRegistersResponse (2)
INFO    2025-08-29 15:37:40,427  root:acudc260_modbus_get.py:173 read i_sum_current ret is:[16204, 4488]
DEBUG   2025-08-29 15:37:40,427  pymodbus.logging:transaction.py:184 Current transaction state - TRANSACTION_COMPLETE
DEBUG   2025-08-29 15:37:40,427  pymodbus.logging:transaction.py:193 Running transaction 0
DEBUG   2025-08-29 15:37:40,427  pymodbus.logging:transaction.py:293 SEND: 0x1 0x3 0x30 0x8 0x0 0x2 0x4a 0xc9
DEBUG   2025-08-29 15:37:40,427  pymodbus.logging:serial.py:271 Changing state to IDLE - Last Frame End - 1756453060.427412 Current Time stamp - 1756453060.427412
DEBUG   2025-08-29 15:37:40,427  pymodbus.logging:serial.py:279 Waiting for 3.5 char before next send - 1.823 ms
DEBUG   2025-08-29 15:37:40,431  pymodbus.logging:base.py:250 New Transaction state "SENDING"
DEBUG   2025-08-29 15:37:40,431  pymodbus.logging:transaction.py:317 Changing transaction state from "SENDING" to "WAITING FOR REPLY"
DEBUG   2025-08-29 15:37:40,459  pymodbus.logging:transaction.py:419 Changing transaction state from "WAITING FOR REPLY" to "PROCESSING REPLY"
DEBUG   2025-08-29 15:37:40,459  pymodbus.logging:transaction.py:324 RECV: 0x1 0x3 0x4 0x0 0x0 0x0 0x0 0xfa 0x33
DEBUG   2025-08-29 15:37:40,459  pymodbus.logging:base.py:92 Processing: 0x1 0x3 0x4 0x0 0x0 0x0 0x0 0xfa 0x33
DEBUG   2025-08-29 15:37:40,459  pymodbus.logging:decoders.py:103 decode PDU for 3
DEBUG   2025-08-29 15:37:40,459  pymodbus.logging:base.py:102 Frame advanced, resetting header!!
DEBUG   2025-08-29 15:37:40,459  pymodbus.logging:transaction.py:67 Adding transaction 0
DEBUG   2025-08-29 15:37:40,459  pymodbus.logging:transaction.py:78 Getting transaction 0
DEBUG   2025-08-29 15:37:40,459  pymodbus.logging:transaction.py:258 Changing transaction state from "PROCESSING REPLY" to "TRANSACTION_COMPLETE"
INFO    2025-08-29 15:37:40,459  root:modbus_rtu_tcp.py:44 read_measurement ret is:ReadHoldingRegistersResponse (2)
INFO    2025-08-29 15:37:40,459  root:acudc260_modbus_get.py:187 read p1_power ret is:[0, 0]
DEBUG   2025-08-29 15:37:40,459  pymodbus.logging:transaction.py:184 Current transaction state - TRANSACTION_COMPLETE
DEBUG   2025-08-29 15:37:40,459  pymodbus.logging:transaction.py:193 Running transaction 0
DEBUG   2025-08-29 15:37:40,459  pymodbus.logging:transaction.py:293 SEND: 0x1 0x3 0x30 0xa 0x0 0x2 0xeb 0x9
DEBUG   2025-08-29 15:37:40,459  pymodbus.logging:serial.py:271 Changing state to IDLE - Last Frame End - 1756453060.459487 Current Time stamp - 1756453060.459487
DEBUG   2025-08-29 15:37:40,459  pymodbus.logging:serial.py:279 Waiting for 3.5 char before next send - 1.823 ms
DEBUG   2025-08-29 15:37:40,463  pymodbus.logging:base.py:250 New Transaction state "SENDING"
DEBUG   2025-08-29 15:37:40,463  pymodbus.logging:transaction.py:317 Changing transaction state from "SENDING" to "WAITING FOR REPLY"
DEBUG   2025-08-29 15:37:40,491  pymodbus.logging:transaction.py:419 Changing transaction state from "WAITING FOR REPLY" to "PROCESSING REPLY"
DEBUG   2025-08-29 15:37:40,491  pymodbus.logging:transaction.py:324 RECV: 0x1 0x3 0x4 0x0 0x0 0x0 0x0 0xfa 0x33
DEBUG   2025-08-29 15:37:40,491  pymodbus.logging:base.py:92 Processing: 0x1 0x3 0x4 0x0 0x0 0x0 0x0 0xfa 0x33
DEBUG   2025-08-29 15:37:40,491  pymodbus.logging:decoders.py:103 decode PDU for 3
DEBUG   2025-08-29 15:37:40,491  pymodbus.logging:base.py:102 Frame advanced, resetting header!!
DEBUG   2025-08-29 15:37:40,491  pymodbus.logging:transaction.py:67 Adding transaction 0
DEBUG   2025-08-29 15:37:40,491  pymodbus.logging:transaction.py:78 Getting transaction 0
DEBUG   2025-08-29 15:37:40,491  pymodbus.logging:transaction.py:258 Changing transaction state from "PROCESSING REPLY" to "TRANSACTION_COMPLETE"
INFO    2025-08-29 15:37:40,491  root:modbus_rtu_tcp.py:44 read_measurement ret is:ReadHoldingRegistersResponse (2)
INFO    2025-08-29 15:37:40,491  root:acudc260_modbus_get.py:201 read p2_power ret is:[0, 0]
DEBUG   2025-08-29 15:37:40,491  pymodbus.logging:transaction.py:184 Current transaction state - TRANSACTION_COMPLETE
DEBUG   2025-08-29 15:37:40,491  pymodbus.logging:transaction.py:193 Running transaction 0
DEBUG   2025-08-29 15:37:40,491  pymodbus.logging:transaction.py:293 SEND: 0x1 0x3 0x30 0xc 0x0 0x2 0xb 0x8
DEBUG   2025-08-29 15:37:40,491  pymodbus.logging:serial.py:271 Changing state to IDLE - Last Frame End - 1756453060.491318 Current Time stamp - 1756453060.491318
DEBUG   2025-08-29 15:37:40,491  pymodbus.logging:serial.py:279 Waiting for 3.5 char before next send - 1.823 ms
DEBUG   2025-08-29 15:37:40,494  pymodbus.logging:base.py:250 New Transaction state "SENDING"
DEBUG   2025-08-29 15:37:40,494  pymodbus.logging:transaction.py:317 Changing transaction state from "SENDING" to "WAITING FOR REPLY"
DEBUG   2025-08-29 15:37:40,523  pymodbus.logging:transaction.py:419 Changing transaction state from "WAITING FOR REPLY" to "PROCESSING REPLY"
DEBUG   2025-08-29 15:37:40,523  pymodbus.logging:transaction.py:324 RECV: 0x1 0x3 0x4 0x0 0x0 0x0 0x0 0xfa 0x33
DEBUG   2025-08-29 15:37:40,524  pymodbus.logging:base.py:92 Processing: 0x1 0x3 0x4 0x0 0x0 0x0 0x0 0xfa 0x33
DEBUG   2025-08-29 15:37:40,524  pymodbus.logging:decoders.py:103 decode PDU for 3
DEBUG   2025-08-29 15:37:40,524  pymodbus.logging:base.py:102 Frame advanced, resetting header!!
DEBUG   2025-08-29 15:37:40,524  pymodbus.logging:transaction.py:67 Adding transaction 0
DEBUG   2025-08-29 15:37:40,524  pymodbus.logging:transaction.py:78 Getting transaction 0
DEBUG   2025-08-29 15:37:40,524  pymodbus.logging:transaction.py:258 Changing transaction state from "PROCESSING REPLY" to "TRANSACTION_COMPLETE"
INFO    2025-08-29 15:37:40,524  root:modbus_rtu_tcp.py:44 read_measurement ret is:ReadHoldingRegistersResponse (2)
INFO    2025-08-29 15:37:40,524  root:acudc260_modbus_get.py:215 read p_sum_power ret is:[0, 0]
DEBUG   2025-08-29 15:37:40,625  pymodbus.logging:transaction.py:184 Current transaction state - TRANSACTION_COMPLETE
DEBUG   2025-08-29 15:37:40,625  pymodbus.logging:transaction.py:193 Running transaction 0
DEBUG   2025-08-29 15:37:40,625  pymodbus.logging:transaction.py:293 SEND: 0x1 0x3 0x30 0x0 0x0 0x2 0xcb 0xb
DEBUG   2025-08-29 15:37:40,625  pymodbus.logging:serial.py:271 Changing state to IDLE - Last Frame End - 1756453060.523912 Current Time stamp - 1756453060.62541
DEBUG   2025-08-29 15:37:40,625  pymodbus.logging:base.py:250 New Transaction state "SENDING"
DEBUG   2025-08-29 15:37:40,626  pymodbus.logging:transaction.py:317 Changing transaction state from "SENDING" to "WAITING FOR REPLY"
DEBUG   2025-08-29 15:37:40,653  pymodbus.logging:transaction.py:419 Changing transaction state from "WAITING FOR REPLY" to "PROCESSING REPLY"
DEBUG   2025-08-29 15:37:40,653  pymodbus.logging:transaction.py:324 RECV: 0x1 0x3 0x4 0x0 0x0 0x0 0x0 0xfa 0x33
DEBUG   2025-08-29 15:37:40,653  pymodbus.logging:base.py:92 Processing: 0x1 0x3 0x4 0x0 0x0 0x0 0x0 0xfa 0x33
DEBUG   2025-08-29 15:37:40,653  pymodbus.logging:decoders.py:103 decode PDU for 3
DEBUG   2025-08-29 15:37:40,653  pymodbus.logging:base.py:102 Frame advanced, resetting header!!
DEBUG   2025-08-29 15:37:40,653  pymodbus.logging:transaction.py:67 Adding transaction 0
DEBUG   2025-08-29 15:37:40,653  pymodbus.logging:transaction.py:78 Getting transaction 0
DEBUG   2025-08-29 15:37:40,653  pymodbus.logging:transaction.py:258 Changing transaction state from "PROCESSING REPLY" to "TRANSACTION_COMPLETE"
INFO    2025-08-29 15:37:40,653  root:modbus_rtu_tcp.py:44 read_measurement ret is:ReadHoldingRegistersResponse (2)
INFO    2025-08-29 15:37:40,654  root:acudc260_modbus_get.py:131 read u_voltage ret is:[0, 0]
DEBUG   2025-08-29 15:37:40,654  pymodbus.logging:transaction.py:184 Current transaction state - TRANSACTION_COMPLETE
DEBUG   2025-08-29 15:37:40,654  pymodbus.logging:transaction.py:193 Running transaction 0
DEBUG   2025-08-29 15:37:40,654  pymodbus.logging:transaction.py:293 SEND: 0x1 0x3 0x30 0x2 0x0 0x2 0x6a 0xcb
DEBUG   2025-08-29 15:37:40,654  pymodbus.logging:serial.py:271 Changing state to IDLE - Last Frame End - 1756453060.653026 Current Time stamp - 1756453060.654135
DEBUG   2025-08-29 15:37:40,654  pymodbus.logging:serial.py:279 Waiting for 3.5 char before next send - 1.823 ms
DEBUG   2025-08-29 15:37:40,656  pymodbus.logging:base.py:250 New Transaction state "SENDING"
DEBUG   2025-08-29 15:37:40,658  pymodbus.logging:transaction.py:317 Changing transaction state from "SENDING" to "WAITING FOR REPLY"
DEBUG   2025-08-29 15:37:40,679  pymodbus.logging:transaction.py:419 Changing transaction state from "WAITING FOR REPLY" to "PROCESSING REPLY"
DEBUG   2025-08-29 15:37:40,680  pymodbus.logging:transaction.py:324 RECV: 0x1 0x3 0x4 0x3e 0xcc 0xc2 0x53 0x26 0xb9
DEBUG   2025-08-29 15:37:40,680  pymodbus.logging:base.py:92 Processing: 0x1 0x3 0x4 0x3e 0xcc 0xc2 0x53 0x26 0xb9
DEBUG   2025-08-29 15:37:40,680  pymodbus.logging:decoders.py:103 decode PDU for 3
DEBUG   2025-08-29 15:37:40,680  pymodbus.logging:base.py:102 Frame advanced, resetting header!!
DEBUG   2025-08-29 15:37:40,680  pymodbus.logging:transaction.py:67 Adding transaction 0
DEBUG   2025-08-29 15:37:40,680  pymodbus.logging:transaction.py:78 Getting transaction 0
DEBUG   2025-08-29 15:37:40,680  pymodbus.logging:transaction.py:258 Changing transaction state from "PROCESSING REPLY" to "TRANSACTION_COMPLETE"
INFO    2025-08-29 15:37:40,680  root:modbus_rtu_tcp.py:44 read_measurement ret is:ReadHoldingRegistersResponse (2)
INFO    2025-08-29 15:37:40,680  root:acudc260_modbus_get.py:145 read i1_current ret is:[16076, 49747]
DEBUG   2025-08-29 15:37:40,680  pymodbus.logging:transaction.py:184 Current transaction state - TRANSACTION_COMPLETE
DEBUG   2025-08-29 15:37:40,680  pymodbus.logging:transaction.py:193 Running transaction 0
DEBUG   2025-08-29 15:37:40,681  pymodbus.logging:transaction.py:293 SEND: 0x1 0x3 0x30 0x4 0x0 0x2 0x8a 0xca
DEBUG   2025-08-29 15:37:40,681  pymodbus.logging:serial.py:271 Changing state to IDLE - Last Frame End - 1756453060.679646 Current Time stamp - 1756453060.681643
DEBUG   2025-08-29 15:37:40,681  pymodbus.logging:serial.py:279 Waiting for 3.5 char before next send - 1.823 ms
DEBUG   2025-08-29 15:37:40,684  pymodbus.logging:base.py:250 New Transaction state "SENDING"
DEBUG   2025-08-29 15:37:40,684  pymodbus.logging:transaction.py:317 Changing transaction state from "SENDING" to "WAITING FOR REPLY"
DEBUG   2025-08-29 15:37:40,700  pymodbus.logging:transaction.py:419 Changing transaction state from "WAITING FOR REPLY" to "PROCESSING REPLY"
DEBUG   2025-08-29 15:37:40,700  pymodbus.logging:transaction.py:324 RECV: 0x1 0x3 0x4 0x3e 0xcb 0xb5 0xa 0x70 0xb2
DEBUG   2025-08-29 15:37:40,700  pymodbus.logging:base.py:92 Processing: 0x1 0x3 0x4 0x3e 0xcb 0xb5 0xa 0x70 0xb2
DEBUG   2025-08-29 15:37:40,700  pymodbus.logging:decoders.py:103 decode PDU for 3
DEBUG   2025-08-29 15:37:40,700  pymodbus.logging:base.py:102 Frame advanced, resetting header!!
DEBUG   2025-08-29 15:37:40,700  pymodbus.logging:transaction.py:67 Adding transaction 0
DEBUG   2025-08-29 15:37:40,700  pymodbus.logging:transaction.py:78 Getting transaction 0
DEBUG   2025-08-29 15:37:40,700  pymodbus.logging:transaction.py:258 Changing transaction state from "PROCESSING REPLY" to "TRANSACTION_COMPLETE"
INFO    2025-08-29 15:37:40,700  root:modbus_rtu_tcp.py:44 read_measurement ret is:ReadHoldingRegistersResponse (2)
INFO    2025-08-29 15:37:40,700  root:acudc260_modbus_get.py:159 read i2_current ret is:[16075, 46346]
DEBUG   2025-08-29 15:37:40,700  pymodbus.logging:transaction.py:184 Current transaction state - TRANSACTION_COMPLETE
DEBUG   2025-08-29 15:37:40,700  pymodbus.logging:transaction.py:193 Running transaction 0
DEBUG   2025-08-29 15:37:40,700  pymodbus.logging:transaction.py:293 SEND: 0x1 0x3 0x30 0x6 0x0 0x2 0x2b 0xa
DEBUG   2025-08-29 15:37:40,713  pymodbus.logging:serial.py:271 Changing state to IDLE - Last Frame End - 1756453060.7005 Current Time stamp - 1756453060.713227
DEBUG   2025-08-29 15:37:40,713  pymodbus.logging:base.py:250 New Transaction state "SENDING"
DEBUG   2025-08-29 15:37:40,713  pymodbus.logging:transaction.py:317 Changing transaction state from "SENDING" to "WAITING FOR REPLY"
DEBUG   2025-08-29 15:37:40,733  pymodbus.logging:transaction.py:419 Changing transaction state from "WAITING FOR REPLY" to "PROCESSING REPLY"
DEBUG   2025-08-29 15:37:40,733  pymodbus.logging:transaction.py:324 RECV: 0x1 0x3 0x4 0x3f 0x4c 0x3b 0xae 0xa5 0x7c
DEBUG   2025-08-29 15:37:40,733  pymodbus.logging:base.py:92 Processing: 0x1 0x3 0x4 0x3f 0x4c 0x3b 0xae 0xa5 0x7c
DEBUG   2025-08-29 15:37:40,733  pymodbus.logging:decoders.py:103 decode PDU for 3
DEBUG   2025-08-29 15:37:40,733  pymodbus.logging:base.py:102 Frame advanced, resetting header!!
DEBUG   2025-08-29 15:37:40,733  pymodbus.logging:transaction.py:67 Adding transaction 0
DEBUG   2025-08-29 15:37:40,733  pymodbus.logging:transaction.py:78 Getting transaction 0
DEBUG   2025-08-29 15:37:40,733  pymodbus.logging:transaction.py:258 Changing transaction state from "PROCESSING REPLY" to "TRANSACTION_COMPLETE"
INFO    2025-08-29 15:37:40,733  root:modbus_rtu_tcp.py:44 read_measurement ret is:ReadHoldingRegistersResponse (2)
INFO    2025-08-29 15:37:40,733  root:acudc260_modbus_get.py:173 read i_sum_current ret is:[16204, 15278]
DEBUG   2025-08-29 15:37:40,733  pymodbus.logging:transaction.py:184 Current transaction state - TRANSACTION_COMPLETE
DEBUG   2025-08-29 15:37:40,733  pymodbus.logging:transaction.py:193 Running transaction 0
DEBUG   2025-08-29 15:37:40,733  pymodbus.logging:transaction.py:293 SEND: 0x1 0x3 0x30 0x8 0x0 0x2 0x4a 0xc9
DEBUG   2025-08-29 15:37:40,733  pymodbus.logging:serial.py:271 Changing state to IDLE - Last Frame End - 1756453060.733072 Current Time stamp - 1756453060.733072
DEBUG   2025-08-29 15:37:40,733  pymodbus.logging:serial.py:279 Waiting for 3.5 char before next send - 1.823 ms
DEBUG   2025-08-29 15:37:40,736  pymodbus.logging:base.py:250 New Transaction state "SENDING"
DEBUG   2025-08-29 15:37:40,736  pymodbus.logging:transaction.py:317 Changing transaction state from "SENDING" to "WAITING FOR REPLY"
DEBUG   2025-08-29 15:37:40,764  pymodbus.logging:transaction.py:419 Changing transaction state from "WAITING FOR REPLY" to "PROCESSING REPLY"
DEBUG   2025-08-29 15:37:40,764  pymodbus.logging:transaction.py:324 RECV: 0x1 0x3 0x4 0x0 0x0 0x0 0x0 0xfa 0x33
DEBUG   2025-08-29 15:37:40,764  pymodbus.logging:base.py:92 Processing: 0x1 0x3 0x4 0x0 0x0 0x0 0x0 0xfa 0x33
DEBUG   2025-08-29 15:37:40,764  pymodbus.logging:decoders.py:103 decode PDU for 3
DEBUG   2025-08-29 15:37:40,764  pymodbus.logging:base.py:102 Frame advanced, resetting header!!
DEBUG   2025-08-29 15:37:40,764  pymodbus.logging:transaction.py:67 Adding transaction 0
DEBUG   2025-08-29 15:37:40,764  pymodbus.logging:transaction.py:78 Getting transaction 0
DEBUG   2025-08-29 15:37:40,764  pymodbus.logging:transaction.py:258 Changing transaction state from "PROCESSING REPLY" to "TRANSACTION_COMPLETE"
INFO    2025-08-29 15:37:40,764  root:modbus_rtu_tcp.py:44 read_measurement ret is:ReadHoldingRegistersResponse (2)
INFO    2025-08-29 15:37:40,764  root:acudc260_modbus_get.py:187 read p1_power ret is:[0, 0]
DEBUG   2025-08-29 15:37:40,764  pymodbus.logging:transaction.py:184 Current transaction state - TRANSACTION_COMPLETE
DEBUG   2025-08-29 15:37:40,764  pymodbus.logging:transaction.py:193 Running transaction 0
DEBUG   2025-08-29 15:37:40,764  pymodbus.logging:transaction.py:293 SEND: 0x1 0x3 0x30 0xa 0x0 0x2 0xeb 0x9
DEBUG   2025-08-29 15:37:40,764  pymodbus.logging:serial.py:271 Changing state to IDLE - Last Frame End - 1756453060.764815 Current Time stamp - 1756453060.764815
DEBUG   2025-08-29 15:37:40,764  pymodbus.logging:serial.py:279 Waiting for 3.5 char before next send - 1.823 ms
DEBUG   2025-08-29 15:37:40,768  pymodbus.logging:base.py:250 New Transaction state "SENDING"
DEBUG   2025-08-29 15:37:40,768  pymodbus.logging:transaction.py:317 Changing transaction state from "SENDING" to "WAITING FOR REPLY"
DEBUG   2025-08-29 15:37:40,797  pymodbus.logging:transaction.py:419 Changing transaction state from "WAITING FOR REPLY" to "PROCESSING REPLY"
DEBUG   2025-08-29 15:37:40,797  pymodbus.logging:transaction.py:324 RECV: 0x1 0x3 0x4 0x0 0x0 0x0 0x0 0xfa 0x33
DEBUG   2025-08-29 15:37:40,797  pymodbus.logging:base.py:92 Processing: 0x1 0x3 0x4 0x0 0x0 0x0 0x0 0xfa 0x33
DEBUG   2025-08-29 15:37:40,797  pymodbus.logging:decoders.py:103 decode PDU for 3
DEBUG   2025-08-29 15:37:40,797  pymodbus.logging:base.py:102 Frame advanced, resetting header!!
DEBUG   2025-08-29 15:37:40,797  pymodbus.logging:transaction.py:67 Adding transaction 0
DEBUG   2025-08-29 15:37:40,797  pymodbus.logging:transaction.py:78 Getting transaction 0
DEBUG   2025-08-29 15:37:40,797  pymodbus.logging:transaction.py:258 Changing transaction state from "PROCESSING REPLY" to "TRANSACTION_COMPLETE"
INFO    2025-08-29 15:37:40,797  root:modbus_rtu_tcp.py:44 read_measurement ret is:ReadHoldingRegistersResponse (2)
INFO    2025-08-29 15:37:40,797  root:acudc260_modbus_get.py:201 read p2_power ret is:[0, 0]
DEBUG   2025-08-29 15:37:40,797  pymodbus.logging:transaction.py:184 Current transaction state - TRANSACTION_COMPLETE
DEBUG   2025-08-29 15:37:40,797  pymodbus.logging:transaction.py:193 Running transaction 0
DEBUG   2025-08-29 15:37:40,797  pymodbus.logging:transaction.py:293 SEND: 0x1 0x3 0x30 0xc 0x0 0x2 0xb 0x8
DEBUG   2025-08-29 15:37:40,797  pymodbus.logging:serial.py:271 Changing state to IDLE - Last Frame End - 1756453060.797901 Current Time stamp - 1756453060.797901
DEBUG   2025-08-29 15:37:40,797  pymodbus.logging:serial.py:279 Waiting for 3.5 char before next send - 1.823 ms
DEBUG   2025-08-29 15:37:40,801  pymodbus.logging:base.py:250 New Transaction state "SENDING"
DEBUG   2025-08-29 15:37:40,801  pymodbus.logging:transaction.py:317 Changing transaction state from "SENDING" to "WAITING FOR REPLY"
DEBUG   2025-08-29 15:37:40,830  pymodbus.logging:transaction.py:419 Changing transaction state from "WAITING FOR REPLY" to "PROCESSING REPLY"
DEBUG   2025-08-29 15:37:40,830  pymodbus.logging:transaction.py:324 RECV: 0x1 0x3 0x4 0x0 0x0 0x0 0x0 0xfa 0x33
DEBUG   2025-08-29 15:37:40,830  pymodbus.logging:base.py:92 Processing: 0x1 0x3 0x4 0x0 0x0 0x0 0x0 0xfa 0x33
DEBUG   2025-08-29 15:37:40,830  pymodbus.logging:decoders.py:103 decode PDU for 3
DEBUG   2025-08-29 15:37:40,830  pymodbus.logging:base.py:102 Frame advanced, resetting header!!
DEBUG   2025-08-29 15:37:40,830  pymodbus.logging:transaction.py:67 Adding transaction 0
DEBUG   2025-08-29 15:37:40,830  pymodbus.logging:transaction.py:78 Getting transaction 0
DEBUG   2025-08-29 15:37:40,830  pymodbus.logging:transaction.py:258 Changing transaction state from "PROCESSING REPLY" to "TRANSACTION_COMPLETE"
INFO    2025-08-29 15:37:40,830  root:modbus_rtu_tcp.py:44 read_measurement ret is:ReadHoldingRegistersResponse (2)
INFO    2025-08-29 15:37:40,830  root:acudc260_modbus_get.py:215 read p_sum_power ret is:[0, 0]
DEBUG   2025-08-29 15:37:40,941  pymodbus.logging:transaction.py:184 Current transaction state - TRANSACTION_COMPLETE
DEBUG   2025-08-29 15:37:40,953  pymodbus.logging:transaction.py:193 Running transaction 0
DEBUG   2025-08-29 15:37:40,953  pymodbus.logging:transaction.py:293 SEND: 0x1 0x3 0x30 0x0 0x0 0x2 0xcb 0xb
DEBUG   2025-08-29 15:37:40,953  pymodbus.logging:serial.py:271 Changing state to IDLE - Last Frame End - 1756453060.830085 Current Time stamp - 1756453060.953896
DEBUG   2025-08-29 15:37:40,953  pymodbus.logging:base.py:250 New Transaction state "SENDING"
DEBUG   2025-08-29 15:37:40,953  pymodbus.logging:transaction.py:317 Changing transaction state from "SENDING" to "WAITING FOR REPLY"
DEBUG   2025-08-29 15:37:40,987  pymodbus.logging:transaction.py:419 Changing transaction state from "WAITING FOR REPLY" to "PROCESSING REPLY"
DEBUG   2025-08-29 15:37:40,987  pymodbus.logging:transaction.py:324 RECV: 0x1 0x3 0x4 0x0 0x0 0x0 0x0 0xfa 0x33
DEBUG   2025-08-29 15:37:40,987  pymodbus.logging:base.py:92 Processing: 0x1 0x3 0x4 0x0 0x0 0x0 0x0 0xfa 0x33
DEBUG   2025-08-29 15:37:40,987  pymodbus.logging:decoders.py:103 decode PDU for 3
DEBUG   2025-08-29 15:37:40,987  pymodbus.logging:base.py:102 Frame advanced, resetting header!!
DEBUG   2025-08-29 15:37:40,987  pymodbus.logging:transaction.py:67 Adding transaction 0
DEBUG   2025-08-29 15:37:40,987  pymodbus.logging:transaction.py:78 Getting transaction 0
DEBUG   2025-08-29 15:37:40,987  pymodbus.logging:transaction.py:258 Changing transaction state from "PROCESSING REPLY" to "TRANSACTION_COMPLETE"
INFO    2025-08-29 15:37:40,987  root:modbus_rtu_tcp.py:44 read_measurement ret is:ReadHoldingRegistersResponse (2)
INFO    2025-08-29 15:37:40,987  root:acudc260_modbus_get.py:131 read u_voltage ret is:[0, 0]
DEBUG   2025-08-29 15:37:40,987  pymodbus.logging:transaction.py:184 Current transaction state - TRANSACTION_COMPLETE
DEBUG   2025-08-29 15:37:40,987  pymodbus.logging:transaction.py:193 Running transaction 0
DEBUG   2025-08-29 15:37:40,987  pymodbus.logging:transaction.py:293 SEND: 0x1 0x3 0x30 0x2 0x0 0x2 0x6a 0xcb
DEBUG   2025-08-29 15:37:40,987  pymodbus.logging:serial.py:271 Changing state to IDLE - Last Frame End - 1756453060.987566 Current Time stamp - 1756453060.987566
DEBUG   2025-08-29 15:37:40,987  pymodbus.logging:serial.py:279 Waiting for 3.5 char before next send - 1.823 ms
DEBUG   2025-08-29 15:37:40,991  pymodbus.logging:base.py:250 New Transaction state "SENDING"
DEBUG   2025-08-29 15:37:40,991  pymodbus.logging:transaction.py:317 Changing transaction state from "SENDING" to "WAITING FOR REPLY"
DEBUG   2025-08-29 15:37:41,019  pymodbus.logging:transaction.py:419 Changing transaction state from "WAITING FOR REPLY" to "PROCESSING REPLY"
DEBUG   2025-08-29 15:37:41,019  pymodbus.logging:transaction.py:324 RECV: 0x1 0x3 0x4 0x3e 0xcf 0x98 0xa0 0xac 0x5c
DEBUG   2025-08-29 15:37:41,019  pymodbus.logging:base.py:92 Processing: 0x1 0x3 0x4 0x3e 0xcf 0x98 0xa0 0xac 0x5c
DEBUG   2025-08-29 15:37:41,019  pymodbus.logging:decoders.py:103 decode PDU for 3
DEBUG   2025-08-29 15:37:41,019  pymodbus.logging:base.py:102 Frame advanced, resetting header!!
DEBUG   2025-08-29 15:37:41,019  pymodbus.logging:transaction.py:67 Adding transaction 0
DEBUG   2025-08-29 15:37:41,019  pymodbus.logging:transaction.py:78 Getting transaction 0
DEBUG   2025-08-29 15:37:41,019  pymodbus.logging:transaction.py:258 Changing transaction state from "PROCESSING REPLY" to "TRANSACTION_COMPLETE"
INFO    2025-08-29 15:37:41,019  root:modbus_rtu_tcp.py:44 read_measurement ret is:ReadHoldingRegistersResponse (2)
INFO    2025-08-29 15:37:41,019  root:acudc260_modbus_get.py:145 read i1_current ret is:[16079, 39072]
DEBUG   2025-08-29 15:37:41,019  pymodbus.logging:transaction.py:184 Current transaction state - TRANSACTION_COMPLETE
DEBUG   2025-08-29 15:37:41,019  pymodbus.logging:transaction.py:193 Running transaction 0
DEBUG   2025-08-29 15:37:41,019  pymodbus.logging:transaction.py:293 SEND: 0x1 0x3 0x30 0x4 0x0 0x2 0x8a 0xca
DEBUG   2025-08-29 15:37:41,019  pymodbus.logging:serial.py:271 Changing state to IDLE - Last Frame End - 1756453061.019358 Current Time stamp - 1756453061.019358
DEBUG   2025-08-29 15:37:41,019  pymodbus.logging:serial.py:279 Waiting for 3.5 char before next send - 1.823 ms
DEBUG   2025-08-29 15:37:41,025  pymodbus.logging:base.py:250 New Transaction state "SENDING"
DEBUG   2025-08-29 15:37:41,025  pymodbus.logging:transaction.py:317 Changing transaction state from "SENDING" to "WAITING FOR REPLY"
DEBUG   2025-08-29 15:37:41,051  pymodbus.logging:transaction.py:419 Changing transaction state from "WAITING FOR REPLY" to "PROCESSING REPLY"
DEBUG   2025-08-29 15:37:41,051  pymodbus.logging:transaction.py:324 RECV: 0x1 0x3 0x4 0x3e 0xc8 0x5c 0x76 0xce 0xc3
DEBUG   2025-08-29 15:37:41,051  pymodbus.logging:base.py:92 Processing: 0x1 0x3 0x4 0x3e 0xc8 0x5c 0x76 0xce 0xc3
DEBUG   2025-08-29 15:37:41,051  pymodbus.logging:decoders.py:103 decode PDU for 3
DEBUG   2025-08-29 15:37:41,051  pymodbus.logging:base.py:102 Frame advanced, resetting header!!
DEBUG   2025-08-29 15:37:41,051  pymodbus.logging:transaction.py:67 Adding transaction 0
DEBUG   2025-08-29 15:37:41,051  pymodbus.logging:transaction.py:78 Getting transaction 0
DEBUG   2025-08-29 15:37:41,051  pymodbus.logging:transaction.py:258 Changing transaction state from "PROCESSING REPLY" to "TRANSACTION_COMPLETE"
INFO    2025-08-29 15:37:41,051  root:modbus_rtu_tcp.py:44 read_measurement ret is:ReadHoldingRegistersResponse (2)
INFO    2025-08-29 15:37:41,051  root:acudc260_modbus_get.py:159 read i2_current ret is:[16072, 23670]
DEBUG   2025-08-29 15:37:41,051  pymodbus.logging:transaction.py:184 Current transaction state - TRANSACTION_COMPLETE
DEBUG   2025-08-29 15:37:41,051  pymodbus.logging:transaction.py:193 Running transaction 0
DEBUG   2025-08-29 15:37:41,051  pymodbus.logging:transaction.py:293 SEND: 0x1 0x3 0x30 0x6 0x0 0x2 0x2b 0xa
DEBUG   2025-08-29 15:37:41,051  pymodbus.logging:serial.py:271 Changing state to IDLE - Last Frame End - 1756453061.051412 Current Time stamp - 1756453061.051412
DEBUG   2025-08-29 15:37:41,051  pymodbus.logging:serial.py:279 Waiting for 3.5 char before next send - 1.823 ms
DEBUG   2025-08-29 15:37:41,055  pymodbus.logging:base.py:250 New Transaction state "SENDING"
DEBUG   2025-08-29 15:37:41,055  pymodbus.logging:transaction.py:317 Changing transaction state from "SENDING" to "WAITING FOR REPLY"
DEBUG   2025-08-29 15:37:41,083  pymodbus.logging:transaction.py:419 Changing transaction state from "WAITING FOR REPLY" to "PROCESSING REPLY"
DEBUG   2025-08-29 15:37:41,083  pymodbus.logging:transaction.py:324 RECV: 0x1 0x3 0x4 0x3f 0x4a 0xd1 0xe2 0xb 0xe8
DEBUG   2025-08-29 15:37:41,083  pymodbus.logging:base.py:92 Processing: 0x1 0x3 0x4 0x3f 0x4a 0xd1 0xe2 0xb 0xe8
DEBUG   2025-08-29 15:37:41,083  pymodbus.logging:decoders.py:103 decode PDU for 3
DEBUG   2025-08-29 15:37:41,083  pymodbus.logging:base.py:102 Frame advanced, resetting header!!
DEBUG   2025-08-29 15:37:41,083  pymodbus.logging:transaction.py:67 Adding transaction 0
DEBUG   2025-08-29 15:37:41,083  pymodbus.logging:transaction.py:78 Getting transaction 0
DEBUG   2025-08-29 15:37:41,083  pymodbus.logging:transaction.py:258 Changing transaction state from "PROCESSING REPLY" to "TRANSACTION_COMPLETE"
INFO    2025-08-29 15:37:41,083  root:modbus_rtu_tcp.py:44 read_measurement ret is:ReadHoldingRegistersResponse (2)
INFO    2025-08-29 15:37:41,083  root:acudc260_modbus_get.py:173 read i_sum_current ret is:[16202, 53730]
DEBUG   2025-08-29 15:37:41,083  pymodbus.logging:transaction.py:184 Current transaction state - TRANSACTION_COMPLETE
DEBUG   2025-08-29 15:37:41,083  pymodbus.logging:transaction.py:193 Running transaction 0
DEBUG   2025-08-29 15:37:41,083  pymodbus.logging:transaction.py:293 SEND: 0x1 0x3 0x30 0x8 0x0 0x2 0x4a 0xc9
DEBUG   2025-08-29 15:37:41,083  pymodbus.logging:serial.py:271 Changing state to IDLE - Last Frame End - 1756453061.083235 Current Time stamp - 1756453061.083235
DEBUG   2025-08-29 15:37:41,083  pymodbus.logging:serial.py:279 Waiting for 3.5 char before next send - 1.823 ms
DEBUG   2025-08-29 15:37:41,086  pymodbus.logging:base.py:250 New Transaction state "SENDING"
DEBUG   2025-08-29 15:37:41,086  pymodbus.logging:transaction.py:317 Changing transaction state from "SENDING" to "WAITING FOR REPLY"
DEBUG   2025-08-29 15:37:41,116  pymodbus.logging:transaction.py:419 Changing transaction state from "WAITING FOR REPLY" to "PROCESSING REPLY"
DEBUG   2025-08-29 15:37:41,116  pymodbus.logging:transaction.py:324 RECV: 0x1 0x3 0x4 0x0 0x0 0x0 0x0 0xfa 0x33
DEBUG   2025-08-29 15:37:41,116  pymodbus.logging:base.py:92 Processing: 0x1 0x3 0x4 0x0 0x0 0x0 0x0 0xfa 0x33
DEBUG   2025-08-29 15:37:41,116  pymodbus.logging:decoders.py:103 decode PDU for 3
DEBUG   2025-08-29 15:37:41,116  pymodbus.logging:base.py:102 Frame advanced, resetting header!!
DEBUG   2025-08-29 15:37:41,116  pymodbus.logging:transaction.py:67 Adding transaction 0
DEBUG   2025-08-29 15:37:41,116  pymodbus.logging:transaction.py:78 Getting transaction 0
DEBUG   2025-08-29 15:37:41,116  pymodbus.logging:transaction.py:258 Changing transaction state from "PROCESSING REPLY" to "TRANSACTION_COMPLETE"
INFO    2025-08-29 15:37:41,116  root:modbus_rtu_tcp.py:44 read_measurement ret is:ReadHoldingRegistersResponse (2)
INFO    2025-08-29 15:37:41,117  root:acudc260_modbus_get.py:187 read p1_power ret is:[0, 0]
DEBUG   2025-08-29 15:37:41,117  pymodbus.logging:transaction.py:184 Current transaction state - TRANSACTION_COMPLETE
DEBUG   2025-08-29 15:37:41,117  pymodbus.logging:transaction.py:193 Running transaction 0
DEBUG   2025-08-29 15:37:41,117  pymodbus.logging:transaction.py:293 SEND: 0x1 0x3 0x30 0xa 0x0 0x2 0xeb 0x9
DEBUG   2025-08-29 15:37:41,117  pymodbus.logging:serial.py:271 Changing state to IDLE - Last Frame End - 1756453061.116396 Current Time stamp - 1756453061.117495
DEBUG   2025-08-29 15:37:41,117  pymodbus.logging:serial.py:279 Waiting for 3.5 char before next send - 1.823 ms
DEBUG   2025-08-29 15:37:41,120  pymodbus.logging:base.py:250 New Transaction state "SENDING"
DEBUG   2025-08-29 15:37:41,120  pymodbus.logging:transaction.py:317 Changing transaction state from "SENDING" to "WAITING FOR REPLY"
DEBUG   2025-08-29 15:37:41,147  pymodbus.logging:transaction.py:419 Changing transaction state from "WAITING FOR REPLY" to "PROCESSING REPLY"
DEBUG   2025-08-29 15:37:41,147  pymodbus.logging:transaction.py:324 RECV: 0x1 0x3 0x4 0x0 0x0 0x0 0x0 0xfa 0x33
DEBUG   2025-08-29 15:37:41,147  pymodbus.logging:base.py:92 Processing: 0x1 0x3 0x4 0x0 0x0 0x0 0x0 0xfa 0x33
DEBUG   2025-08-29 15:37:41,147  pymodbus.logging:decoders.py:103 decode PDU for 3
DEBUG   2025-08-29 15:37:41,147  pymodbus.logging:base.py:102 Frame advanced, resetting header!!
DEBUG   2025-08-29 15:37:41,147  pymodbus.logging:transaction.py:67 Adding transaction 0
DEBUG   2025-08-29 15:37:41,147  pymodbus.logging:transaction.py:78 Getting transaction 0
DEBUG   2025-08-29 15:37:41,148  pymodbus.logging:transaction.py:258 Changing transaction state from "PROCESSING REPLY" to "TRANSACTION_COMPLETE"
INFO    2025-08-29 15:37:41,148  root:modbus_rtu_tcp.py:44 read_measurement ret is:ReadHoldingRegistersResponse (2)
INFO    2025-08-29 15:37:41,148  root:acudc260_modbus_get.py:201 read p2_power ret is:[0, 0]
DEBUG   2025-08-29 15:37:41,148  pymodbus.logging:transaction.py:184 Current transaction state - TRANSACTION_COMPLETE
DEBUG   2025-08-29 15:37:41,148  pymodbus.logging:transaction.py:193 Running transaction 0
DEBUG   2025-08-29 15:37:41,148  pymodbus.logging:transaction.py:293 SEND: 0x1 0x3 0x30 0xc 0x0 0x2 0xb 0x8
DEBUG   2025-08-29 15:37:41,148  pymodbus.logging:serial.py:271 Changing state to IDLE - Last Frame End - 1756453061.147823 Current Time stamp - 1756453061.148846
DEBUG   2025-08-29 15:37:41,148  pymodbus.logging:serial.py:279 Waiting for 3.5 char before next send - 1.823 ms
DEBUG   2025-08-29 15:37:41,152  pymodbus.logging:base.py:250 New Transaction state "SENDING"
DEBUG   2025-08-29 15:37:41,152  pymodbus.logging:transaction.py:317 Changing transaction state from "SENDING" to "WAITING FOR REPLY"
DEBUG   2025-08-29 15:37:41,179  pymodbus.logging:transaction.py:419 Changing transaction state from "WAITING FOR REPLY" to "PROCESSING REPLY"
DEBUG   2025-08-29 15:37:41,179  pymodbus.logging:transaction.py:324 RECV: 0x1 0x3 0x4 0x0 0x0 0x0 0x0 0xfa 0x33
DEBUG   2025-08-29 15:37:41,179  pymodbus.logging:base.py:92 Processing: 0x1 0x3 0x4 0x0 0x0 0x0 0x0 0xfa 0x33
DEBUG   2025-08-29 15:37:41,179  pymodbus.logging:decoders.py:103 decode PDU for 3
DEBUG   2025-08-29 15:37:41,179  pymodbus.logging:base.py:102 Frame advanced, resetting header!!
DEBUG   2025-08-29 15:37:41,179  pymodbus.logging:transaction.py:67 Adding transaction 0
DEBUG   2025-08-29 15:37:41,179  pymodbus.logging:transaction.py:78 Getting transaction 0
DEBUG   2025-08-29 15:37:41,179  pymodbus.logging:transaction.py:258 Changing transaction state from "PROCESSING REPLY" to "TRANSACTION_COMPLETE"
INFO    2025-08-29 15:37:41,179  root:modbus_rtu_tcp.py:44 read_measurement ret is:ReadHoldingRegistersResponse (2)
INFO    2025-08-29 15:37:41,179  root:acudc260_modbus_get.py:215 read p_sum_power ret is:[0, 0]
DEBUG   2025-08-29 15:37:41,280  pymodbus.logging:transaction.py:184 Current transaction state - TRANSACTION_COMPLETE
DEBUG   2025-08-29 15:37:41,280  pymodbus.logging:transaction.py:193 Running transaction 0
DEBUG   2025-08-29 15:37:41,280  pymodbus.logging:transaction.py:293 SEND: 0x1 0x3 0x30 0x0 0x0 0x2 0xcb 0xb
DEBUG   2025-08-29 15:37:41,280  pymodbus.logging:serial.py:271 Changing state to IDLE - Last Frame End - 1756453061.179288 Current Time stamp - 1756453061.280496
DEBUG   2025-08-29 15:37:41,280  pymodbus.logging:base.py:250 New Transaction state "SENDING"
DEBUG   2025-08-29 15:37:41,280  pymodbus.logging:transaction.py:317 Changing transaction state from "SENDING" to "WAITING FOR REPLY"
DEBUG   2025-08-29 15:37:41,314  pymodbus.logging:transaction.py:419 Changing transaction state from "WAITING FOR REPLY" to "PROCESSING REPLY"
DEBUG   2025-08-29 15:37:41,314  pymodbus.logging:transaction.py:324 RECV: 0x1 0x3 0x4 0x0 0x0 0x0 0x0 0xfa 0x33
DEBUG   2025-08-29 15:37:41,314  pymodbus.logging:base.py:92 Processing: 0x1 0x3 0x4 0x0 0x0 0x0 0x0 0xfa 0x33
DEBUG   2025-08-29 15:37:41,314  pymodbus.logging:decoders.py:103 decode PDU for 3
DEBUG   2025-08-29 15:37:41,314  pymodbus.logging:base.py:102 Frame advanced, resetting header!!
DEBUG   2025-08-29 15:37:41,314  pymodbus.logging:transaction.py:67 Adding transaction 0
DEBUG   2025-08-29 15:37:41,314  pymodbus.logging:transaction.py:78 Getting transaction 0
DEBUG   2025-08-29 15:37:41,314  pymodbus.logging:transaction.py:258 Changing transaction state from "PROCESSING REPLY" to "TRANSACTION_COMPLETE"
INFO    2025-08-29 15:37:41,314  root:modbus_rtu_tcp.py:44 read_measurement ret is:ReadHoldingRegistersResponse (2)
INFO    2025-08-29 15:37:41,314  root:acudc260_modbus_get.py:131 read u_voltage ret is:[0, 0]
DEBUG   2025-08-29 15:37:41,314  pymodbus.logging:transaction.py:184 Current transaction state - TRANSACTION_COMPLETE
DEBUG   2025-08-29 15:37:41,314  pymodbus.logging:transaction.py:193 Running transaction 0
DEBUG   2025-08-29 15:37:41,314  pymodbus.logging:transaction.py:293 SEND: 0x1 0x3 0x30 0x2 0x0 0x2 0x6a 0xcb
DEBUG   2025-08-29 15:37:41,314  pymodbus.logging:serial.py:271 Changing state to IDLE - Last Frame End - 1756453061.314569 Current Time stamp - 1756453061.314569
DEBUG   2025-08-29 15:37:41,314  pymodbus.logging:serial.py:279 Waiting for 3.5 char before next send - 1.823 ms
DEBUG   2025-08-29 15:37:41,323  pymodbus.logging:base.py:250 New Transaction state "SENDING"
DEBUG   2025-08-29 15:37:41,323  pymodbus.logging:transaction.py:317 Changing transaction state from "SENDING" to "WAITING FOR REPLY"
DEBUG   2025-08-29 15:37:41,344  pymodbus.logging:transaction.py:419 Changing transaction state from "WAITING FOR REPLY" to "PROCESSING REPLY"
DEBUG   2025-08-29 15:37:41,344  pymodbus.logging:transaction.py:324 RECV: 0x1 0x3 0x4 0x3e 0xce 0x1e 0x10 0x9e 0x48
DEBUG   2025-08-29 15:37:41,344  pymodbus.logging:base.py:92 Processing: 0x1 0x3 0x4 0x3e 0xce 0x1e 0x10 0x9e 0x48
DEBUG   2025-08-29 15:37:41,344  pymodbus.logging:decoders.py:103 decode PDU for 3
DEBUG   2025-08-29 15:37:41,344  pymodbus.logging:base.py:102 Frame advanced, resetting header!!
DEBUG   2025-08-29 15:37:41,344  pymodbus.logging:transaction.py:67 Adding transaction 0
DEBUG   2025-08-29 15:37:41,344  pymodbus.logging:transaction.py:78 Getting transaction 0
DEBUG   2025-08-29 15:37:41,344  pymodbus.logging:transaction.py:258 Changing transaction state from "PROCESSING REPLY" to "TRANSACTION_COMPLETE"
INFO    2025-08-29 15:37:41,344  root:modbus_rtu_tcp.py:44 read_measurement ret is:ReadHoldingRegistersResponse (2)
INFO    2025-08-29 15:37:41,344  root:acudc260_modbus_get.py:145 read i1_current ret is:[16078, 7696]
DEBUG   2025-08-29 15:37:41,344  pymodbus.logging:transaction.py:184 Current transaction state - TRANSACTION_COMPLETE
DEBUG   2025-08-29 15:37:41,344  pymodbus.logging:transaction.py:193 Running transaction 0
DEBUG   2025-08-29 15:37:41,344  pymodbus.logging:transaction.py:293 SEND: 0x1 0x3 0x30 0x4 0x0 0x2 0x8a 0xca
DEBUG   2025-08-29 15:37:41,344  pymodbus.logging:serial.py:271 Changing state to IDLE - Last Frame End - 1756453061.344182 Current Time stamp - 1756453061.344182
DEBUG   2025-08-29 15:37:41,344  pymodbus.logging:serial.py:279 Waiting for 3.5 char before next send - 1.823 ms
DEBUG   2025-08-29 15:37:41,355  pymodbus.logging:base.py:250 New Transaction state "SENDING"
DEBUG   2025-08-29 15:37:41,355  pymodbus.logging:transaction.py:317 Changing transaction state from "SENDING" to "WAITING FOR REPLY"
DEBUG   2025-08-29 15:37:41,388  pymodbus.logging:transaction.py:419 Changing transaction state from "WAITING FOR REPLY" to "PROCESSING REPLY"
DEBUG   2025-08-29 15:37:41,388  pymodbus.logging:transaction.py:324 RECV: 0x1 0x3 0x4 0x3e 0xc8 0xd4 0x9d 0xe8 0x8c
DEBUG   2025-08-29 15:37:41,388  pymodbus.logging:base.py:92 Processing: 0x1 0x3 0x4 0x3e 0xc8 0xd4 0x9d 0xe8 0x8c
DEBUG   2025-08-29 15:37:41,388  pymodbus.logging:decoders.py:103 decode PDU for 3
DEBUG   2025-08-29 15:37:41,388  pymodbus.logging:base.py:102 Frame advanced, resetting header!!
DEBUG   2025-08-29 15:37:41,388  pymodbus.logging:transaction.py:67 Adding transaction 0
DEBUG   2025-08-29 15:37:41,388  pymodbus.logging:transaction.py:78 Getting transaction 0
DEBUG   2025-08-29 15:37:41,388  pymodbus.logging:transaction.py:258 Changing transaction state from "PROCESSING REPLY" to "TRANSACTION_COMPLETE"
INFO    2025-08-29 15:37:41,388  root:modbus_rtu_tcp.py:44 read_measurement ret is:ReadHoldingRegistersResponse (2)
INFO    2025-08-29 15:37:41,388  root:acudc260_modbus_get.py:159 read i2_current ret is:[16072, 54429]
DEBUG   2025-08-29 15:37:41,388  pymodbus.logging:transaction.py:184 Current transaction state - TRANSACTION_COMPLETE
DEBUG   2025-08-29 15:37:41,388  pymodbus.logging:transaction.py:193 Running transaction 0
DEBUG   2025-08-29 15:37:41,388  pymodbus.logging:transaction.py:293 SEND: 0x1 0x3 0x30 0x6 0x0 0x2 0x2b 0xa
DEBUG   2025-08-29 15:37:41,388  pymodbus.logging:serial.py:271 Changing state to IDLE - Last Frame End - 1756453061.388769 Current Time stamp - 1756453061.388769
DEBUG   2025-08-29 15:37:41,388  pymodbus.logging:serial.py:279 Waiting for 3.5 char before next send - 1.823 ms
DEBUG   2025-08-29 15:37:41,392  pymodbus.logging:base.py:250 New Transaction state "SENDING"
DEBUG   2025-08-29 15:37:41,393  pymodbus.logging:transaction.py:317 Changing transaction state from "SENDING" to "WAITING FOR REPLY"
DEBUG   2025-08-29 15:37:41,421  pymodbus.logging:transaction.py:419 Changing transaction state from "WAITING FOR REPLY" to "PROCESSING REPLY"
DEBUG   2025-08-29 15:37:41,421  pymodbus.logging:transaction.py:324 RECV: 0x1 0x3 0x4 0x3f 0x4d 0x27 0xfd 0xbc 0x41
DEBUG   2025-08-29 15:37:41,421  pymodbus.logging:base.py:92 Processing: 0x1 0x3 0x4 0x3f 0x4d 0x27 0xfd 0xbc 0x41
DEBUG   2025-08-29 15:37:41,421  pymodbus.logging:decoders.py:103 decode PDU for 3
DEBUG   2025-08-29 15:37:41,421  pymodbus.logging:base.py:102 Frame advanced, resetting header!!
DEBUG   2025-08-29 15:37:41,421  pymodbus.logging:transaction.py:67 Adding transaction 0
DEBUG   2025-08-29 15:37:41,421  pymodbus.logging:transaction.py:78 Getting transaction 0
DEBUG   2025-08-29 15:37:41,421  pymodbus.logging:transaction.py:258 Changing transaction state from "PROCESSING REPLY" to "TRANSACTION_COMPLETE"
INFO    2025-08-29 15:37:41,421  root:modbus_rtu_tcp.py:44 read_measurement ret is:ReadHoldingRegistersResponse (2)
INFO    2025-08-29 15:37:41,421  root:acudc260_modbus_get.py:173 read i_sum_current ret is:[16205, 10237]
DEBUG   2025-08-29 15:37:41,421  pymodbus.logging:transaction.py:184 Current transaction state - TRANSACTION_COMPLETE
DEBUG   2025-08-29 15:37:41,421  pymodbus.logging:transaction.py:193 Running transaction 0
DEBUG   2025-08-29 15:37:41,421  pymodbus.logging:transaction.py:293 SEND: 0x1 0x3 0x30 0x8 0x0 0x2 0x4a 0xc9
DEBUG   2025-08-29 15:37:41,421  pymodbus.logging:serial.py:271 Changing state to IDLE - Last Frame End - 1756453061.421587 Current Time stamp - 1756453061.421587
DEBUG   2025-08-29 15:37:41,421  pymodbus.logging:serial.py:279 Waiting for 3.5 char before next send - 1.823 ms
DEBUG   2025-08-29 15:37:41,425  pymodbus.logging:base.py:250 New Transaction state "SENDING"
DEBUG   2025-08-29 15:37:41,425  pymodbus.logging:transaction.py:317 Changing transaction state from "SENDING" to "WAITING FOR REPLY"
DEBUG   2025-08-29 15:37:41,453  pymodbus.logging:transaction.py:419 Changing transaction state from "WAITING FOR REPLY" to "PROCESSING REPLY"
DEBUG   2025-08-29 15:37:41,453  pymodbus.logging:transaction.py:324 RECV: 0x1 0x3 0x4 0x0 0x0 0x0 0x0 0xfa 0x33
DEBUG   2025-08-29 15:37:41,453  pymodbus.logging:base.py:92 Processing: 0x1 0x3 0x4 0x0 0x0 0x0 0x0 0xfa 0x33
DEBUG   2025-08-29 15:37:41,453  pymodbus.logging:decoders.py:103 decode PDU for 3
DEBUG   2025-08-29 15:37:41,453  pymodbus.logging:base.py:102 Frame advanced, resetting header!!
DEBUG   2025-08-29 15:37:41,453  pymodbus.logging:transaction.py:67 Adding transaction 0
DEBUG   2025-08-29 15:37:41,453  pymodbus.logging:transaction.py:78 Getting transaction 0
DEBUG   2025-08-29 15:37:41,453  pymodbus.logging:transaction.py:258 Changing transaction state from "PROCESSING REPLY" to "TRANSACTION_COMPLETE"
INFO    2025-08-29 15:37:41,453  root:modbus_rtu_tcp.py:44 read_measurement ret is:ReadHoldingRegistersResponse (2)
INFO    2025-08-29 15:37:41,453  root:acudc260_modbus_get.py:187 read p1_power ret is:[0, 0]
DEBUG   2025-08-29 15:37:41,453  pymodbus.logging:transaction.py:184 Current transaction state - TRANSACTION_COMPLETE
DEBUG   2025-08-29 15:37:41,453  pymodbus.logging:transaction.py:193 Running transaction 0
DEBUG   2025-08-29 15:37:41,453  pymodbus.logging:transaction.py:293 SEND: 0x1 0x3 0x30 0xa 0x0 0x2 0xeb 0x9
DEBUG   2025-08-29 15:37:41,453  pymodbus.logging:serial.py:271 Changing state to IDLE - Last Frame End - 1756453061.453638 Current Time stamp - 1756453061.453638
DEBUG   2025-08-29 15:37:41,453  pymodbus.logging:serial.py:279 Waiting for 3.5 char before next send - 1.823 ms
DEBUG   2025-08-29 15:37:41,457  pymodbus.logging:base.py:250 New Transaction state "SENDING"
DEBUG   2025-08-29 15:37:41,457  pymodbus.logging:transaction.py:317 Changing transaction state from "SENDING" to "WAITING FOR REPLY"
DEBUG   2025-08-29 15:37:41,484  pymodbus.logging:transaction.py:419 Changing transaction state from "WAITING FOR REPLY" to "PROCESSING REPLY"
DEBUG   2025-08-29 15:37:41,484  pymodbus.logging:transaction.py:324 RECV: 0x1 0x3 0x4 0x0 0x0 0x0 0x0 0xfa 0x33
DEBUG   2025-08-29 15:37:41,484  pymodbus.logging:base.py:92 Processing: 0x1 0x3 0x4 0x0 0x0 0x0 0x0 0xfa 0x33
DEBUG   2025-08-29 15:37:41,484  pymodbus.logging:decoders.py:103 decode PDU for 3
DEBUG   2025-08-29 15:37:41,484  pymodbus.logging:base.py:102 Frame advanced, resetting header!!
DEBUG   2025-08-29 15:37:41,484  pymodbus.logging:transaction.py:67 Adding transaction 0
DEBUG   2025-08-29 15:37:41,484  pymodbus.logging:transaction.py:78 Getting transaction 0
DEBUG   2025-08-29 15:37:41,484  pymodbus.logging:transaction.py:258 Changing transaction state from "PROCESSING REPLY" to "TRANSACTION_COMPLETE"
INFO    2025-08-29 15:37:41,484  root:modbus_rtu_tcp.py:44 read_measurement ret is:ReadHoldingRegistersResponse (2)
INFO    2025-08-29 15:37:41,484  root:acudc260_modbus_get.py:201 read p2_power ret is:[0, 0]
DEBUG   2025-08-29 15:37:41,484  pymodbus.logging:transaction.py:184 Current transaction state - TRANSACTION_COMPLETE
DEBUG   2025-08-29 15:37:41,484  pymodbus.logging:transaction.py:193 Running transaction 0
DEBUG   2025-08-29 15:37:41,484  pymodbus.logging:transaction.py:293 SEND: 0x1 0x3 0x30 0xc 0x0 0x2 0xb 0x8
DEBUG   2025-08-29 15:37:41,485  pymodbus.logging:serial.py:271 Changing state to IDLE - Last Frame End - 1756453061.484682 Current Time stamp - 1756453061.485717
DEBUG   2025-08-29 15:37:41,485  pymodbus.logging:serial.py:279 Waiting for 3.5 char before next send - 1.823 ms
DEBUG   2025-08-29 15:37:41,487  pymodbus.logging:base.py:250 New Transaction state "SENDING"
DEBUG   2025-08-29 15:37:41,487  pymodbus.logging:transaction.py:317 Changing transaction state from "SENDING" to "WAITING FOR REPLY"
DEBUG   2025-08-29 15:37:41,515  pymodbus.logging:transaction.py:419 Changing transaction state from "WAITING FOR REPLY" to "PROCESSING REPLY"
DEBUG   2025-08-29 15:37:41,515  pymodbus.logging:transaction.py:324 RECV: 0x1 0x3 0x4 0x0 0x0 0x0 0x0 0xfa 0x33
DEBUG   2025-08-29 15:37:41,515  pymodbus.logging:base.py:92 Processing: 0x1 0x3 0x4 0x0 0x0 0x0 0x0 0xfa 0x33
DEBUG   2025-08-29 15:37:41,515  pymodbus.logging:decoders.py:103 decode PDU for 3
DEBUG   2025-08-29 15:37:41,515  pymodbus.logging:base.py:102 Frame advanced, resetting header!!
DEBUG   2025-08-29 15:37:41,515  pymodbus.logging:transaction.py:67 Adding transaction 0
DEBUG   2025-08-29 15:37:41,515  pymodbus.logging:transaction.py:78 Getting transaction 0
DEBUG   2025-08-29 15:37:41,515  pymodbus.logging:transaction.py:258 Changing transaction state from "PROCESSING REPLY" to "TRANSACTION_COMPLETE"
INFO    2025-08-29 15:37:41,515  root:modbus_rtu_tcp.py:44 read_measurement ret is:ReadHoldingRegistersResponse (2)
INFO    2025-08-29 15:37:41,515  root:acudc260_modbus_get.py:215 read p_sum_power ret is:[0, 0]
DEBUG   2025-08-29 15:37:41,616  pymodbus.logging:transaction.py:184 Current transaction state - TRANSACTION_COMPLETE
DEBUG   2025-08-29 15:37:41,616  pymodbus.logging:transaction.py:193 Running transaction 0
DEBUG   2025-08-29 15:37:41,616  pymodbus.logging:transaction.py:293 SEND: 0x1 0x3 0x30 0x0 0x0 0x2 0xcb 0xb
DEBUG   2025-08-29 15:37:41,616  pymodbus.logging:serial.py:271 Changing state to IDLE - Last Frame End - 1756453061.515046 Current Time stamp - 1756453061.616505
DEBUG   2025-08-29 15:37:41,616  pymodbus.logging:base.py:250 New Transaction state "SENDING"
DEBUG   2025-08-29 15:37:41,616  pymodbus.logging:transaction.py:317 Changing transaction state from "SENDING" to "WAITING FOR REPLY"
DEBUG   2025-08-29 15:37:41,645  pymodbus.logging:transaction.py:419 Changing transaction state from "WAITING FOR REPLY" to "PROCESSING REPLY"
DEBUG   2025-08-29 15:37:41,645  pymodbus.logging:transaction.py:324 RECV: 0x1 0x3 0x4 0x0 0x0 0x0 0x0 0xfa 0x33
DEBUG   2025-08-29 15:37:41,645  pymodbus.logging:base.py:92 Processing: 0x1 0x3 0x4 0x0 0x0 0x0 0x0 0xfa 0x33
DEBUG   2025-08-29 15:37:41,645  pymodbus.logging:decoders.py:103 decode PDU for 3
DEBUG   2025-08-29 15:37:41,645  pymodbus.logging:base.py:102 Frame advanced, resetting header!!
DEBUG   2025-08-29 15:37:41,645  pymodbus.logging:transaction.py:67 Adding transaction 0
DEBUG   2025-08-29 15:37:41,645  pymodbus.logging:transaction.py:78 Getting transaction 0
DEBUG   2025-08-29 15:37:41,645  pymodbus.logging:transaction.py:258 Changing transaction state from "PROCESSING REPLY" to "TRANSACTION_COMPLETE"
INFO    2025-08-29 15:37:41,645  root:modbus_rtu_tcp.py:44 read_measurement ret is:ReadHoldingRegistersResponse (2)
INFO    2025-08-29 15:37:41,645  root:acudc260_modbus_get.py:131 read u_voltage ret is:[0, 0]
DEBUG   2025-08-29 15:37:41,645  pymodbus.logging:transaction.py:184 Current transaction state - TRANSACTION_COMPLETE
DEBUG   2025-08-29 15:37:41,645  pymodbus.logging:transaction.py:193 Running transaction 0
DEBUG   2025-08-29 15:37:41,645  pymodbus.logging:transaction.py:293 SEND: 0x1 0x3 0x30 0x2 0x0 0x2 0x6a 0xcb
DEBUG   2025-08-29 15:37:41,645  pymodbus.logging:serial.py:271 Changing state to IDLE - Last Frame End - 1756453061.645234 Current Time stamp - 1756453061.645234
DEBUG   2025-08-29 15:37:41,645  pymodbus.logging:serial.py:279 Waiting for 3.5 char before next send - 1.823 ms
DEBUG   2025-08-29 15:37:41,648  pymodbus.logging:base.py:250 New Transaction state "SENDING"
DEBUG   2025-08-29 15:37:41,648  pymodbus.logging:transaction.py:317 Changing transaction state from "SENDING" to "WAITING FOR REPLY"
DEBUG   2025-08-29 15:37:41,676  pymodbus.logging:transaction.py:419 Changing transaction state from "WAITING FOR REPLY" to "PROCESSING REPLY"
DEBUG   2025-08-29 15:37:41,676  pymodbus.logging:transaction.py:324 RECV: 0x1 0x3 0x4 0x3e 0xd2 0xff 0xdd 0xd6 0x4b
DEBUG   2025-08-29 15:37:41,676  pymodbus.logging:base.py:92 Processing: 0x1 0x3 0x4 0x3e 0xd2 0xff 0xdd 0xd6 0x4b
DEBUG   2025-08-29 15:37:41,676  pymodbus.logging:decoders.py:103 decode PDU for 3
DEBUG   2025-08-29 15:37:41,676  pymodbus.logging:base.py:102 Frame advanced, resetting header!!
DEBUG   2025-08-29 15:37:41,676  pymodbus.logging:transaction.py:67 Adding transaction 0
DEBUG   2025-08-29 15:37:41,676  pymodbus.logging:transaction.py:78 Getting transaction 0
DEBUG   2025-08-29 15:37:41,676  pymodbus.logging:transaction.py:258 Changing transaction state from "PROCESSING REPLY" to "TRANSACTION_COMPLETE"
INFO    2025-08-29 15:37:41,676  root:modbus_rtu_tcp.py:44 read_measurement ret is:ReadHoldingRegistersResponse (2)
INFO    2025-08-29 15:37:41,676  root:acudc260_modbus_get.py:145 read i1_current ret is:[16082, 65501]
DEBUG   2025-08-29 15:37:41,676  pymodbus.logging:transaction.py:184 Current transaction state - TRANSACTION_COMPLETE
DEBUG   2025-08-29 15:37:41,676  pymodbus.logging:transaction.py:193 Running transaction 0
DEBUG   2025-08-29 15:37:41,676  pymodbus.logging:transaction.py:293 SEND: 0x1 0x3 0x30 0x4 0x0 0x2 0x8a 0xca
DEBUG   2025-08-29 15:37:41,676  pymodbus.logging:serial.py:271 Changing state to IDLE - Last Frame End - 1756453061.676895 Current Time stamp - 1756453061.676895
DEBUG   2025-08-29 15:37:41,676  pymodbus.logging:serial.py:279 Waiting for 3.5 char before next send - 1.823 ms
DEBUG   2025-08-29 15:37:41,680  pymodbus.logging:base.py:250 New Transaction state "SENDING"
DEBUG   2025-08-29 15:37:41,680  pymodbus.logging:transaction.py:317 Changing transaction state from "SENDING" to "WAITING FOR REPLY"
DEBUG   2025-08-29 15:37:41,709  pymodbus.logging:transaction.py:419 Changing transaction state from "WAITING FOR REPLY" to "PROCESSING REPLY"
DEBUG   2025-08-29 15:37:41,709  pymodbus.logging:transaction.py:324 RECV: 0x1 0x3 0x4 0x3e 0xc7 0xa0 0x96 0xbe 0x48
DEBUG   2025-08-29 15:37:41,709  pymodbus.logging:base.py:92 Processing: 0x1 0x3 0x4 0x3e 0xc7 0xa0 0x96 0xbe 0x48
DEBUG   2025-08-29 15:37:41,709  pymodbus.logging:decoders.py:103 decode PDU for 3
DEBUG   2025-08-29 15:37:41,709  pymodbus.logging:base.py:102 Frame advanced, resetting header!!
DEBUG   2025-08-29 15:37:41,709  pymodbus.logging:transaction.py:67 Adding transaction 0
DEBUG   2025-08-29 15:37:41,709  pymodbus.logging:transaction.py:78 Getting transaction 0
DEBUG   2025-08-29 15:37:41,709  pymodbus.logging:transaction.py:258 Changing transaction state from "PROCESSING REPLY" to "TRANSACTION_COMPLETE"
INFO    2025-08-29 15:37:41,709  root:modbus_rtu_tcp.py:44 read_measurement ret is:ReadHoldingRegistersResponse (2)
INFO    2025-08-29 15:37:41,709  root:acudc260_modbus_get.py:159 read i2_current ret is:[16071, 41110]
DEBUG   2025-08-29 15:37:41,709  pymodbus.logging:transaction.py:184 Current transaction state - TRANSACTION_COMPLETE
DEBUG   2025-08-29 15:37:41,709  pymodbus.logging:transaction.py:193 Running transaction 0
DEBUG   2025-08-29 15:37:41,709  pymodbus.logging:transaction.py:293 SEND: 0x1 0x3 0x30 0x6 0x0 0x2 0x2b 0xa
DEBUG   2025-08-29 15:37:41,709  pymodbus.logging:serial.py:271 Changing state to IDLE - Last Frame End - 1756453061.709026 Current Time stamp - 1756453061.709026
DEBUG   2025-08-29 15:37:41,709  pymodbus.logging:serial.py:279 Waiting for 3.5 char before next send - 1.823 ms
DEBUG   2025-08-29 15:37:41,712  pymodbus.logging:base.py:250 New Transaction state "SENDING"
DEBUG   2025-08-29 15:37:41,712  pymodbus.logging:transaction.py:317 Changing transaction state from "SENDING" to "WAITING FOR REPLY"
DEBUG   2025-08-29 15:37:41,740  pymodbus.logging:transaction.py:419 Changing transaction state from "WAITING FOR REPLY" to "PROCESSING REPLY"
DEBUG   2025-08-29 15:37:41,740  pymodbus.logging:transaction.py:324 RECV: 0x1 0x3 0x4 0x3f 0x4d 0x50 0x3a 0xda 0x23
DEBUG   2025-08-29 15:37:41,740  pymodbus.logging:base.py:92 Processing: 0x1 0x3 0x4 0x3f 0x4d 0x50 0x3a 0xda 0x23
DEBUG   2025-08-29 15:37:41,740  pymodbus.logging:decoders.py:103 decode PDU for 3
DEBUG   2025-08-29 15:37:41,740  pymodbus.logging:base.py:102 Frame advanced, resetting header!!
DEBUG   2025-08-29 15:37:41,740  pymodbus.logging:transaction.py:67 Adding transaction 0
DEBUG   2025-08-29 15:37:41,740  pymodbus.logging:transaction.py:78 Getting transaction 0
DEBUG   2025-08-29 15:37:41,740  pymodbus.logging:transaction.py:258 Changing transaction state from "PROCESSING REPLY" to "TRANSACTION_COMPLETE"
INFO    2025-08-29 15:37:41,740  root:modbus_rtu_tcp.py:44 read_measurement ret is:ReadHoldingRegistersResponse (2)
INFO    2025-08-29 15:37:41,740  root:acudc260_modbus_get.py:173 read i_sum_current ret is:[16205, 20538]
DEBUG   2025-08-29 15:37:41,740  pymodbus.logging:transaction.py:184 Current transaction state - TRANSACTION_COMPLETE
DEBUG   2025-08-29 15:37:41,740  pymodbus.logging:transaction.py:193 Running transaction 0
DEBUG   2025-08-29 15:37:41,740  pymodbus.logging:transaction.py:293 SEND: 0x1 0x3 0x30 0x8 0x0 0x2 0x4a 0xc9
DEBUG   2025-08-29 15:37:41,742  pymodbus.logging:serial.py:271 Changing state to IDLE - Last Frame End - 1756453061.740995 Current Time stamp - 1756453061.742122
DEBUG   2025-08-29 15:37:41,742  pymodbus.logging:serial.py:279 Waiting for 3.5 char before next send - 1.823 ms
DEBUG   2025-08-29 15:37:41,744  pymodbus.logging:base.py:250 New Transaction state "SENDING"
DEBUG   2025-08-29 15:37:41,744  pymodbus.logging:transaction.py:317 Changing transaction state from "SENDING" to "WAITING FOR REPLY"
DEBUG   2025-08-29 15:37:41,771  pymodbus.logging:transaction.py:419 Changing transaction state from "WAITING FOR REPLY" to "PROCESSING REPLY"
DEBUG   2025-08-29 15:37:41,771  pymodbus.logging:transaction.py:324 RECV: 0x1 0x3 0x4 0x0 0x0 0x0 0x0 0xfa 0x33
DEBUG   2025-08-29 15:37:41,771  pymodbus.logging:base.py:92 Processing: 0x1 0x3 0x4 0x0 0x0 0x0 0x0 0xfa 0x33
DEBUG   2025-08-29 15:37:41,771  pymodbus.logging:decoders.py:103 decode PDU for 3
DEBUG   2025-08-29 15:37:41,771  pymodbus.logging:base.py:102 Frame advanced, resetting header!!
DEBUG   2025-08-29 15:37:41,771  pymodbus.logging:transaction.py:67 Adding transaction 0
DEBUG   2025-08-29 15:37:41,771  pymodbus.logging:transaction.py:78 Getting transaction 0
DEBUG   2025-08-29 15:37:41,771  pymodbus.logging:transaction.py:258 Changing transaction state from "PROCESSING REPLY" to "TRANSACTION_COMPLETE"
INFO    2025-08-29 15:37:41,771  root:modbus_rtu_tcp.py:44 read_measurement ret is:ReadHoldingRegistersResponse (2)
INFO    2025-08-29 15:37:41,771  root:acudc260_modbus_get.py:187 read p1_power ret is:[0, 0]
DEBUG   2025-08-29 15:37:41,771  pymodbus.logging:transaction.py:184 Current transaction state - TRANSACTION_COMPLETE
DEBUG   2025-08-29 15:37:41,771  pymodbus.logging:transaction.py:193 Running transaction 0
DEBUG   2025-08-29 15:37:41,771  pymodbus.logging:transaction.py:293 SEND: 0x1 0x3 0x30 0xa 0x0 0x2 0xeb 0x9
DEBUG   2025-08-29 15:37:41,772  pymodbus.logging:serial.py:271 Changing state to IDLE - Last Frame End - 1756453061.771601 Current Time stamp - 1756453061.771601
DEBUG   2025-08-29 15:37:41,772  pymodbus.logging:serial.py:279 Waiting for 3.5 char before next send - 1.823 ms
DEBUG   2025-08-29 15:37:41,774  pymodbus.logging:base.py:250 New Transaction state "SENDING"
DEBUG   2025-08-29 15:37:41,775  pymodbus.logging:transaction.py:317 Changing transaction state from "SENDING" to "WAITING FOR REPLY"
DEBUG   2025-08-29 15:37:41,804  pymodbus.logging:transaction.py:419 Changing transaction state from "WAITING FOR REPLY" to "PROCESSING REPLY"
DEBUG   2025-08-29 15:37:41,804  pymodbus.logging:transaction.py:324 RECV: 0x1 0x3 0x4 0x0 0x0 0x0 0x0 0xfa 0x33
DEBUG   2025-08-29 15:37:41,804  pymodbus.logging:base.py:92 Processing: 0x1 0x3 0x4 0x0 0x0 0x0 0x0 0xfa 0x33
DEBUG   2025-08-29 15:37:41,805  pymodbus.logging:decoders.py:103 decode PDU for 3
DEBUG   2025-08-29 15:37:41,805  pymodbus.logging:base.py:102 Frame advanced, resetting header!!
DEBUG   2025-08-29 15:37:41,805  pymodbus.logging:transaction.py:67 Adding transaction 0
DEBUG   2025-08-29 15:37:41,805  pymodbus.logging:transaction.py:78 Getting transaction 0
DEBUG   2025-08-29 15:37:41,805  pymodbus.logging:transaction.py:258 Changing transaction state from "PROCESSING REPLY" to "TRANSACTION_COMPLETE"
INFO    2025-08-29 15:37:41,805  root:modbus_rtu_tcp.py:44 read_measurement ret is:ReadHoldingRegistersResponse (2)
INFO    2025-08-29 15:37:41,805  root:acudc260_modbus_get.py:201 read p2_power ret is:[0, 0]
DEBUG   2025-08-29 15:37:41,805  pymodbus.logging:transaction.py:184 Current transaction state - TRANSACTION_COMPLETE
DEBUG   2025-08-29 15:37:41,805  pymodbus.logging:transaction.py:193 Running transaction 0
DEBUG   2025-08-29 15:37:41,805  pymodbus.logging:transaction.py:293 SEND: 0x1 0x3 0x30 0xc 0x0 0x2 0xb 0x8
DEBUG   2025-08-29 15:37:41,805  pymodbus.logging:serial.py:271 Changing state to IDLE - Last Frame End - 1756453061.804472 Current Time stamp - 1756453061.805002
DEBUG   2025-08-29 15:37:41,805  pymodbus.logging:serial.py:279 Waiting for 3.5 char before next send - 1.823 ms
DEBUG   2025-08-29 15:37:41,808  pymodbus.logging:base.py:250 New Transaction state "SENDING"
DEBUG   2025-08-29 15:37:41,808  pymodbus.logging:transaction.py:317 Changing transaction state from "SENDING" to "WAITING FOR REPLY"
DEBUG   2025-08-29 15:37:41,835  pymodbus.logging:transaction.py:419 Changing transaction state from "WAITING FOR REPLY" to "PROCESSING REPLY"
DEBUG   2025-08-29 15:37:41,835  pymodbus.logging:transaction.py:324 RECV: 0x1 0x3 0x4 0x0 0x0 0x0 0x0 0xfa 0x33
DEBUG   2025-08-29 15:37:41,835  pymodbus.logging:base.py:92 Processing: 0x1 0x3 0x4 0x0 0x0 0x0 0x0 0xfa 0x33
DEBUG   2025-08-29 15:37:41,835  pymodbus.logging:decoders.py:103 decode PDU for 3
DEBUG   2025-08-29 15:37:41,835  pymodbus.logging:base.py:102 Frame advanced, resetting header!!
DEBUG   2025-08-29 15:37:41,835  pymodbus.logging:transaction.py:67 Adding transaction 0
DEBUG   2025-08-29 15:37:41,835  pymodbus.logging:transaction.py:78 Getting transaction 0
DEBUG   2025-08-29 15:37:41,835  pymodbus.logging:transaction.py:258 Changing transaction state from "PROCESSING REPLY" to "TRANSACTION_COMPLETE"
INFO    2025-08-29 15:37:41,835  root:modbus_rtu_tcp.py:44 read_measurement ret is:ReadHoldingRegistersResponse (2)
INFO    2025-08-29 15:37:41,835  root:acudc260_modbus_get.py:215 read p_sum_power ret is:[0, 0]
DEBUG   2025-08-29 15:37:41,936  pymodbus.logging:transaction.py:184 Current transaction state - TRANSACTION_COMPLETE
DEBUG   2025-08-29 15:37:41,936  pymodbus.logging:transaction.py:193 Running transaction 0
DEBUG   2025-08-29 15:37:41,936  pymodbus.logging:transaction.py:293 SEND: 0x1 0x3 0x30 0x0 0x0 0x2 0xcb 0xb
DEBUG   2025-08-29 15:37:41,936  pymodbus.logging:serial.py:271 Changing state to IDLE - Last Frame End - 1756453061.835418 Current Time stamp - 1756453061.936718
DEBUG   2025-08-29 15:37:41,936  pymodbus.logging:base.py:250 New Transaction state "SENDING"
DEBUG   2025-08-29 15:37:41,936  pymodbus.logging:transaction.py:317 Changing transaction state from "SENDING" to "WAITING FOR REPLY"
DEBUG   2025-08-29 15:37:41,964  pymodbus.logging:transaction.py:419 Changing transaction state from "WAITING FOR REPLY" to "PROCESSING REPLY"
DEBUG   2025-08-29 15:37:41,964  pymodbus.logging:transaction.py:324 RECV: 0x1 0x3 0x4 0x0 0x0 0x0 0x0 0xfa 0x33
DEBUG   2025-08-29 15:37:41,964  pymodbus.logging:base.py:92 Processing: 0x1 0x3 0x4 0x0 0x0 0x0 0x0 0xfa 0x33
DEBUG   2025-08-29 15:37:41,964  pymodbus.logging:decoders.py:103 decode PDU for 3
DEBUG   2025-08-29 15:37:41,964  pymodbus.logging:base.py:102 Frame advanced, resetting header!!
DEBUG   2025-08-29 15:37:41,964  pymodbus.logging:transaction.py:67 Adding transaction 0
DEBUG   2025-08-29 15:37:41,964  pymodbus.logging:transaction.py:78 Getting transaction 0
DEBUG   2025-08-29 15:37:41,964  pymodbus.logging:transaction.py:258 Changing transaction state from "PROCESSING REPLY" to "TRANSACTION_COMPLETE"
INFO    2025-08-29 15:37:41,964  root:modbus_rtu_tcp.py:44 read_measurement ret is:ReadHoldingRegistersResponse (2)
INFO    2025-08-29 15:37:41,964  root:acudc260_modbus_get.py:131 read u_voltage ret is:[0, 0]
DEBUG   2025-08-29 15:37:41,964  pymodbus.logging:transaction.py:184 Current transaction state - TRANSACTION_COMPLETE
DEBUG   2025-08-29 15:37:41,964  pymodbus.logging:transaction.py:193 Running transaction 0
DEBUG   2025-08-29 15:37:41,964  pymodbus.logging:transaction.py:293 SEND: 0x1 0x3 0x30 0x2 0x0 0x2 0x6a 0xcb
DEBUG   2025-08-29 15:37:41,964  pymodbus.logging:serial.py:271 Changing state to IDLE - Last Frame End - 1756453061.964561 Current Time stamp - 1756453061.964561
DEBUG   2025-08-29 15:37:41,964  pymodbus.logging:serial.py:279 Waiting for 3.5 char before next send - 1.823 ms
DEBUG   2025-08-29 15:37:41,968  pymodbus.logging:base.py:250 New Transaction state "SENDING"
DEBUG   2025-08-29 15:37:41,968  pymodbus.logging:transaction.py:317 Changing transaction state from "SENDING" to "WAITING FOR REPLY"
DEBUG   2025-08-29 15:37:41,997  pymodbus.logging:transaction.py:419 Changing transaction state from "WAITING FOR REPLY" to "PROCESSING REPLY"
DEBUG   2025-08-29 15:37:41,997  pymodbus.logging:transaction.py:324 RECV: 0x1 0x3 0x4 0x3e 0xd6 0x70 0x5d 0xf2 0x1a
DEBUG   2025-08-29 15:37:41,997  pymodbus.logging:base.py:92 Processing: 0x1 0x3 0x4 0x3e 0xd6 0x70 0x5d 0xf2 0x1a
DEBUG   2025-08-29 15:37:41,997  pymodbus.logging:decoders.py:103 decode PDU for 3
DEBUG   2025-08-29 15:37:41,997  pymodbus.logging:base.py:102 Frame advanced, resetting header!!
DEBUG   2025-08-29 15:37:41,997  pymodbus.logging:transaction.py:67 Adding transaction 0
DEBUG   2025-08-29 15:37:41,997  pymodbus.logging:transaction.py:78 Getting transaction 0
DEBUG   2025-08-29 15:37:41,997  pymodbus.logging:transaction.py:258 Changing transaction state from "PROCESSING REPLY" to "TRANSACTION_COMPLETE"
INFO    2025-08-29 15:37:41,997  root:modbus_rtu_tcp.py:44 read_measurement ret is:ReadHoldingRegistersResponse (2)
INFO    2025-08-29 15:37:41,997  root:acudc260_modbus_get.py:145 read i1_current ret is:[16086, 28765]
DEBUG   2025-08-29 15:37:41,997  pymodbus.logging:transaction.py:184 Current transaction state - TRANSACTION_COMPLETE
DEBUG   2025-08-29 15:37:41,997  pymodbus.logging:transaction.py:193 Running transaction 0
DEBUG   2025-08-29 15:37:41,997  pymodbus.logging:transaction.py:293 SEND: 0x1 0x3 0x30 0x4 0x0 0x2 0x8a 0xca
DEBUG   2025-08-29 15:37:41,997  pymodbus.logging:serial.py:271 Changing state to IDLE - Last Frame End - 1756453061.997033 Current Time stamp - 1756453061.997033
DEBUG   2025-08-29 15:37:41,997  pymodbus.logging:serial.py:279 Waiting for 3.5 char before next send - 1.823 ms
DEBUG   2025-08-29 15:37:42,000  pymodbus.logging:base.py:250 New Transaction state "SENDING"
DEBUG   2025-08-29 15:37:42,000  pymodbus.logging:transaction.py:317 Changing transaction state from "SENDING" to "WAITING FOR REPLY"
DEBUG   2025-08-29 15:37:42,026  pymodbus.logging:transaction.py:419 Changing transaction state from "WAITING FOR REPLY" to "PROCESSING REPLY"
DEBUG   2025-08-29 15:37:42,026  pymodbus.logging:transaction.py:324 RECV: 0x1 0x3 0x4 0x3e 0xc8 0x35 0x76 0xe0 0x93
DEBUG   2025-08-29 15:37:42,026  pymodbus.logging:base.py:92 Processing: 0x1 0x3 0x4 0x3e 0xc8 0x35 0x76 0xe0 0x93
DEBUG   2025-08-29 15:37:42,026  pymodbus.logging:decoders.py:103 decode PDU for 3
DEBUG   2025-08-29 15:37:42,026  pymodbus.logging:base.py:102 Frame advanced, resetting header!!
DEBUG   2025-08-29 15:37:42,026  pymodbus.logging:transaction.py:67 Adding transaction 0
DEBUG   2025-08-29 15:37:42,026  pymodbus.logging:transaction.py:78 Getting transaction 0
DEBUG   2025-08-29 15:37:42,026  pymodbus.logging:transaction.py:258 Changing transaction state from "PROCESSING REPLY" to "TRANSACTION_COMPLETE"
INFO    2025-08-29 15:37:42,026  root:modbus_rtu_tcp.py:44 read_measurement ret is:ReadHoldingRegistersResponse (2)
INFO    2025-08-29 15:37:42,026  root:acudc260_modbus_get.py:159 read i2_current ret is:[16072, 13686]
DEBUG   2025-08-29 15:37:42,026  pymodbus.logging:transaction.py:184 Current transaction state - TRANSACTION_COMPLETE
DEBUG   2025-08-29 15:37:42,026  pymodbus.logging:transaction.py:193 Running transaction 0
DEBUG   2025-08-29 15:37:42,026  pymodbus.logging:transaction.py:293 SEND: 0x1 0x3 0x30 0x6 0x0 0x2 0x2b 0xa
DEBUG   2025-08-29 15:37:42,026  pymodbus.logging:serial.py:271 Changing state to IDLE - Last Frame End - 1756453062.026735 Current Time stamp - 1756453062.026735
DEBUG   2025-08-29 15:37:42,026  pymodbus.logging:serial.py:279 Waiting for 3.5 char before next send - 1.823 ms
DEBUG   2025-08-29 15:37:42,030  pymodbus.logging:base.py:250 New Transaction state "SENDING"
DEBUG   2025-08-29 15:37:42,030  pymodbus.logging:transaction.py:317 Changing transaction state from "SENDING" to "WAITING FOR REPLY"
DEBUG   2025-08-29 15:37:42,058  pymodbus.logging:transaction.py:419 Changing transaction state from "WAITING FOR REPLY" to "PROCESSING REPLY"
DEBUG   2025-08-29 15:37:42,058  pymodbus.logging:transaction.py:324 RECV: 0x1 0x3 0x4 0x3f 0x4e 0xa4 0xa6 0x6c 0x8a
