INFO    2025-08-29 09:46:49,257  root:acudc260_fast_test.py:477 测试进度:['test_case', 'Voltage', 'Current_1', 'Current_2', '等待时间(h)', 'voltage_accuracy', 'current_accuracy', 'power_accuracy', '采样次数', '采样间隔'],执行时间:2025_08_29 09:46:49
INFO    2025-08-29 09:46:49,258  root:source_control.py:26 <源输出>
    电压检定点:0.0%;
    电流检定点:0.10400000000000001%;
    电压纹波比例:0%;
    电流纹波比例:0%;
    电压纹波相位:0度;
    电流纹波相位:0度;
    纹波频率:300Hz;
    电能方向:正向;
    <End>
INFO    2025-08-29 09:46:52,342  root:source_control.py:30 recv_data ret is:<源输出应答>
电压总值:0.000000V;
电流总值:0.520000A;
功率总值:0.000000W;
电压直流:0.000000V;
电流直流:0.520000A;
功率直流:0.000000W;
电压纹波:0.000000V;
电流纹波:0.000000A;
功率纹波:0.000000W;
<End>
DEBUG   2025-08-29 09:47:02,443  pymodbus.logging:transaction.py:184 Current transaction state - IDLE
DEBUG   2025-08-29 09:47:02,444  pymodbus.logging:transaction.py:193 Running transaction 0
DEBUG   2025-08-29 09:47:02,444  pymodbus.logging:transaction.py:293 SEND: 0x1 0x3 0x30 0x0 0x0 0x2 0xcb 0xb
DEBUG   2025-08-29 09:47:02,444  pymodbus.logging:base.py:250 New Transaction state "SENDING"
DEBUG   2025-08-29 09:47:02,444  pymodbus.logging:transaction.py:317 Changing transaction state from "SENDING" to "WAITING FOR REPLY"
DEBUG   2025-08-29 09:47:02,475  pymodbus.logging:transaction.py:419 Changing transaction state from "WAITING FOR REPLY" to "PROCESSING REPLY"
DEBUG   2025-08-29 09:47:02,475  pymodbus.logging:transaction.py:324 RECV: 0x1 0x3 0x4 0x0 0x0 0x0 0x0 0xfa 0x33
DEBUG   2025-08-29 09:47:02,475  pymodbus.logging:base.py:92 Processing: 0x1 0x3 0x4 0x0 0x0 0x0 0x0 0xfa 0x33
DEBUG   2025-08-29 09:47:02,475  pymodbus.logging:decoders.py:103 decode PDU for 3
DEBUG   2025-08-29 09:47:02,475  pymodbus.logging:base.py:102 Frame advanced, resetting header!!
DEBUG   2025-08-29 09:47:02,475  pymodbus.logging:transaction.py:67 Adding transaction 0
DEBUG   2025-08-29 09:47:02,475  pymodbus.logging:transaction.py:78 Getting transaction 0
DEBUG   2025-08-29 09:47:02,475  pymodbus.logging:transaction.py:258 Changing transaction state from "PROCESSING REPLY" to "TRANSACTION_COMPLETE"
INFO    2025-08-29 09:47:02,475  root:modbus_rtu_tcp.py:44 read_measurement ret is:ReadHoldingRegistersResponse (2)
INFO    2025-08-29 09:47:02,475  root:acudc260_modbus_get.py:131 read u_voltage ret is:[0, 0]
DEBUG   2025-08-29 09:47:02,475  pymodbus.logging:transaction.py:184 Current transaction state - TRANSACTION_COMPLETE
DEBUG   2025-08-29 09:47:02,475  pymodbus.logging:transaction.py:193 Running transaction 0
DEBUG   2025-08-29 09:47:02,475  pymodbus.logging:transaction.py:293 SEND: 0x1 0x3 0x30 0x2 0x0 0x2 0x6a 0xcb
DEBUG   2025-08-29 09:47:02,475  pymodbus.logging:serial.py:271 Changing state to IDLE - Last Frame End - 1756432022.475336 Current Time stamp - 1756432022.475336
DEBUG   2025-08-29 09:47:02,475  pymodbus.logging:serial.py:279 Waiting for 3.5 char before next send - 1.823 ms
DEBUG   2025-08-29 09:47:02,478  pymodbus.logging:base.py:250 New Transaction state "SENDING"
DEBUG   2025-08-29 09:47:02,478  pymodbus.logging:transaction.py:317 Changing transaction state from "SENDING" to "WAITING FOR REPLY"
DEBUG   2025-08-29 09:47:02,507  pymodbus.logging:transaction.py:419 Changing transaction state from "WAITING FOR REPLY" to "PROCESSING REPLY"
DEBUG   2025-08-29 09:47:02,507  pymodbus.logging:transaction.py:324 RECV: 0x1 0x3 0x4 0x3f 0x3 0xd7 0x50 0x59 0xeb
DEBUG   2025-08-29 09:47:02,507  pymodbus.logging:base.py:92 Processing: 0x1 0x3 0x4 0x3f 0x3 0xd7 0x50 0x59 0xeb
DEBUG   2025-08-29 09:47:02,507  pymodbus.logging:decoders.py:103 decode PDU for 3
DEBUG   2025-08-29 09:47:02,507  pymodbus.logging:base.py:102 Frame advanced, resetting header!!
DEBUG   2025-08-29 09:47:02,507  pymodbus.logging:transaction.py:67 Adding transaction 0
DEBUG   2025-08-29 09:47:02,508  pymodbus.logging:transaction.py:78 Getting transaction 0
DEBUG   2025-08-29 09:47:02,508  pymodbus.logging:transaction.py:258 Changing transaction state from "PROCESSING REPLY" to "TRANSACTION_COMPLETE"
INFO    2025-08-29 09:47:02,508  root:modbus_rtu_tcp.py:44 read_measurement ret is:ReadHoldingRegistersResponse (2)
INFO    2025-08-29 09:47:02,508  root:acudc260_modbus_get.py:145 read i1_current ret is:[16131, 55120]
DEBUG   2025-08-29 09:47:02,508  pymodbus.logging:transaction.py:184 Current transaction state - TRANSACTION_COMPLETE
DEBUG   2025-08-29 09:47:02,508  pymodbus.logging:transaction.py:193 Running transaction 0
DEBUG   2025-08-29 09:47:02,508  pymodbus.logging:transaction.py:293 SEND: 0x1 0x3 0x30 0x4 0x0 0x2 0x8a 0xca
DEBUG   2025-08-29 09:47:02,508  pymodbus.logging:serial.py:271 Changing state to IDLE - Last Frame End - 1756432022.507728 Current Time stamp - 1756432022.508722
DEBUG   2025-08-29 09:47:02,508  pymodbus.logging:serial.py:279 Waiting for 3.5 char before next send - 1.823 ms
DEBUG   2025-08-29 09:47:02,511  pymodbus.logging:base.py:250 New Transaction state "SENDING"
DEBUG   2025-08-29 09:47:02,512  pymodbus.logging:transaction.py:317 Changing transaction state from "SENDING" to "WAITING FOR REPLY"
DEBUG   2025-08-29 09:47:02,539  pymodbus.logging:transaction.py:419 Changing transaction state from "WAITING FOR REPLY" to "PROCESSING REPLY"
DEBUG   2025-08-29 09:47:02,539  pymodbus.logging:transaction.py:324 RECV: 0x1 0x3 0x4 0x3f 0x2 0x90 0x8 0x3a 0x21
DEBUG   2025-08-29 09:47:02,539  pymodbus.logging:base.py:92 Processing: 0x1 0x3 0x4 0x3f 0x2 0x90 0x8 0x3a 0x21
DEBUG   2025-08-29 09:47:02,539  pymodbus.logging:decoders.py:103 decode PDU for 3
DEBUG   2025-08-29 09:47:02,540  pymodbus.logging:base.py:102 Frame advanced, resetting header!!
DEBUG   2025-08-29 09:47:02,540  pymodbus.logging:transaction.py:67 Adding transaction 0
DEBUG   2025-08-29 09:47:02,540  pymodbus.logging:transaction.py:78 Getting transaction 0
DEBUG   2025-08-29 09:47:02,540  pymodbus.logging:transaction.py:258 Changing transaction state from "PROCESSING REPLY" to "TRANSACTION_COMPLETE"
INFO    2025-08-29 09:47:02,540  root:modbus_rtu_tcp.py:44 read_measurement ret is:ReadHoldingRegistersResponse (2)
INFO    2025-08-29 09:47:02,540  root:acudc260_modbus_get.py:159 read i2_current ret is:[16130, 36872]
DEBUG   2025-08-29 09:47:02,540  pymodbus.logging:transaction.py:184 Current transaction state - TRANSACTION_COMPLETE
DEBUG   2025-08-29 09:47:02,540  pymodbus.logging:transaction.py:193 Running transaction 0
DEBUG   2025-08-29 09:47:02,540  pymodbus.logging:transaction.py:293 SEND: 0x1 0x3 0x30 0x6 0x0 0x2 0x2b 0xa
DEBUG   2025-08-29 09:47:02,540  pymodbus.logging:serial.py:271 Changing state to IDLE - Last Frame End - 1756432022.539691 Current Time stamp - 1756432022.540692
DEBUG   2025-08-29 09:47:02,540  pymodbus.logging:serial.py:279 Waiting for 3.5 char before next send - 1.823 ms
DEBUG   2025-08-29 09:47:02,543  pymodbus.logging:base.py:250 New Transaction state "SENDING"
DEBUG   2025-08-29 09:47:02,543  pymodbus.logging:transaction.py:317 Changing transaction state from "SENDING" to "WAITING FOR REPLY"
DEBUG   2025-08-29 09:47:02,571  pymodbus.logging:transaction.py:419 Changing transaction state from "WAITING FOR REPLY" to "PROCESSING REPLY"
DEBUG   2025-08-29 09:47:02,571  pymodbus.logging:transaction.py:324 RECV: 0x1 0x3 0x4 0x3f 0x83 0x7b 0x28 0x25 0x21
DEBUG   2025-08-29 09:47:02,571  pymodbus.logging:base.py:92 Processing: 0x1 0x3 0x4 0x3f 0x83 0x7b 0x28 0x25 0x21
DEBUG   2025-08-29 09:47:02,571  pymodbus.logging:decoders.py:103 decode PDU for 3
DEBUG   2025-08-29 09:47:02,571  pymodbus.logging:base.py:102 Frame advanced, resetting header!!
DEBUG   2025-08-29 09:47:02,572  pymodbus.logging:transaction.py:67 Adding transaction 0
DEBUG   2025-08-29 09:47:02,572  pymodbus.logging:transaction.py:78 Getting transaction 0
DEBUG   2025-08-29 09:47:02,572  pymodbus.logging:transaction.py:258 Changing transaction state from "PROCESSING REPLY" to "TRANSACTION_COMPLETE"
INFO    2025-08-29 09:47:02,572  root:modbus_rtu_tcp.py:44 read_measurement ret is:ReadHoldingRegistersResponse (2)
INFO    2025-08-29 09:47:02,572  root:acudc260_modbus_get.py:173 read i_sum_current ret is:[16259, 31528]
DEBUG   2025-08-29 09:47:02,572  pymodbus.logging:transaction.py:184 Current transaction state - TRANSACTION_COMPLETE
DEBUG   2025-08-29 09:47:02,572  pymodbus.logging:transaction.py:193 Running transaction 0
DEBUG   2025-08-29 09:47:02,572  pymodbus.logging:transaction.py:293 SEND: 0x1 0x3 0x30 0x8 0x0 0x2 0x4a 0xc9
DEBUG   2025-08-29 09:47:02,572  pymodbus.logging:serial.py:271 Changing state to IDLE - Last Frame End - 1756432022.571583 Current Time stamp - 1756432022.572581
DEBUG   2025-08-29 09:47:02,572  pymodbus.logging:serial.py:279 Waiting for 3.5 char before next send - 1.823 ms
DEBUG   2025-08-29 09:47:02,575  pymodbus.logging:base.py:250 New Transaction state "SENDING"
DEBUG   2025-08-29 09:47:02,575  pymodbus.logging:transaction.py:317 Changing transaction state from "SENDING" to "WAITING FOR REPLY"
DEBUG   2025-08-29 09:47:02,606  pymodbus.logging:transaction.py:419 Changing transaction state from "WAITING FOR REPLY" to "PROCESSING REPLY"
DEBUG   2025-08-29 09:47:02,606  pymodbus.logging:transaction.py:324 RECV: 0x1 0x3 0x4 0x0 0x0 0x0 0x0 0xfa 0x33
DEBUG   2025-08-29 09:47:02,606  pymodbus.logging:base.py:92 Processing: 0x1 0x3 0x4 0x0 0x0 0x0 0x0 0xfa 0x33
DEBUG   2025-08-29 09:47:02,606  pymodbus.logging:decoders.py:103 decode PDU for 3
DEBUG   2025-08-29 09:47:02,606  pymodbus.logging:base.py:102 Frame advanced, resetting header!!
DEBUG   2025-08-29 09:47:02,606  pymodbus.logging:transaction.py:67 Adding transaction 0
DEBUG   2025-08-29 09:47:02,606  pymodbus.logging:transaction.py:78 Getting transaction 0
DEBUG   2025-08-29 09:47:02,606  pymodbus.logging:transaction.py:258 Changing transaction state from "PROCESSING REPLY" to "TRANSACTION_COMPLETE"
INFO    2025-08-29 09:47:02,606  root:modbus_rtu_tcp.py:44 read_measurement ret is:ReadHoldingRegistersResponse (2)
INFO    2025-08-29 09:47:02,606  root:acudc260_modbus_get.py:187 read p1_power ret is:[0, 0]
DEBUG   2025-08-29 09:47:02,606  pymodbus.logging:transaction.py:184 Current transaction state - TRANSACTION_COMPLETE
DEBUG   2025-08-29 09:47:02,606  pymodbus.logging:transaction.py:193 Running transaction 0
DEBUG   2025-08-29 09:47:02,606  pymodbus.logging:transaction.py:293 SEND: 0x1 0x3 0x30 0xa 0x0 0x2 0xeb 0x9
DEBUG   2025-08-29 09:47:02,606  pymodbus.logging:serial.py:271 Changing state to IDLE - Last Frame End - 1756432022.606927 Current Time stamp - 1756432022.606927
DEBUG   2025-08-29 09:47:02,606  pymodbus.logging:serial.py:279 Waiting for 3.5 char before next send - 1.823 ms
DEBUG   2025-08-29 09:47:02,609  pymodbus.logging:base.py:250 New Transaction state "SENDING"
DEBUG   2025-08-29 09:47:02,609  pymodbus.logging:transaction.py:317 Changing transaction state from "SENDING" to "WAITING FOR REPLY"
DEBUG   2025-08-29 09:47:02,638  pymodbus.logging:transaction.py:419 Changing transaction state from "WAITING FOR REPLY" to "PROCESSING REPLY"
DEBUG   2025-08-29 09:47:02,639  pymodbus.logging:transaction.py:324 RECV: 0x1 0x3 0x4 0x0 0x0 0x0 0x0 0xfa 0x33
DEBUG   2025-08-29 09:47:02,639  pymodbus.logging:base.py:92 Processing: 0x1 0x3 0x4 0x0 0x0 0x0 0x0 0xfa 0x33
DEBUG   2025-08-29 09:47:02,639  pymodbus.logging:decoders.py:103 decode PDU for 3
DEBUG   2025-08-29 09:47:02,639  pymodbus.logging:base.py:102 Frame advanced, resetting header!!
DEBUG   2025-08-29 09:47:02,639  pymodbus.logging:transaction.py:67 Adding transaction 0
DEBUG   2025-08-29 09:47:02,639  pymodbus.logging:transaction.py:78 Getting transaction 0
DEBUG   2025-08-29 09:47:02,639  pymodbus.logging:transaction.py:258 Changing transaction state from "PROCESSING REPLY" to "TRANSACTION_COMPLETE"
INFO    2025-08-29 09:47:02,639  root:modbus_rtu_tcp.py:44 read_measurement ret is:ReadHoldingRegistersResponse (2)
INFO    2025-08-29 09:47:02,639  root:acudc260_modbus_get.py:201 read p2_power ret is:[0, 0]
DEBUG   2025-08-29 09:47:02,639  pymodbus.logging:transaction.py:184 Current transaction state - TRANSACTION_COMPLETE
DEBUG   2025-08-29 09:47:02,640  pymodbus.logging:transaction.py:193 Running transaction 0
DEBUG   2025-08-29 09:47:02,640  pymodbus.logging:transaction.py:293 SEND: 0x1 0x3 0x30 0xc 0x0 0x2 0xb 0x8
DEBUG   2025-08-29 09:47:02,640  pymodbus.logging:serial.py:271 Changing state to IDLE - Last Frame End - 1756432022.638824 Current Time stamp - 1756432022.640348
DEBUG   2025-08-29 09:47:02,640  pymodbus.logging:serial.py:279 Waiting for 3.5 char before next send - 1.823 ms
DEBUG   2025-08-29 09:47:02,642  pymodbus.logging:base.py:250 New Transaction state "SENDING"
DEBUG   2025-08-29 09:47:02,642  pymodbus.logging:transaction.py:317 Changing transaction state from "SENDING" to "WAITING FOR REPLY"
DEBUG   2025-08-29 09:47:02,671  pymodbus.logging:transaction.py:419 Changing transaction state from "WAITING FOR REPLY" to "PROCESSING REPLY"
DEBUG   2025-08-29 09:47:02,671  pymodbus.logging:transaction.py:324 RECV: 0x1 0x3 0x4 0x0 0x0 0x0 0x0 0xfa 0x33
DEBUG   2025-08-29 09:47:02,671  pymodbus.logging:base.py:92 Processing: 0x1 0x3 0x4 0x0 0x0 0x0 0x0 0xfa 0x33
DEBUG   2025-08-29 09:47:02,671  pymodbus.logging:decoders.py:103 decode PDU for 3
DEBUG   2025-08-29 09:47:02,671  pymodbus.logging:base.py:102 Frame advanced, resetting header!!
DEBUG   2025-08-29 09:47:02,671  pymodbus.logging:transaction.py:67 Adding transaction 0
DEBUG   2025-08-29 09:47:02,672  pymodbus.logging:transaction.py:78 Getting transaction 0
DEBUG   2025-08-29 09:47:02,672  pymodbus.logging:transaction.py:258 Changing transaction state from "PROCESSING REPLY" to "TRANSACTION_COMPLETE"
INFO    2025-08-29 09:47:02,672  root:modbus_rtu_tcp.py:44 read_measurement ret is:ReadHoldingRegistersResponse (2)
INFO    2025-08-29 09:47:02,672  root:acudc260_modbus_get.py:215 read p_sum_power ret is:[0, 0]
DEBUG   2025-08-29 09:47:02,772  pymodbus.logging:transaction.py:184 Current transaction state - TRANSACTION_COMPLETE
DEBUG   2025-08-29 09:47:02,772  pymodbus.logging:transaction.py:193 Running transaction 0
DEBUG   2025-08-29 09:47:02,772  pymodbus.logging:transaction.py:293 SEND: 0x1 0x3 0x30 0x0 0x0 0x2 0xcb 0xb
DEBUG   2025-08-29 09:47:02,772  pymodbus.logging:serial.py:271 Changing state to IDLE - Last Frame End - 1756432022.671351 Current Time stamp - 1756432022.772952
DEBUG   2025-08-29 09:47:02,772  pymodbus.logging:base.py:250 New Transaction state "SENDING"
DEBUG   2025-08-29 09:47:02,772  pymodbus.logging:transaction.py:317 Changing transaction state from "SENDING" to "WAITING FOR REPLY"
DEBUG   2025-08-29 09:47:02,799  pymodbus.logging:transaction.py:419 Changing transaction state from "WAITING FOR REPLY" to "PROCESSING REPLY"
DEBUG   2025-08-29 09:47:02,799  pymodbus.logging:transaction.py:324 RECV: 0x1 0x3 0x4 0x0 0x0 0x0 0x0 0xfa 0x33
DEBUG   2025-08-29 09:47:02,799  pymodbus.logging:base.py:92 Processing: 0x1 0x3 0x4 0x0 0x0 0x0 0x0 0xfa 0x33
DEBUG   2025-08-29 09:47:02,799  pymodbus.logging:decoders.py:103 decode PDU for 3
DEBUG   2025-08-29 09:47:02,799  pymodbus.logging:base.py:102 Frame advanced, resetting header!!
DEBUG   2025-08-29 09:47:02,799  pymodbus.logging:transaction.py:67 Adding transaction 0
DEBUG   2025-08-29 09:47:02,799  pymodbus.logging:transaction.py:78 Getting transaction 0
DEBUG   2025-08-29 09:47:02,799  pymodbus.logging:transaction.py:258 Changing transaction state from "PROCESSING REPLY" to "TRANSACTION_COMPLETE"
INFO    2025-08-29 09:47:02,799  root:modbus_rtu_tcp.py:44 read_measurement ret is:ReadHoldingRegistersResponse (2)
INFO    2025-08-29 09:47:02,799  root:acudc260_modbus_get.py:131 read u_voltage ret is:[0, 0]
DEBUG   2025-08-29 09:47:02,799  pymodbus.logging:transaction.py:184 Current transaction state - TRANSACTION_COMPLETE
DEBUG   2025-08-29 09:47:02,799  pymodbus.logging:transaction.py:193 Running transaction 0
DEBUG   2025-08-29 09:47:02,799  pymodbus.logging:transaction.py:293 SEND: 0x1 0x3 0x30 0x2 0x0 0x2 0x6a 0xcb
DEBUG   2025-08-29 09:47:02,799  pymodbus.logging:serial.py:271 Changing state to IDLE - Last Frame End - 1756432022.799093 Current Time stamp - 1756432022.799603
DEBUG   2025-08-29 09:47:02,800  pymodbus.logging:serial.py:279 Waiting for 3.5 char before next send - 1.823 ms
DEBUG   2025-08-29 09:47:02,802  pymodbus.logging:base.py:250 New Transaction state "SENDING"
DEBUG   2025-08-29 09:47:02,803  pymodbus.logging:transaction.py:317 Changing transaction state from "SENDING" to "WAITING FOR REPLY"
DEBUG   2025-08-29 09:47:02,830  pymodbus.logging:transaction.py:419 Changing transaction state from "WAITING FOR REPLY" to "PROCESSING REPLY"
DEBUG   2025-08-29 09:47:02,830  pymodbus.logging:transaction.py:324 RECV: 0x1 0x3 0x4 0x3f 0x4 0xba 0x78 0xc4 0xa4
DEBUG   2025-08-29 09:47:02,830  pymodbus.logging:base.py:92 Processing: 0x1 0x3 0x4 0x3f 0x4 0xba 0x78 0xc4 0xa4
DEBUG   2025-08-29 09:47:02,830  pymodbus.logging:decoders.py:103 decode PDU for 3
DEBUG   2025-08-29 09:47:02,830  pymodbus.logging:base.py:102 Frame advanced, resetting header!!
DEBUG   2025-08-29 09:47:02,830  pymodbus.logging:transaction.py:67 Adding transaction 0
DEBUG   2025-08-29 09:47:02,830  pymodbus.logging:transaction.py:78 Getting transaction 0
DEBUG   2025-08-29 09:47:02,830  pymodbus.logging:transaction.py:258 Changing transaction state from "PROCESSING REPLY" to "TRANSACTION_COMPLETE"
INFO    2025-08-29 09:47:02,830  root:modbus_rtu_tcp.py:44 read_measurement ret is:ReadHoldingRegistersResponse (2)
INFO    2025-08-29 09:47:02,830  root:acudc260_modbus_get.py:145 read i1_current ret is:[16132, 47736]
DEBUG   2025-08-29 09:47:02,830  pymodbus.logging:transaction.py:184 Current transaction state - TRANSACTION_COMPLETE
DEBUG   2025-08-29 09:47:02,830  pymodbus.logging:transaction.py:193 Running transaction 0
DEBUG   2025-08-29 09:47:02,830  pymodbus.logging:transaction.py:293 SEND: 0x1 0x3 0x30 0x4 0x0 0x2 0x8a 0xca
DEBUG   2025-08-29 09:47:02,830  pymodbus.logging:serial.py:271 Changing state to IDLE - Last Frame End - 1756432022.830933 Current Time stamp - 1756432022.830933
DEBUG   2025-08-29 09:47:02,830  pymodbus.logging:serial.py:279 Waiting for 3.5 char before next send - 1.823 ms
DEBUG   2025-08-29 09:47:02,833  pymodbus.logging:base.py:250 New Transaction state "SENDING"
DEBUG   2025-08-29 09:47:02,834  pymodbus.logging:transaction.py:317 Changing transaction state from "SENDING" to "WAITING FOR REPLY"
DEBUG   2025-08-29 09:47:02,862  pymodbus.logging:transaction.py:419 Changing transaction state from "WAITING FOR REPLY" to "PROCESSING REPLY"
DEBUG   2025-08-29 09:47:02,862  pymodbus.logging:transaction.py:324 RECV: 0x1 0x3 0x4 0x3f 0x2 0x99 0x25 0xfc 0x6c
DEBUG   2025-08-29 09:47:02,862  pymodbus.logging:base.py:92 Processing: 0x1 0x3 0x4 0x3f 0x2 0x99 0x25 0xfc 0x6c
DEBUG   2025-08-29 09:47:02,862  pymodbus.logging:decoders.py:103 decode PDU for 3
DEBUG   2025-08-29 09:47:02,862  pymodbus.logging:base.py:102 Frame advanced, resetting header!!
DEBUG   2025-08-29 09:47:02,862  pymodbus.logging:transaction.py:67 Adding transaction 0
DEBUG   2025-08-29 09:47:02,862  pymodbus.logging:transaction.py:78 Getting transaction 0
DEBUG   2025-08-29 09:47:02,863  pymodbus.logging:transaction.py:258 Changing transaction state from "PROCESSING REPLY" to "TRANSACTION_COMPLETE"
INFO    2025-08-29 09:47:02,863  root:modbus_rtu_tcp.py:44 read_measurement ret is:ReadHoldingRegistersResponse (2)
INFO    2025-08-29 09:47:02,863  root:acudc260_modbus_get.py:159 read i2_current ret is:[16130, 39205]
DEBUG   2025-08-29 09:47:02,863  pymodbus.logging:transaction.py:184 Current transaction state - TRANSACTION_COMPLETE
DEBUG   2025-08-29 09:47:02,863  pymodbus.logging:transaction.py:193 Running transaction 0
DEBUG   2025-08-29 09:47:02,863  pymodbus.logging:transaction.py:293 SEND: 0x1 0x3 0x30 0x6 0x0 0x2 0x2b 0xa
DEBUG   2025-08-29 09:47:02,863  pymodbus.logging:serial.py:271 Changing state to IDLE - Last Frame End - 1756432022.862818 Current Time stamp - 1756432022.86384
DEBUG   2025-08-29 09:47:02,863  pymodbus.logging:serial.py:279 Waiting for 3.5 char before next send - 1.823 ms
DEBUG   2025-08-29 09:47:02,866  pymodbus.logging:base.py:250 New Transaction state "SENDING"
DEBUG   2025-08-29 09:47:02,867  pymodbus.logging:transaction.py:317 Changing transaction state from "SENDING" to "WAITING FOR REPLY"
DEBUG   2025-08-29 09:47:02,894  pymodbus.logging:transaction.py:419 Changing transaction state from "WAITING FOR REPLY" to "PROCESSING REPLY"
DEBUG   2025-08-29 09:47:02,894  pymodbus.logging:transaction.py:324 RECV: 0x1 0x3 0x4 0x3f 0x83 0xad 0x98 0x7a 0xf5
DEBUG   2025-08-29 09:47:02,894  pymodbus.logging:base.py:92 Processing: 0x1 0x3 0x4 0x3f 0x83 0xad 0x98 0x7a 0xf5
DEBUG   2025-08-29 09:47:02,894  pymodbus.logging:decoders.py:103 decode PDU for 3
DEBUG   2025-08-29 09:47:02,894  pymodbus.logging:base.py:102 Frame advanced, resetting header!!
DEBUG   2025-08-29 09:47:02,894  pymodbus.logging:transaction.py:67 Adding transaction 0
DEBUG   2025-08-29 09:47:02,894  pymodbus.logging:transaction.py:78 Getting transaction 0
DEBUG   2025-08-29 09:47:02,894  pymodbus.logging:transaction.py:258 Changing transaction state from "PROCESSING REPLY" to "TRANSACTION_COMPLETE"
INFO    2025-08-29 09:47:02,895  root:modbus_rtu_tcp.py:44 read_measurement ret is:ReadHoldingRegistersResponse (2)
INFO    2025-08-29 09:47:02,895  root:acudc260_modbus_get.py:173 read i_sum_current ret is:[16259, 44440]
DEBUG   2025-08-29 09:47:02,895  pymodbus.logging:transaction.py:184 Current transaction state - TRANSACTION_COMPLETE
DEBUG   2025-08-29 09:47:02,895  pymodbus.logging:transaction.py:193 Running transaction 0
DEBUG   2025-08-29 09:47:02,895  pymodbus.logging:transaction.py:293 SEND: 0x1 0x3 0x30 0x8 0x0 0x2 0x4a 0xc9
DEBUG   2025-08-29 09:47:02,895  pymodbus.logging:serial.py:271 Changing state to IDLE - Last Frame End - 1756432022.894675 Current Time stamp - 1756432022.895712
DEBUG   2025-08-29 09:47:02,895  pymodbus.logging:serial.py:279 Waiting for 3.5 char before next send - 1.823 ms
DEBUG   2025-08-29 09:47:02,898  pymodbus.logging:base.py:250 New Transaction state "SENDING"
DEBUG   2025-08-29 09:47:02,898  pymodbus.logging:transaction.py:317 Changing transaction state from "SENDING" to "WAITING FOR REPLY"
DEBUG   2025-08-29 09:47:02,926  pymodbus.logging:transaction.py:419 Changing transaction state from "WAITING FOR REPLY" to "PROCESSING REPLY"
DEBUG   2025-08-29 09:47:02,926  pymodbus.logging:transaction.py:324 RECV: 0x1 0x3 0x4 0x0 0x0 0x0 0x0 0xfa 0x33
DEBUG   2025-08-29 09:47:02,926  pymodbus.logging:base.py:92 Processing: 0x1 0x3 0x4 0x0 0x0 0x0 0x0 0xfa 0x33
DEBUG   2025-08-29 09:47:02,926  pymodbus.logging:decoders.py:103 decode PDU for 3
DEBUG   2025-08-29 09:47:02,926  pymodbus.logging:base.py:102 Frame advanced, resetting header!!
DEBUG   2025-08-29 09:47:02,926  pymodbus.logging:transaction.py:67 Adding transaction 0
DEBUG   2025-08-29 09:47:02,926  pymodbus.logging:transaction.py:78 Getting transaction 0
DEBUG   2025-08-29 09:47:02,926  pymodbus.logging:transaction.py:258 Changing transaction state from "PROCESSING REPLY" to "TRANSACTION_COMPLETE"
INFO    2025-08-29 09:47:02,926  root:modbus_rtu_tcp.py:44 read_measurement ret is:ReadHoldingRegistersResponse (2)
INFO    2025-08-29 09:47:02,926  root:acudc260_modbus_get.py:187 read p1_power ret is:[0, 0]
DEBUG   2025-08-29 09:47:02,926  pymodbus.logging:transaction.py:184 Current transaction state - TRANSACTION_COMPLETE
DEBUG   2025-08-29 09:47:02,926  pymodbus.logging:transaction.py:193 Running transaction 0
DEBUG   2025-08-29 09:47:02,926  pymodbus.logging:transaction.py:293 SEND: 0x1 0x3 0x30 0xa 0x0 0x2 0xeb 0x9
DEBUG   2025-08-29 09:47:02,926  pymodbus.logging:serial.py:271 Changing state to IDLE - Last Frame End - 1756432022.926939 Current Time stamp - 1756432022.926939
DEBUG   2025-08-29 09:47:02,926  pymodbus.logging:serial.py:279 Waiting for 3.5 char before next send - 1.823 ms
DEBUG   2025-08-29 09:47:02,929  pymodbus.logging:base.py:250 New Transaction state "SENDING"
DEBUG   2025-08-29 09:47:02,929  pymodbus.logging:transaction.py:317 Changing transaction state from "SENDING" to "WAITING FOR REPLY"
DEBUG   2025-08-29 09:47:02,958  pymodbus.logging:transaction.py:419 Changing transaction state from "WAITING FOR REPLY" to "PROCESSING REPLY"
DEBUG   2025-08-29 09:47:02,958  pymodbus.logging:transaction.py:324 RECV: 0x1 0x3 0x4 0x0 0x0 0x0 0x0 0xfa 0x33
DEBUG   2025-08-29 09:47:02,958  pymodbus.logging:base.py:92 Processing: 0x1 0x3 0x4 0x0 0x0 0x0 0x0 0xfa 0x33
DEBUG   2025-08-29 09:47:02,958  pymodbus.logging:decoders.py:103 decode PDU for 3
DEBUG   2025-08-29 09:47:02,958  pymodbus.logging:base.py:102 Frame advanced, resetting header!!
DEBUG   2025-08-29 09:47:02,958  pymodbus.logging:transaction.py:67 Adding transaction 0
DEBUG   2025-08-29 09:47:02,958  pymodbus.logging:transaction.py:78 Getting transaction 0
DEBUG   2025-08-29 09:47:02,958  pymodbus.logging:transaction.py:258 Changing transaction state from "PROCESSING REPLY" to "TRANSACTION_COMPLETE"
INFO    2025-08-29 09:47:02,958  root:modbus_rtu_tcp.py:44 read_measurement ret is:ReadHoldingRegistersResponse (2)
INFO    2025-08-29 09:47:02,958  root:acudc260_modbus_get.py:201 read p2_power ret is:[0, 0]
DEBUG   2025-08-29 09:47:02,959  pymodbus.logging:transaction.py:184 Current transaction state - TRANSACTION_COMPLETE
DEBUG   2025-08-29 09:47:02,959  pymodbus.logging:transaction.py:193 Running transaction 0
DEBUG   2025-08-29 09:47:02,959  pymodbus.logging:transaction.py:293 SEND: 0x1 0x3 0x30 0xc 0x0 0x2 0xb 0x8
DEBUG   2025-08-29 09:47:02,959  pymodbus.logging:serial.py:271 Changing state to IDLE - Last Frame End - 1756432022.958571 Current Time stamp - 1756432022.959582
DEBUG   2025-08-29 09:47:02,959  pymodbus.logging:serial.py:279 Waiting for 3.5 char before next send - 1.823 ms
DEBUG   2025-08-29 09:47:02,962  pymodbus.logging:base.py:250 New Transaction state "SENDING"
DEBUG   2025-08-29 09:47:02,962  pymodbus.logging:transaction.py:317 Changing transaction state from "SENDING" to "WAITING FOR REPLY"
DEBUG   2025-08-29 09:47:02,991  pymodbus.logging:transaction.py:419 Changing transaction state from "WAITING FOR REPLY" to "PROCESSING REPLY"
DEBUG   2025-08-29 09:47:02,991  pymodbus.logging:transaction.py:324 RECV: 0x1 0x3 0x4 0x0 0x0 0x0 0x0 0xfa 0x33
DEBUG   2025-08-29 09:47:02,991  pymodbus.logging:base.py:92 Processing: 0x1 0x3 0x4 0x0 0x0 0x0 0x0 0xfa 0x33
DEBUG   2025-08-29 09:47:02,991  pymodbus.logging:decoders.py:103 decode PDU for 3
DEBUG   2025-08-29 09:47:02,991  pymodbus.logging:base.py:102 Frame advanced, resetting header!!
DEBUG   2025-08-29 09:47:02,991  pymodbus.logging:transaction.py:67 Adding transaction 0
DEBUG   2025-08-29 09:47:02,992  pymodbus.logging:transaction.py:78 Getting transaction 0
DEBUG   2025-08-29 09:47:02,992  pymodbus.logging:transaction.py:258 Changing transaction state from "PROCESSING REPLY" to "TRANSACTION_COMPLETE"
INFO    2025-08-29 09:47:02,992  root:modbus_rtu_tcp.py:44 read_measurement ret is:ReadHoldingRegistersResponse (2)
INFO    2025-08-29 09:47:02,992  root:acudc260_modbus_get.py:215 read p_sum_power ret is:[0, 0]
DEBUG   2025-08-29 09:47:03,093  pymodbus.logging:transaction.py:184 Current transaction state - TRANSACTION_COMPLETE
DEBUG   2025-08-29 09:47:03,093  pymodbus.logging:transaction.py:193 Running transaction 0
DEBUG   2025-08-29 09:47:03,093  pymodbus.logging:transaction.py:293 SEND: 0x1 0x3 0x30 0x0 0x0 0x2 0xcb 0xb
DEBUG   2025-08-29 09:47:03,093  pymodbus.logging:serial.py:271 Changing state to IDLE - Last Frame End - 1756432022.991393 Current Time stamp - 1756432023.093162
DEBUG   2025-08-29 09:47:03,093  pymodbus.logging:base.py:250 New Transaction state "SENDING"
DEBUG   2025-08-29 09:47:03,093  pymodbus.logging:transaction.py:317 Changing transaction state from "SENDING" to "WAITING FOR REPLY"
DEBUG   2025-08-29 09:47:03,119  pymodbus.logging:transaction.py:419 Changing transaction state from "WAITING FOR REPLY" to "PROCESSING REPLY"
DEBUG   2025-08-29 09:47:03,119  pymodbus.logging:transaction.py:324 RECV: 0x1 0x3 0x4 0x0 0x0 0x0 0x0 0xfa 0x33
DEBUG   2025-08-29 09:47:03,119  pymodbus.logging:base.py:92 Processing: 0x1 0x3 0x4 0x0 0x0 0x0 0x0 0xfa 0x33
DEBUG   2025-08-29 09:47:03,119  pymodbus.logging:decoders.py:103 decode PDU for 3
DEBUG   2025-08-29 09:47:03,119  pymodbus.logging:base.py:102 Frame advanced, resetting header!!
DEBUG   2025-08-29 09:47:03,119  pymodbus.logging:transaction.py:67 Adding transaction 0
DEBUG   2025-08-29 09:47:03,119  pymodbus.logging:transaction.py:78 Getting transaction 0
DEBUG   2025-08-29 09:47:03,119  pymodbus.logging:transaction.py:258 Changing transaction state from "PROCESSING REPLY" to "TRANSACTION_COMPLETE"
INFO    2025-08-29 09:47:03,119  root:modbus_rtu_tcp.py:44 read_measurement ret is:ReadHoldingRegistersResponse (2)
INFO    2025-08-29 09:47:03,119  root:acudc260_modbus_get.py:131 read u_voltage ret is:[0, 0]
DEBUG   2025-08-29 09:47:03,119  pymodbus.logging:transaction.py:184 Current transaction state - TRANSACTION_COMPLETE
DEBUG   2025-08-29 09:47:03,119  pymodbus.logging:transaction.py:193 Running transaction 0
DEBUG   2025-08-29 09:47:03,119  pymodbus.logging:transaction.py:293 SEND: 0x1 0x3 0x30 0x2 0x0 0x2 0x6a 0xcb
DEBUG   2025-08-29 09:47:03,119  pymodbus.logging:serial.py:271 Changing state to IDLE - Last Frame End - 1756432023.119925 Current Time stamp - 1756432023.119925
DEBUG   2025-08-29 09:47:03,119  pymodbus.logging:serial.py:279 Waiting for 3.5 char before next send - 1.823 ms
DEBUG   2025-08-29 09:47:03,123  pymodbus.logging:base.py:250 New Transaction state "SENDING"
DEBUG   2025-08-29 09:47:03,123  pymodbus.logging:transaction.py:317 Changing transaction state from "SENDING" to "WAITING FOR REPLY"
DEBUG   2025-08-29 09:47:03,152  pymodbus.logging:transaction.py:419 Changing transaction state from "WAITING FOR REPLY" to "PROCESSING REPLY"
DEBUG   2025-08-29 09:47:03,152  pymodbus.logging:transaction.py:324 RECV: 0x1 0x3 0x4 0x3f 0x6 0x20 0xcd 0xce 0x73
DEBUG   2025-08-29 09:47:03,152  pymodbus.logging:base.py:92 Processing: 0x1 0x3 0x4 0x3f 0x6 0x20 0xcd 0xce 0x73
DEBUG   2025-08-29 09:47:03,152  pymodbus.logging:decoders.py:103 decode PDU for 3
DEBUG   2025-08-29 09:47:03,152  pymodbus.logging:base.py:102 Frame advanced, resetting header!!
DEBUG   2025-08-29 09:47:03,152  pymodbus.logging:transaction.py:67 Adding transaction 0
DEBUG   2025-08-29 09:47:03,152  pymodbus.logging:transaction.py:78 Getting transaction 0
DEBUG   2025-08-29 09:47:03,152  pymodbus.logging:transaction.py:258 Changing transaction state from "PROCESSING REPLY" to "TRANSACTION_COMPLETE"
INFO    2025-08-29 09:47:03,152  root:modbus_rtu_tcp.py:44 read_measurement ret is:ReadHoldingRegistersResponse (2)
INFO    2025-08-29 09:47:03,152  root:acudc260_modbus_get.py:145 read i1_current ret is:[16134, 8397]
DEBUG   2025-08-29 09:47:03,152  pymodbus.logging:transaction.py:184 Current transaction state - TRANSACTION_COMPLETE
DEBUG   2025-08-29 09:47:03,152  pymodbus.logging:transaction.py:193 Running transaction 0
DEBUG   2025-08-29 09:47:03,152  pymodbus.logging:transaction.py:293 SEND: 0x1 0x3 0x30 0x4 0x0 0x2 0x8a 0xca
DEBUG   2025-08-29 09:47:03,152  pymodbus.logging:serial.py:271 Changing state to IDLE - Last Frame End - 1756432023.152106 Current Time stamp - 1756432023.152106
DEBUG   2025-08-29 09:47:03,152  pymodbus.logging:serial.py:279 Waiting for 3.5 char before next send - 1.823 ms
DEBUG   2025-08-29 09:47:03,155  pymodbus.logging:base.py:250 New Transaction state "SENDING"
DEBUG   2025-08-29 09:47:03,155  pymodbus.logging:transaction.py:317 Changing transaction state from "SENDING" to "WAITING FOR REPLY"
DEBUG   2025-08-29 09:47:03,183  pymodbus.logging:transaction.py:419 Changing transaction state from "WAITING FOR REPLY" to "PROCESSING REPLY"
DEBUG   2025-08-29 09:47:03,183  pymodbus.logging:transaction.py:324 RECV: 0x1 0x3 0x4 0x3f 0x2 0x17 0x22 0xd8 0xe
DEBUG   2025-08-29 09:47:03,183  pymodbus.logging:base.py:92 Processing: 0x1 0x3 0x4 0x3f 0x2 0x17 0x22 0xd8 0xe
DEBUG   2025-08-29 09:47:03,183  pymodbus.logging:decoders.py:103 decode PDU for 3
DEBUG   2025-08-29 09:47:03,183  pymodbus.logging:base.py:102 Frame advanced, resetting header!!
DEBUG   2025-08-29 09:47:03,183  pymodbus.logging:transaction.py:67 Adding transaction 0
DEBUG   2025-08-29 09:47:03,183  pymodbus.logging:transaction.py:78 Getting transaction 0
DEBUG   2025-08-29 09:47:03,183  pymodbus.logging:transaction.py:258 Changing transaction state from "PROCESSING REPLY" to "TRANSACTION_COMPLETE"
INFO    2025-08-29 09:47:03,183  root:modbus_rtu_tcp.py:44 read_measurement ret is:ReadHoldingRegistersResponse (2)
INFO    2025-08-29 09:47:03,183  root:acudc260_modbus_get.py:159 read i2_current ret is:[16130, 5922]
DEBUG   2025-08-29 09:47:03,184  pymodbus.logging:transaction.py:184 Current transaction state - TRANSACTION_COMPLETE
DEBUG   2025-08-29 09:47:03,184  pymodbus.logging:transaction.py:193 Running transaction 0
DEBUG   2025-08-29 09:47:03,184  pymodbus.logging:transaction.py:293 SEND: 0x1 0x3 0x30 0x6 0x0 0x2 0x2b 0xa
DEBUG   2025-08-29 09:47:03,184  pymodbus.logging:serial.py:271 Changing state to IDLE - Last Frame End - 1756432023.183421 Current Time stamp - 1756432023.184579
DEBUG   2025-08-29 09:47:03,184  pymodbus.logging:serial.py:279 Waiting for 3.5 char before next send - 1.823 ms
DEBUG   2025-08-29 09:47:03,186  pymodbus.logging:base.py:250 New Transaction state "SENDING"
DEBUG   2025-08-29 09:47:03,187  pymodbus.logging:transaction.py:317 Changing transaction state from "SENDING" to "WAITING FOR REPLY"
DEBUG   2025-08-29 09:47:03,215  pymodbus.logging:transaction.py:419 Changing transaction state from "WAITING FOR REPLY" to "PROCESSING REPLY"
DEBUG   2025-08-29 09:47:03,215  pymodbus.logging:transaction.py:324 RECV: 0x1 0x3 0x4 0x3f 0x83 0x14 0x20 0x9 0x17
DEBUG   2025-08-29 09:47:03,215  pymodbus.logging:base.py:92 Processing: 0x1 0x3 0x4 0x3f 0x83 0x14 0x20 0x9 0x17
DEBUG   2025-08-29 09:47:03,215  pymodbus.logging:decoders.py:103 decode PDU for 3
DEBUG   2025-08-29 09:47:03,215  pymodbus.logging:base.py:102 Frame advanced, resetting header!!
DEBUG   2025-08-29 09:47:03,215  pymodbus.logging:transaction.py:67 Adding transaction 0
DEBUG   2025-08-29 09:47:03,215  pymodbus.logging:transaction.py:78 Getting transaction 0
DEBUG   2025-08-29 09:47:03,215  pymodbus.logging:transaction.py:258 Changing transaction state from "PROCESSING REPLY" to "TRANSACTION_COMPLETE"
INFO    2025-08-29 09:47:03,215  root:modbus_rtu_tcp.py:44 read_measurement ret is:ReadHoldingRegistersResponse (2)
INFO    2025-08-29 09:47:03,215  root:acudc260_modbus_get.py:173 read i_sum_current ret is:[16259, 5152]
DEBUG   2025-08-29 09:47:03,215  pymodbus.logging:transaction.py:184 Current transaction state - TRANSACTION_COMPLETE
DEBUG   2025-08-29 09:47:03,215  pymodbus.logging:transaction.py:193 Running transaction 0
DEBUG   2025-08-29 09:47:03,215  pymodbus.logging:transaction.py:293 SEND: 0x1 0x3 0x30 0x8 0x0 0x2 0x4a 0xc9
DEBUG   2025-08-29 09:47:03,215  pymodbus.logging:serial.py:271 Changing state to IDLE - Last Frame End - 1756432023.215768 Current Time stamp - 1756432023.215768
DEBUG   2025-08-29 09:47:03,215  pymodbus.logging:serial.py:279 Waiting for 3.5 char before next send - 1.823 ms
DEBUG   2025-08-29 09:47:03,218  pymodbus.logging:base.py:250 New Transaction state "SENDING"
DEBUG   2025-08-29 09:47:03,218  pymodbus.logging:transaction.py:317 Changing transaction state from "SENDING" to "WAITING FOR REPLY"
DEBUG   2025-08-29 09:47:03,243  pymodbus.logging:transaction.py:419 Changing transaction state from "WAITING FOR REPLY" to "PROCESSING REPLY"
DEBUG   2025-08-29 09:47:03,244  pymodbus.logging:transaction.py:324 RECV: 0x1 0x3 0x4 0x0 0x0 0x0 0x0 0xfa 0x33
DEBUG   2025-08-29 09:47:03,244  pymodbus.logging:base.py:92 Processing: 0x1 0x3 0x4 0x0 0x0 0x0 0x0 0xfa 0x33
DEBUG   2025-08-29 09:47:03,244  pymodbus.logging:decoders.py:103 decode PDU for 3
DEBUG   2025-08-29 09:47:03,244  pymodbus.logging:base.py:102 Frame advanced, resetting header!!
DEBUG   2025-08-29 09:47:03,244  pymodbus.logging:transaction.py:67 Adding transaction 0
DEBUG   2025-08-29 09:47:03,244  pymodbus.logging:transaction.py:78 Getting transaction 0
DEBUG   2025-08-29 09:47:03,244  pymodbus.logging:transaction.py:258 Changing transaction state from "PROCESSING REPLY" to "TRANSACTION_COMPLETE"
INFO    2025-08-29 09:47:03,244  root:modbus_rtu_tcp.py:44 read_measurement ret is:ReadHoldingRegistersResponse (2)
INFO    2025-08-29 09:47:03,244  root:acudc260_modbus_get.py:187 read p1_power ret is:[0, 0]
DEBUG   2025-08-29 09:47:03,244  pymodbus.logging:transaction.py:184 Current transaction state - TRANSACTION_COMPLETE
DEBUG   2025-08-29 09:47:03,244  pymodbus.logging:transaction.py:193 Running transaction 0
DEBUG   2025-08-29 09:47:03,244  pymodbus.logging:transaction.py:293 SEND: 0x1 0x3 0x30 0xa 0x0 0x2 0xeb 0x9
DEBUG   2025-08-29 09:47:03,244  pymodbus.logging:serial.py:271 Changing state to IDLE - Last Frame End - 1756432023.243106 Current Time stamp - 1756432023.244473
DEBUG   2025-08-29 09:47:03,244  pymodbus.logging:serial.py:279 Waiting for 3.5 char before next send - 1.823 ms
DEBUG   2025-08-29 09:47:03,247  pymodbus.logging:base.py:250 New Transaction state "SENDING"
DEBUG   2025-08-29 09:47:03,247  pymodbus.logging:transaction.py:317 Changing transaction state from "SENDING" to "WAITING FOR REPLY"
DEBUG   2025-08-29 09:47:03,278  pymodbus.logging:transaction.py:419 Changing transaction state from "WAITING FOR REPLY" to "PROCESSING REPLY"
DEBUG   2025-08-29 09:47:03,278  pymodbus.logging:transaction.py:324 RECV: 0x1 0x3 0x4 0x0 0x0 0x0 0x0 0xfa 0x33
DEBUG   2025-08-29 09:47:03,278  pymodbus.logging:base.py:92 Processing: 0x1 0x3 0x4 0x0 0x0 0x0 0x0 0xfa 0x33
DEBUG   2025-08-29 09:47:03,278  pymodbus.logging:decoders.py:103 decode PDU for 3
DEBUG   2025-08-29 09:47:03,278  pymodbus.logging:base.py:102 Frame advanced, resetting header!!
DEBUG   2025-08-29 09:47:03,278  pymodbus.logging:transaction.py:67 Adding transaction 0
DEBUG   2025-08-29 09:47:03,278  pymodbus.logging:transaction.py:78 Getting transaction 0
DEBUG   2025-08-29 09:47:03,278  pymodbus.logging:transaction.py:258 Changing transaction state from "PROCESSING REPLY" to "TRANSACTION_COMPLETE"
INFO    2025-08-29 09:47:03,278  root:modbus_rtu_tcp.py:44 read_measurement ret is:ReadHoldingRegistersResponse (2)
INFO    2025-08-29 09:47:03,278  root:acudc260_modbus_get.py:201 read p2_power ret is:[0, 0]
DEBUG   2025-08-29 09:47:03,278  pymodbus.logging:transaction.py:184 Current transaction state - TRANSACTION_COMPLETE
DEBUG   2025-08-29 09:47:03,278  pymodbus.logging:transaction.py:193 Running transaction 0
DEBUG   2025-08-29 09:47:03,278  pymodbus.logging:transaction.py:293 SEND: 0x1 0x3 0x30 0xc 0x0 0x2 0xb 0x8
DEBUG   2025-08-29 09:47:03,278  pymodbus.logging:serial.py:271 Changing state to IDLE - Last Frame End - 1756432023.278436 Current Time stamp - 1756432023.278436
DEBUG   2025-08-29 09:47:03,278  pymodbus.logging:serial.py:279 Waiting for 3.5 char before next send - 1.823 ms
DEBUG   2025-08-29 09:47:03,281  pymodbus.logging:base.py:250 New Transaction state "SENDING"
DEBUG   2025-08-29 09:47:03,282  pymodbus.logging:transaction.py:317 Changing transaction state from "SENDING" to "WAITING FOR REPLY"
DEBUG   2025-08-29 09:47:03,311  pymodbus.logging:transaction.py:419 Changing transaction state from "WAITING FOR REPLY" to "PROCESSING REPLY"
DEBUG   2025-08-29 09:47:03,311  pymodbus.logging:transaction.py:324 RECV: 0x1 0x3 0x4 0x0 0x0 0x0 0x0 0xfa 0x33
DEBUG   2025-08-29 09:47:03,311  pymodbus.logging:base.py:92 Processing: 0x1 0x3 0x4 0x0 0x0 0x0 0x0 0xfa 0x33
DEBUG   2025-08-29 09:47:03,311  pymodbus.logging:decoders.py:103 decode PDU for 3
DEBUG   2025-08-29 09:47:03,311  pymodbus.logging:base.py:102 Frame advanced, resetting header!!
DEBUG   2025-08-29 09:47:03,311  pymodbus.logging:transaction.py:67 Adding transaction 0
DEBUG   2025-08-29 09:47:03,311  pymodbus.logging:transaction.py:78 Getting transaction 0
DEBUG   2025-08-29 09:47:03,311  pymodbus.logging:transaction.py:258 Changing transaction state from "PROCESSING REPLY" to "TRANSACTION_COMPLETE"
INFO    2025-08-29 09:47:03,313  root:modbus_rtu_tcp.py:44 read_measurement ret is:ReadHoldingRegistersResponse (2)
INFO    2025-08-29 09:47:03,313  root:acudc260_modbus_get.py:215 read p_sum_power ret is:[0, 0]
DEBUG   2025-08-29 09:47:03,413  pymodbus.logging:transaction.py:184 Current transaction state - TRANSACTION_COMPLETE
DEBUG   2025-08-29 09:47:03,413  pymodbus.logging:transaction.py:193 Running transaction 0
DEBUG   2025-08-29 09:47:03,413  pymodbus.logging:transaction.py:293 SEND: 0x1 0x3 0x30 0x0 0x0 0x2 0xcb 0xb
DEBUG   2025-08-29 09:47:03,413  pymodbus.logging:serial.py:271 Changing state to IDLE - Last Frame End - 1756432023.311962 Current Time stamp - 1756432023.413317
DEBUG   2025-08-29 09:47:03,413  pymodbus.logging:base.py:250 New Transaction state "SENDING"
DEBUG   2025-08-29 09:47:03,413  pymodbus.logging:transaction.py:317 Changing transaction state from "SENDING" to "WAITING FOR REPLY"
DEBUG   2025-08-29 09:47:03,440  pymodbus.logging:transaction.py:419 Changing transaction state from "WAITING FOR REPLY" to "PROCESSING REPLY"
DEBUG   2025-08-29 09:47:03,440  pymodbus.logging:transaction.py:324 RECV: 0x1 0x3 0x4 0x0 0x0 0x0 0x0 0xfa 0x33
DEBUG   2025-08-29 09:47:03,440  pymodbus.logging:base.py:92 Processing: 0x1 0x3 0x4 0x0 0x0 0x0 0x0 0xfa 0x33
DEBUG   2025-08-29 09:47:03,440  pymodbus.logging:decoders.py:103 decode PDU for 3
DEBUG   2025-08-29 09:47:03,440  pymodbus.logging:base.py:102 Frame advanced, resetting header!!
DEBUG   2025-08-29 09:47:03,440  pymodbus.logging:transaction.py:67 Adding transaction 0
DEBUG   2025-08-29 09:47:03,440  pymodbus.logging:transaction.py:78 Getting transaction 0
DEBUG   2025-08-29 09:47:03,440  pymodbus.logging:transaction.py:258 Changing transaction state from "PROCESSING REPLY" to "TRANSACTION_COMPLETE"
INFO    2025-08-29 09:47:03,440  root:modbus_rtu_tcp.py:44 read_measurement ret is:ReadHoldingRegistersResponse (2)
INFO    2025-08-29 09:47:03,440  root:acudc260_modbus_get.py:131 read u_voltage ret is:[0, 0]
DEBUG   2025-08-29 09:47:03,440  pymodbus.logging:transaction.py:184 Current transaction state - TRANSACTION_COMPLETE
DEBUG   2025-08-29 09:47:03,441  pymodbus.logging:transaction.py:193 Running transaction 0
DEBUG   2025-08-29 09:47:03,441  pymodbus.logging:transaction.py:293 SEND: 0x1 0x3 0x30 0x2 0x0 0x2 0x6a 0xcb
DEBUG   2025-08-29 09:47:03,441  pymodbus.logging:serial.py:271 Changing state to IDLE - Last Frame End - 1756432023.440117 Current Time stamp - 1756432023.44113
DEBUG   2025-08-29 09:47:03,441  pymodbus.logging:serial.py:279 Waiting for 3.5 char before next send - 1.823 ms
DEBUG   2025-08-29 09:47:03,443  pymodbus.logging:base.py:250 New Transaction state "SENDING"
DEBUG   2025-08-29 09:47:03,443  pymodbus.logging:transaction.py:317 Changing transaction state from "SENDING" to "WAITING FOR REPLY"
DEBUG   2025-08-29 09:47:03,470  pymodbus.logging:transaction.py:419 Changing transaction state from "WAITING FOR REPLY" to "PROCESSING REPLY"
DEBUG   2025-08-29 09:47:03,470  pymodbus.logging:transaction.py:324 RECV: 0x1 0x3 0x4 0x3f 0x3 0xf8 0xab 0x4 0x58
DEBUG   2025-08-29 09:47:03,470  pymodbus.logging:base.py:92 Processing: 0x1 0x3 0x4 0x3f 0x3 0xf8 0xab 0x4 0x58
DEBUG   2025-08-29 09:47:03,470  pymodbus.logging:decoders.py:103 decode PDU for 3
DEBUG   2025-08-29 09:47:03,470  pymodbus.logging:base.py:102 Frame advanced, resetting header!!
DEBUG   2025-08-29 09:47:03,470  pymodbus.logging:transaction.py:67 Adding transaction 0
DEBUG   2025-08-29 09:47:03,470  pymodbus.logging:transaction.py:78 Getting transaction 0
DEBUG   2025-08-29 09:47:03,470  pymodbus.logging:transaction.py:258 Changing transaction state from "PROCESSING REPLY" to "TRANSACTION_COMPLETE"
INFO    2025-08-29 09:47:03,470  root:modbus_rtu_tcp.py:44 read_measurement ret is:ReadHoldingRegistersResponse (2)
INFO    2025-08-29 09:47:03,471  root:acudc260_modbus_get.py:145 read i1_current ret is:[16131, 63659]
DEBUG   2025-08-29 09:47:03,471  pymodbus.logging:transaction.py:184 Current transaction state - TRANSACTION_COMPLETE
DEBUG   2025-08-29 09:47:03,471  pymodbus.logging:transaction.py:193 Running transaction 0
DEBUG   2025-08-29 09:47:03,471  pymodbus.logging:transaction.py:293 SEND: 0x1 0x3 0x30 0x4 0x0 0x2 0x8a 0xca
DEBUG   2025-08-29 09:47:03,471  pymodbus.logging:serial.py:271 Changing state to IDLE - Last Frame End - 1756432023.470814 Current Time stamp - 1756432023.471829
DEBUG   2025-08-29 09:47:03,471  pymodbus.logging:serial.py:279 Waiting for 3.5 char before next send - 1.823 ms
DEBUG   2025-08-29 09:47:03,474  pymodbus.logging:base.py:250 New Transaction state "SENDING"
DEBUG   2025-08-29 09:47:03,474  pymodbus.logging:transaction.py:317 Changing transaction state from "SENDING" to "WAITING FOR REPLY"
DEBUG   2025-08-29 09:47:03,504  pymodbus.logging:transaction.py:419 Changing transaction state from "WAITING FOR REPLY" to "PROCESSING REPLY"
DEBUG   2025-08-29 09:47:03,504  pymodbus.logging:transaction.py:324 RECV: 0x1 0x3 0x4 0x3f 0x3 0x39 0xaa 0x94 0x8
DEBUG   2025-08-29 09:47:03,504  pymodbus.logging:base.py:92 Processing: 0x1 0x3 0x4 0x3f 0x3 0x39 0xaa 0x94 0x8
DEBUG   2025-08-29 09:47:03,504  pymodbus.logging:decoders.py:103 decode PDU for 3
DEBUG   2025-08-29 09:47:03,504  pymodbus.logging:base.py:102 Frame advanced, resetting header!!
DEBUG   2025-08-29 09:47:03,504  pymodbus.logging:transaction.py:67 Adding transaction 0
DEBUG   2025-08-29 09:47:03,505  pymodbus.logging:transaction.py:78 Getting transaction 0
DEBUG   2025-08-29 09:47:03,505  pymodbus.logging:transaction.py:258 Changing transaction state from "PROCESSING REPLY" to "TRANSACTION_COMPLETE"
INFO    2025-08-29 09:47:03,505  root:modbus_rtu_tcp.py:44 read_measurement ret is:ReadHoldingRegistersResponse (2)
INFO    2025-08-29 09:47:03,505  root:acudc260_modbus_get.py:159 read i2_current ret is:[16131, 14762]
DEBUG   2025-08-29 09:47:03,505  pymodbus.logging:transaction.py:184 Current transaction state - TRANSACTION_COMPLETE
DEBUG   2025-08-29 09:47:03,505  pymodbus.logging:transaction.py:193 Running transaction 0
DEBUG   2025-08-29 09:47:03,505  pymodbus.logging:transaction.py:293 SEND: 0x1 0x3 0x30 0x6 0x0 0x2 0x2b 0xa
DEBUG   2025-08-29 09:47:03,505  pymodbus.logging:serial.py:271 Changing state to IDLE - Last Frame End - 1756432023.504301 Current Time stamp - 1756432023.505323
DEBUG   2025-08-29 09:47:03,505  pymodbus.logging:serial.py:279 Waiting for 3.5 char before next send - 1.823 ms
DEBUG   2025-08-29 09:47:03,508  pymodbus.logging:base.py:250 New Transaction state "SENDING"
DEBUG   2025-08-29 09:47:03,508  pymodbus.logging:transaction.py:317 Changing transaction state from "SENDING" to "WAITING FOR REPLY"
DEBUG   2025-08-29 09:47:03,535  pymodbus.logging:transaction.py:419 Changing transaction state from "WAITING FOR REPLY" to "PROCESSING REPLY"
DEBUG   2025-08-29 09:47:03,535  pymodbus.logging:transaction.py:324 RECV: 0x1 0x3 0x4 0x3f 0x83 0x99 0x2a 0xec 0x40
DEBUG   2025-08-29 09:47:03,535  pymodbus.logging:base.py:92 Processing: 0x1 0x3 0x4 0x3f 0x83 0x99 0x2a 0xec 0x40
DEBUG   2025-08-29 09:47:03,535  pymodbus.logging:decoders.py:103 decode PDU for 3
DEBUG   2025-08-29 09:47:03,535  pymodbus.logging:base.py:102 Frame advanced, resetting header!!
DEBUG   2025-08-29 09:47:03,535  pymodbus.logging:transaction.py:67 Adding transaction 0
DEBUG   2025-08-29 09:47:03,535  pymodbus.logging:transaction.py:78 Getting transaction 0
DEBUG   2025-08-29 09:47:03,536  pymodbus.logging:transaction.py:258 Changing transaction state from "PROCESSING REPLY" to "TRANSACTION_COMPLETE"
INFO    2025-08-29 09:47:03,536  root:modbus_rtu_tcp.py:44 read_measurement ret is:ReadHoldingRegistersResponse (2)
INFO    2025-08-29 09:47:03,536  root:acudc260_modbus_get.py:173 read i_sum_current ret is:[16259, 39210]
DEBUG   2025-08-29 09:47:03,536  pymodbus.logging:transaction.py:184 Current transaction state - TRANSACTION_COMPLETE
DEBUG   2025-08-29 09:47:03,536  pymodbus.logging:transaction.py:193 Running transaction 0
DEBUG   2025-08-29 09:47:03,536  pymodbus.logging:transaction.py:293 SEND: 0x1 0x3 0x30 0x8 0x0 0x2 0x4a 0xc9
DEBUG   2025-08-29 09:47:03,536  pymodbus.logging:serial.py:271 Changing state to IDLE - Last Frame End - 1756432023.53507 Current Time stamp - 1756432023.536208
DEBUG   2025-08-29 09:47:03,536  pymodbus.logging:serial.py:279 Waiting for 3.5 char before next send - 1.823 ms
DEBUG   2025-08-29 09:47:03,539  pymodbus.logging:base.py:250 New Transaction state "SENDING"
DEBUG   2025-08-29 09:47:03,539  pymodbus.logging:transaction.py:317 Changing transaction state from "SENDING" to "WAITING FOR REPLY"
DEBUG   2025-08-29 09:47:03,567  pymodbus.logging:transaction.py:419 Changing transaction state from "WAITING FOR REPLY" to "PROCESSING REPLY"
DEBUG   2025-08-29 09:47:03,567  pymodbus.logging:transaction.py:324 RECV: 0x1 0x3 0x4 0x0 0x0 0x0 0x0 0xfa 0x33
DEBUG   2025-08-29 09:47:03,567  pymodbus.logging:base.py:92 Processing: 0x1 0x3 0x4 0x0 0x0 0x0 0x0 0xfa 0x33
DEBUG   2025-08-29 09:47:03,567  pymodbus.logging:decoders.py:103 decode PDU for 3
DEBUG   2025-08-29 09:47:03,567  pymodbus.logging:base.py:102 Frame advanced, resetting header!!
DEBUG   2025-08-29 09:47:03,568  pymodbus.logging:transaction.py:67 Adding transaction 0
DEBUG   2025-08-29 09:47:03,568  pymodbus.logging:transaction.py:78 Getting transaction 0
DEBUG   2025-08-29 09:47:03,568  pymodbus.logging:transaction.py:258 Changing transaction state from "PROCESSING REPLY" to "TRANSACTION_COMPLETE"
INFO    2025-08-29 09:47:03,568  root:modbus_rtu_tcp.py:44 read_measurement ret is:ReadHoldingRegistersResponse (2)
INFO    2025-08-29 09:47:03,568  root:acudc260_modbus_get.py:187 read p1_power ret is:[0, 0]
DEBUG   2025-08-29 09:47:03,568  pymodbus.logging:transaction.py:184 Current transaction state - TRANSACTION_COMPLETE
DEBUG   2025-08-29 09:47:03,568  pymodbus.logging:transaction.py:193 Running transaction 0
DEBUG   2025-08-29 09:47:03,568  pymodbus.logging:transaction.py:293 SEND: 0x1 0x3 0x30 0xa 0x0 0x2 0xeb 0x9
DEBUG   2025-08-29 09:47:03,569  pymodbus.logging:serial.py:271 Changing state to IDLE - Last Frame End - 1756432023.567397 Current Time stamp - 1756432023.568455
DEBUG   2025-08-29 09:47:03,569  pymodbus.logging:serial.py:279 Waiting for 3.5 char before next send - 1.823 ms
DEBUG   2025-08-29 09:47:03,572  pymodbus.logging:base.py:250 New Transaction state "SENDING"
DEBUG   2025-08-29 09:47:03,572  pymodbus.logging:transaction.py:317 Changing transaction state from "SENDING" to "WAITING FOR REPLY"
DEBUG   2025-08-29 09:47:03,599  pymodbus.logging:transaction.py:419 Changing transaction state from "WAITING FOR REPLY" to "PROCESSING REPLY"
DEBUG   2025-08-29 09:47:03,600  pymodbus.logging:transaction.py:324 RECV: 0x1 0x3 0x4 0x0 0x0 0x0 0x0 0xfa 0x33
DEBUG   2025-08-29 09:47:03,600  pymodbus.logging:base.py:92 Processing: 0x1 0x3 0x4 0x0 0x0 0x0 0x0 0xfa 0x33
DEBUG   2025-08-29 09:47:03,600  pymodbus.logging:decoders.py:103 decode PDU for 3
DEBUG   2025-08-29 09:47:03,600  pymodbus.logging:base.py:102 Frame advanced, resetting header!!
DEBUG   2025-08-29 09:47:03,600  pymodbus.logging:transaction.py:67 Adding transaction 0
DEBUG   2025-08-29 09:47:03,600  pymodbus.logging:transaction.py:78 Getting transaction 0
DEBUG   2025-08-29 09:47:03,600  pymodbus.logging:transaction.py:258 Changing transaction state from "PROCESSING REPLY" to "TRANSACTION_COMPLETE"
INFO    2025-08-29 09:47:03,600  root:modbus_rtu_tcp.py:44 read_measurement ret is:ReadHoldingRegistersResponse (2)
INFO    2025-08-29 09:47:03,600  root:acudc260_modbus_get.py:201 read p2_power ret is:[0, 0]
DEBUG   2025-08-29 09:47:03,601  pymodbus.logging:transaction.py:184 Current transaction state - TRANSACTION_COMPLETE
DEBUG   2025-08-29 09:47:03,601  pymodbus.logging:transaction.py:193 Running transaction 0
DEBUG   2025-08-29 09:47:03,601  pymodbus.logging:transaction.py:293 SEND: 0x1 0x3 0x30 0xc 0x0 0x2 0xb 0x8
DEBUG   2025-08-29 09:47:03,601  pymodbus.logging:serial.py:271 Changing state to IDLE - Last Frame End - 1756432023.599545 Current Time stamp - 1756432023.601072
DEBUG   2025-08-29 09:47:03,601  pymodbus.logging:serial.py:279 Waiting for 3.5 char before next send - 1.823 ms
DEBUG   2025-08-29 09:47:03,603  pymodbus.logging:base.py:250 New Transaction state "SENDING"
DEBUG   2025-08-29 09:47:03,604  pymodbus.logging:transaction.py:317 Changing transaction state from "SENDING" to "WAITING FOR REPLY"
DEBUG   2025-08-29 09:47:03,627  pymodbus.logging:transaction.py:419 Changing transaction state from "WAITING FOR REPLY" to "PROCESSING REPLY"
DEBUG   2025-08-29 09:47:03,627  pymodbus.logging:transaction.py:324 RECV: 0x1 0x3 0x4 0x0 0x0 0x0 0x0 0xfa 0x33
DEBUG   2025-08-29 09:47:03,627  pymodbus.logging:base.py:92 Processing: 0x1 0x3 0x4 0x0 0x0 0x0 0x0 0xfa 0x33
DEBUG   2025-08-29 09:47:03,627  pymodbus.logging:decoders.py:103 decode PDU for 3
DEBUG   2025-08-29 09:47:03,627  pymodbus.logging:base.py:102 Frame advanced, resetting header!!
DEBUG   2025-08-29 09:47:03,627  pymodbus.logging:transaction.py:67 Adding transaction 0
DEBUG   2025-08-29 09:47:03,627  pymodbus.logging:transaction.py:78 Getting transaction 0
DEBUG   2025-08-29 09:47:03,627  pymodbus.logging:transaction.py:258 Changing transaction state from "PROCESSING REPLY" to "TRANSACTION_COMPLETE"
INFO    2025-08-29 09:47:03,627  root:modbus_rtu_tcp.py:44 read_measurement ret is:ReadHoldingRegistersResponse (2)
INFO    2025-08-29 09:47:03,627  root:acudc260_modbus_get.py:215 read p_sum_power ret is:[0, 0]
DEBUG   2025-08-29 09:47:03,729  pymodbus.logging:transaction.py:184 Current transaction state - TRANSACTION_COMPLETE
DEBUG   2025-08-29 09:47:03,729  pymodbus.logging:transaction.py:193 Running transaction 0
DEBUG   2025-08-29 09:47:03,729  pymodbus.logging:transaction.py:293 SEND: 0x1 0x3 0x30 0x0 0x0 0x2 0xcb 0xb
DEBUG   2025-08-29 09:47:03,729  pymodbus.logging:serial.py:271 Changing state to IDLE - Last Frame End - 1756432023.627121 Current Time stamp - 1756432023.729031
DEBUG   2025-08-29 09:47:03,729  pymodbus.logging:base.py:250 New Transaction state "SENDING"
DEBUG   2025-08-29 09:47:03,730  pymodbus.logging:transaction.py:317 Changing transaction state from "SENDING" to "WAITING FOR REPLY"
DEBUG   2025-08-29 09:47:03,758  pymodbus.logging:transaction.py:419 Changing transaction state from "WAITING FOR REPLY" to "PROCESSING REPLY"
DEBUG   2025-08-29 09:47:03,758  pymodbus.logging:transaction.py:324 RECV: 0x1 0x3 0x4 0x0 0x0 0x0 0x0 0xfa 0x33
DEBUG   2025-08-29 09:47:03,758  pymodbus.logging:base.py:92 Processing: 0x1 0x3 0x4 0x0 0x0 0x0 0x0 0xfa 0x33
DEBUG   2025-08-29 09:47:03,758  pymodbus.logging:decoders.py:103 decode PDU for 3
DEBUG   2025-08-29 09:47:03,758  pymodbus.logging:base.py:102 Frame advanced, resetting header!!
DEBUG   2025-08-29 09:47:03,758  pymodbus.logging:transaction.py:67 Adding transaction 0
DEBUG   2025-08-29 09:47:03,758  pymodbus.logging:transaction.py:78 Getting transaction 0
DEBUG   2025-08-29 09:47:03,758  pymodbus.logging:transaction.py:258 Changing transaction state from "PROCESSING REPLY" to "TRANSACTION_COMPLETE"
INFO    2025-08-29 09:47:03,758  root:modbus_rtu_tcp.py:44 read_measurement ret is:ReadHoldingRegistersResponse (2)
INFO    2025-08-29 09:47:03,758  root:acudc260_modbus_get.py:131 read u_voltage ret is:[0, 0]
DEBUG   2025-08-29 09:47:03,758  pymodbus.logging:transaction.py:184 Current transaction state - TRANSACTION_COMPLETE
DEBUG   2025-08-29 09:47:03,758  pymodbus.logging:transaction.py:193 Running transaction 0
DEBUG   2025-08-29 09:47:03,758  pymodbus.logging:transaction.py:293 SEND: 0x1 0x3 0x30 0x2 0x0 0x2 0x6a 0xcb
DEBUG   2025-08-29 09:47:03,758  pymodbus.logging:serial.py:271 Changing state to IDLE - Last Frame End - 1756432023.758323 Current Time stamp - 1756432023.758323
DEBUG   2025-08-29 09:47:03,758  pymodbus.logging:serial.py:279 Waiting for 3.5 char before next send - 1.823 ms
DEBUG   2025-08-29 09:47:03,761  pymodbus.logging:base.py:250 New Transaction state "SENDING"
DEBUG   2025-08-29 09:47:03,761  pymodbus.logging:transaction.py:317 Changing transaction state from "SENDING" to "WAITING FOR REPLY"
DEBUG   2025-08-29 09:47:03,790  pymodbus.logging:transaction.py:419 Changing transaction state from "WAITING FOR REPLY" to "PROCESSING REPLY"
DEBUG   2025-08-29 09:47:03,790  pymodbus.logging:transaction.py:324 RECV: 0x1 0x3 0x4 0x3f 0x4 0xcc 0x1d 0x22 0xef
DEBUG   2025-08-29 09:47:03,790  pymodbus.logging:base.py:92 Processing: 0x1 0x3 0x4 0x3f 0x4 0xcc 0x1d 0x22 0xef
DEBUG   2025-08-29 09:47:03,790  pymodbus.logging:decoders.py:103 decode PDU for 3
DEBUG   2025-08-29 09:47:03,790  pymodbus.logging:base.py:102 Frame advanced, resetting header!!
DEBUG   2025-08-29 09:47:03,790  pymodbus.logging:transaction.py:67 Adding transaction 0
DEBUG   2025-08-29 09:47:03,790  pymodbus.logging:transaction.py:78 Getting transaction 0
DEBUG   2025-08-29 09:47:03,790  pymodbus.logging:transaction.py:258 Changing transaction state from "PROCESSING REPLY" to "TRANSACTION_COMPLETE"
INFO    2025-08-29 09:47:03,790  root:modbus_rtu_tcp.py:44 read_measurement ret is:ReadHoldingRegistersResponse (2)
INFO    2025-08-29 09:47:03,790  root:acudc260_modbus_get.py:145 read i1_current ret is:[16132, 52253]
DEBUG   2025-08-29 09:47:03,790  pymodbus.logging:transaction.py:184 Current transaction state - TRANSACTION_COMPLETE
DEBUG   2025-08-29 09:47:03,790  pymodbus.logging:transaction.py:193 Running transaction 0
DEBUG   2025-08-29 09:47:03,790  pymodbus.logging:transaction.py:293 SEND: 0x1 0x3 0x30 0x4 0x0 0x2 0x8a 0xca
DEBUG   2025-08-29 09:47:03,790  pymodbus.logging:serial.py:271 Changing state to IDLE - Last Frame End - 1756432023.790753 Current Time stamp - 1756432023.790753
DEBUG   2025-08-29 09:47:03,791  pymodbus.logging:serial.py:279 Waiting for 3.5 char before next send - 1.823 ms
DEBUG   2025-08-29 09:47:03,793  pymodbus.logging:base.py:250 New Transaction state "SENDING"
DEBUG   2025-08-29 09:47:03,794  pymodbus.logging:transaction.py:317 Changing transaction state from "SENDING" to "WAITING FOR REPLY"
DEBUG   2025-08-29 09:47:03,824  pymodbus.logging:transaction.py:419 Changing transaction state from "WAITING FOR REPLY" to "PROCESSING REPLY"
DEBUG   2025-08-29 09:47:03,824  pymodbus.logging:transaction.py:324 RECV: 0x1 0x3 0x4 0x3f 0x2 0x74 0x78 0x70 0xc5
DEBUG   2025-08-29 09:47:03,824  pymodbus.logging:base.py:92 Processing: 0x1 0x3 0x4 0x3f 0x2 0x74 0x78 0x70 0xc5
DEBUG   2025-08-29 09:47:03,824  pymodbus.logging:decoders.py:103 decode PDU for 3
DEBUG   2025-08-29 09:47:03,824  pymodbus.logging:base.py:102 Frame advanced, resetting header!!
DEBUG   2025-08-29 09:47:03,824  pymodbus.logging:transaction.py:67 Adding transaction 0
DEBUG   2025-08-29 09:47:03,824  pymodbus.logging:transaction.py:78 Getting transaction 0
DEBUG   2025-08-29 09:47:03,824  pymodbus.logging:transaction.py:258 Changing transaction state from "PROCESSING REPLY" to "TRANSACTION_COMPLETE"
INFO    2025-08-29 09:47:03,824  root:modbus_rtu_tcp.py:44 read_measurement ret is:ReadHoldingRegistersResponse (2)
INFO    2025-08-29 09:47:03,824  root:acudc260_modbus_get.py:159 read i2_current ret is:[16130, 29816]
DEBUG   2025-08-29 09:47:03,824  pymodbus.logging:transaction.py:184 Current transaction state - TRANSACTION_COMPLETE
DEBUG   2025-08-29 09:47:03,824  pymodbus.logging:transaction.py:193 Running transaction 0
DEBUG   2025-08-29 09:47:03,824  pymodbus.logging:transaction.py:293 SEND: 0x1 0x3 0x30 0x6 0x0 0x2 0x2b 0xa
DEBUG   2025-08-29 09:47:03,824  pymodbus.logging:serial.py:271 Changing state to IDLE - Last Frame End - 1756432023.824186 Current Time stamp - 1756432023.824186
DEBUG   2025-08-29 09:47:03,824  pymodbus.logging:serial.py:279 Waiting for 3.5 char before next send - 1.823 ms
DEBUG   2025-08-29 09:47:03,827  pymodbus.logging:base.py:250 New Transaction state "SENDING"
DEBUG   2025-08-29 09:47:03,827  pymodbus.logging:transaction.py:317 Changing transaction state from "SENDING" to "WAITING FOR REPLY"
DEBUG   2025-08-29 09:47:03,854  pymodbus.logging:transaction.py:419 Changing transaction state from "WAITING FOR REPLY" to "PROCESSING REPLY"
DEBUG   2025-08-29 09:47:03,854  pymodbus.logging:transaction.py:324 RECV: 0x1 0x3 0x4 0x3f 0x83 0xa0 0x4a 0xfe 0x38
DEBUG   2025-08-29 09:47:03,854  pymodbus.logging:base.py:92 Processing: 0x1 0x3 0x4 0x3f 0x83 0xa0 0x4a 0xfe 0x38
DEBUG   2025-08-29 09:47:03,854  pymodbus.logging:decoders.py:103 decode PDU for 3
DEBUG   2025-08-29 09:47:03,854  pymodbus.logging:base.py:102 Frame advanced, resetting header!!
DEBUG   2025-08-29 09:47:03,854  pymodbus.logging:transaction.py:67 Adding transaction 0
DEBUG   2025-08-29 09:47:03,854  pymodbus.logging:transaction.py:78 Getting transaction 0
DEBUG   2025-08-29 09:47:03,854  pymodbus.logging:transaction.py:258 Changing transaction state from "PROCESSING REPLY" to "TRANSACTION_COMPLETE"
INFO    2025-08-29 09:47:03,854  root:modbus_rtu_tcp.py:44 read_measurement ret is:ReadHoldingRegistersResponse (2)
INFO    2025-08-29 09:47:03,854  root:acudc260_modbus_get.py:173 read i_sum_current ret is:[16259, 41034]
DEBUG   2025-08-29 09:47:03,854  pymodbus.logging:transaction.py:184 Current transaction state - TRANSACTION_COMPLETE
DEBUG   2025-08-29 09:47:03,854  pymodbus.logging:transaction.py:193 Running transaction 0
DEBUG   2025-08-29 09:47:03,854  pymodbus.logging:transaction.py:293 SEND: 0x1 0x3 0x30 0x8 0x0 0x2 0x4a 0xc9
DEBUG   2025-08-29 09:47:03,854  pymodbus.logging:serial.py:271 Changing state to IDLE - Last Frame End - 1756432023.854266 Current Time stamp - 1756432023.854266
DEBUG   2025-08-29 09:47:03,854  pymodbus.logging:serial.py:279 Waiting for 3.5 char before next send - 1.823 ms
DEBUG   2025-08-29 09:47:03,857  pymodbus.logging:base.py:250 New Transaction state "SENDING"
DEBUG   2025-08-29 09:47:03,857  pymodbus.logging:transaction.py:317 Changing transaction state from "SENDING" to "WAITING FOR REPLY"
DEBUG   2025-08-29 09:47:03,888  pymodbus.logging:transaction.py:419 Changing transaction state from "WAITING FOR REPLY" to "PROCESSING REPLY"
DEBUG   2025-08-29 09:47:03,888  pymodbus.logging:transaction.py:324 RECV: 0x1 0x3 0x4 0x0 0x0 0x0 0x0 0xfa 0x33
DEBUG   2025-08-29 09:47:03,888  pymodbus.logging:base.py:92 Processing: 0x1 0x3 0x4 0x0 0x0 0x0 0x0 0xfa 0x33
DEBUG   2025-08-29 09:47:03,888  pymodbus.logging:decoders.py:103 decode PDU for 3
DEBUG   2025-08-29 09:47:03,888  pymodbus.logging:base.py:102 Frame advanced, resetting header!!
DEBUG   2025-08-29 09:47:03,888  pymodbus.logging:transaction.py:67 Adding transaction 0
DEBUG   2025-08-29 09:47:03,888  pymodbus.logging:transaction.py:78 Getting transaction 0
DEBUG   2025-08-29 09:47:03,888  pymodbus.logging:transaction.py:258 Changing transaction state from "PROCESSING REPLY" to "TRANSACTION_COMPLETE"
INFO    2025-08-29 09:47:03,888  root:modbus_rtu_tcp.py:44 read_measurement ret is:ReadHoldingRegistersResponse (2)
INFO    2025-08-29 09:47:03,888  root:acudc260_modbus_get.py:187 read p1_power ret is:[0, 0]
DEBUG   2025-08-29 09:47:03,888  pymodbus.logging:transaction.py:184 Current transaction state - TRANSACTION_COMPLETE
DEBUG   2025-08-29 09:47:03,888  pymodbus.logging:transaction.py:193 Running transaction 0
DEBUG   2025-08-29 09:47:03,888  pymodbus.logging:transaction.py:293 SEND: 0x1 0x3 0x30 0xa 0x0 0x2 0xeb 0x9
DEBUG   2025-08-29 09:47:03,888  pymodbus.logging:serial.py:271 Changing state to IDLE - Last Frame End - 1756432023.888135 Current Time stamp - 1756432023.88864
DEBUG   2025-08-29 09:47:03,888  pymodbus.logging:serial.py:279 Waiting for 3.5 char before next send - 1.823 ms
DEBUG   2025-08-29 09:47:03,891  pymodbus.logging:base.py:250 New Transaction state "SENDING"
DEBUG   2025-08-29 09:47:03,891  pymodbus.logging:transaction.py:317 Changing transaction state from "SENDING" to "WAITING FOR REPLY"
DEBUG   2025-08-29 09:47:03,920  pymodbus.logging:transaction.py:419 Changing transaction state from "WAITING FOR REPLY" to "PROCESSING REPLY"
DEBUG   2025-08-29 09:47:03,920  pymodbus.logging:transaction.py:324 RECV: 0x1 0x3 0x4 0x0 0x0 0x0 0x0 0xfa 0x33
DEBUG   2025-08-29 09:47:03,920  pymodbus.logging:base.py:92 Processing: 0x1 0x3 0x4 0x0 0x0 0x0 0x0 0xfa 0x33
DEBUG   2025-08-29 09:47:03,920  pymodbus.logging:decoders.py:103 decode PDU for 3
DEBUG   2025-08-29 09:47:03,920  pymodbus.logging:base.py:102 Frame advanced, resetting header!!
DEBUG   2025-08-29 09:47:03,920  pymodbus.logging:transaction.py:67 Adding transaction 0
DEBUG   2025-08-29 09:47:03,920  pymodbus.logging:transaction.py:78 Getting transaction 0
DEBUG   2025-08-29 09:47:03,920  pymodbus.logging:transaction.py:258 Changing transaction state from "PROCESSING REPLY" to "TRANSACTION_COMPLETE"
INFO    2025-08-29 09:47:03,920  root:modbus_rtu_tcp.py:44 read_measurement ret is:ReadHoldingRegistersResponse (2)
INFO    2025-08-29 09:47:03,920  root:acudc260_modbus_get.py:201 read p2_power ret is:[0, 0]
DEBUG   2025-08-29 09:47:03,920  pymodbus.logging:transaction.py:184 Current transaction state - TRANSACTION_COMPLETE
DEBUG   2025-08-29 09:47:03,920  pymodbus.logging:transaction.py:193 Running transaction 0
DEBUG   2025-08-29 09:47:03,920  pymodbus.logging:transaction.py:293 SEND: 0x1 0x3 0x30 0xc 0x0 0x2 0xb 0x8
DEBUG   2025-08-29 09:47:03,920  pymodbus.logging:serial.py:271 Changing state to IDLE - Last Frame End - 1756432023.920651 Current Time stamp - 1756432023.920651
DEBUG   2025-08-29 09:47:03,920  pymodbus.logging:serial.py:279 Waiting for 3.5 char before next send - 1.823 ms
DEBUG   2025-08-29 09:47:03,923  pymodbus.logging:base.py:250 New Transaction state "SENDING"
DEBUG   2025-08-29 09:47:03,924  pymodbus.logging:transaction.py:317 Changing transaction state from "SENDING" to "WAITING FOR REPLY"
DEBUG   2025-08-29 09:47:03,950  pymodbus.logging:transaction.py:419 Changing transaction state from "WAITING FOR REPLY" to "PROCESSING REPLY"
DEBUG   2025-08-29 09:47:03,950  pymodbus.logging:transaction.py:324 RECV: 0x1 0x3 0x4 0x0 0x0 0x0 0x0 0xfa 0x33
DEBUG   2025-08-29 09:47:03,950  pymodbus.logging:base.py:92 Processing: 0x1 0x3 0x4 0x0 0x0 0x0 0x0 0xfa 0x33
DEBUG   2025-08-29 09:47:03,950  pymodbus.logging:decoders.py:103 decode PDU for 3
DEBUG   2025-08-29 09:47:03,950  pymodbus.logging:base.py:102 Frame advanced, resetting header!!
DEBUG   2025-08-29 09:47:03,950  pymodbus.logging:transaction.py:67 Adding transaction 0
DEBUG   2025-08-29 09:47:03,950  pymodbus.logging:transaction.py:78 Getting transaction 0
DEBUG   2025-08-29 09:47:03,950  pymodbus.logging:transaction.py:258 Changing transaction state from "PROCESSING REPLY" to "TRANSACTION_COMPLETE"
INFO    2025-08-29 09:47:03,950  root:modbus_rtu_tcp.py:44 read_measurement ret is:ReadHoldingRegistersResponse (2)
INFO    2025-08-29 09:47:03,950  root:acudc260_modbus_get.py:215 read p_sum_power ret is:[0, 0]
DEBUG   2025-08-29 09:47:04,051  pymodbus.logging:transaction.py:184 Current transaction state - TRANSACTION_COMPLETE
DEBUG   2025-08-29 09:47:04,051  pymodbus.logging:transaction.py:193 Running transaction 0
DEBUG   2025-08-29 09:47:04,051  pymodbus.logging:transaction.py:293 SEND: 0x1 0x3 0x30 0x0 0x0 0x2 0xcb 0xb
DEBUG   2025-08-29 09:47:04,051  pymodbus.logging:serial.py:271 Changing state to IDLE - Last Frame End - 1756432023.950025 Current Time stamp - 1756432024.051737
DEBUG   2025-08-29 09:47:04,051  pymodbus.logging:base.py:250 New Transaction state "SENDING"
DEBUG   2025-08-29 09:47:04,051  pymodbus.logging:transaction.py:317 Changing transaction state from "SENDING" to "WAITING FOR REPLY"
DEBUG   2025-08-29 09:47:04,078  pymodbus.logging:transaction.py:419 Changing transaction state from "WAITING FOR REPLY" to "PROCESSING REPLY"
DEBUG   2025-08-29 09:47:04,078  pymodbus.logging:transaction.py:324 RECV: 0x1 0x3 0x4 0x0 0x0 0x0 0x0 0xfa 0x33
DEBUG   2025-08-29 09:47:04,078  pymodbus.logging:base.py:92 Processing: 0x1 0x3 0x4 0x0 0x0 0x0 0x0 0xfa 0x33
DEBUG   2025-08-29 09:47:04,078  pymodbus.logging:decoders.py:103 decode PDU for 3
DEBUG   2025-08-29 09:47:04,078  pymodbus.logging:base.py:102 Frame advanced, resetting header!!
DEBUG   2025-08-29 09:47:04,079  pymodbus.logging:transaction.py:67 Adding transaction 0
DEBUG   2025-08-29 09:47:04,079  pymodbus.logging:transaction.py:78 Getting transaction 0
DEBUG   2025-08-29 09:47:04,079  pymodbus.logging:transaction.py:258 Changing transaction state from "PROCESSING REPLY" to "TRANSACTION_COMPLETE"
INFO    2025-08-29 09:47:04,079  root:modbus_rtu_tcp.py:44 read_measurement ret is:ReadHoldingRegistersResponse (2)
INFO    2025-08-29 09:47:04,079  root:acudc260_modbus_get.py:131 read u_voltage ret is:[0, 0]
DEBUG   2025-08-29 09:47:04,079  pymodbus.logging:transaction.py:184 Current transaction state - TRANSACTION_COMPLETE
DEBUG   2025-08-29 09:47:04,079  pymodbus.logging:transaction.py:193 Running transaction 0
DEBUG   2025-08-29 09:47:04,079  pymodbus.logging:transaction.py:293 SEND: 0x1 0x3 0x30 0x2 0x0 0x2 0x6a 0xcb
DEBUG   2025-08-29 09:47:04,079  pymodbus.logging:serial.py:271 Changing state to IDLE - Last Frame End - 1756432024.078644 Current Time stamp - 1756432024.07967
DEBUG   2025-08-29 09:47:04,079  pymodbus.logging:serial.py:279 Waiting for 3.5 char before next send - 1.823 ms
DEBUG   2025-08-29 09:47:04,082  pymodbus.logging:base.py:250 New Transaction state "SENDING"
DEBUG   2025-08-29 09:47:04,083  pymodbus.logging:transaction.py:317 Changing transaction state from "SENDING" to "WAITING FOR REPLY"
DEBUG   2025-08-29 09:47:04,111  pymodbus.logging:transaction.py:419 Changing transaction state from "WAITING FOR REPLY" to "PROCESSING REPLY"
DEBUG   2025-08-29 09:47:04,111  pymodbus.logging:transaction.py:324 RECV: 0x1 0x3 0x4 0x3f 0x4 0x36 0xfa 0x20 0x5
DEBUG   2025-08-29 09:47:04,111  pymodbus.logging:base.py:92 Processing: 0x1 0x3 0x4 0x3f 0x4 0x36 0xfa 0x20 0x5
DEBUG   2025-08-29 09:47:04,111  pymodbus.logging:decoders.py:103 decode PDU for 3
DEBUG   2025-08-29 09:47:04,111  pymodbus.logging:base.py:102 Frame advanced, resetting header!!
DEBUG   2025-08-29 09:47:04,111  pymodbus.logging:transaction.py:67 Adding transaction 0
DEBUG   2025-08-29 09:47:04,111  pymodbus.logging:transaction.py:78 Getting transaction 0
DEBUG   2025-08-29 09:47:04,111  pymodbus.logging:transaction.py:258 Changing transaction state from "PROCESSING REPLY" to "TRANSACTION_COMPLETE"
INFO    2025-08-29 09:47:04,111  root:modbus_rtu_tcp.py:44 read_measurement ret is:ReadHoldingRegistersResponse (2)
INFO    2025-08-29 09:47:04,111  root:acudc260_modbus_get.py:145 read i1_current ret is:[16132, 14074]
DEBUG   2025-08-29 09:47:04,112  pymodbus.logging:transaction.py:184 Current transaction state - TRANSACTION_COMPLETE
DEBUG   2025-08-29 09:47:04,112  pymodbus.logging:transaction.py:193 Running transaction 0
DEBUG   2025-08-29 09:47:04,112  pymodbus.logging:transaction.py:293 SEND: 0x1 0x3 0x30 0x4 0x0 0x2 0x8a 0xca
DEBUG   2025-08-29 09:47:04,112  pymodbus.logging:serial.py:271 Changing state to IDLE - Last Frame End - 1756432024.111592 Current Time stamp - 1756432024.112602
DEBUG   2025-08-29 09:47:04,112  pymodbus.logging:serial.py:279 Waiting for 3.5 char before next send - 1.823 ms
DEBUG   2025-08-29 09:47:04,115  pymodbus.logging:base.py:250 New Transaction state "SENDING"
DEBUG   2025-08-29 09:47:04,115  pymodbus.logging:transaction.py:317 Changing transaction state from "SENDING" to "WAITING FOR REPLY"
DEBUG   2025-08-29 09:47:04,143  pymodbus.logging:transaction.py:419 Changing transaction state from "WAITING FOR REPLY" to "PROCESSING REPLY"
DEBUG   2025-08-29 09:47:04,143  pymodbus.logging:transaction.py:324 RECV: 0x1 0x3 0x4 0x3f 0x4 0x0 0x1d 0x77 0xef
DEBUG   2025-08-29 09:47:04,143  pymodbus.logging:base.py:92 Processing: 0x1 0x3 0x4 0x3f 0x4 0x0 0x1d 0x77 0xef
DEBUG   2025-08-29 09:47:04,143  pymodbus.logging:decoders.py:103 decode PDU for 3
DEBUG   2025-08-29 09:47:04,143  pymodbus.logging:base.py:102 Frame advanced, resetting header!!
DEBUG   2025-08-29 09:47:04,143  pymodbus.logging:transaction.py:67 Adding transaction 0
DEBUG   2025-08-29 09:47:04,143  pymodbus.logging:transaction.py:78 Getting transaction 0
DEBUG   2025-08-29 09:47:04,143  pymodbus.logging:transaction.py:258 Changing transaction state from "PROCESSING REPLY" to "TRANSACTION_COMPLETE"
INFO    2025-08-29 09:47:04,143  root:modbus_rtu_tcp.py:44 read_measurement ret is:ReadHoldingRegistersResponse (2)
INFO    2025-08-29 09:47:04,143  root:acudc260_modbus_get.py:159 read i2_current ret is:[16132, 29]
DEBUG   2025-08-29 09:47:04,143  pymodbus.logging:transaction.py:184 Current transaction state - TRANSACTION_COMPLETE
DEBUG   2025-08-29 09:47:04,143  pymodbus.logging:transaction.py:193 Running transaction 0
DEBUG   2025-08-29 09:47:04,143  pymodbus.logging:transaction.py:293 SEND: 0x1 0x3 0x30 0x6 0x0 0x2 0x2b 0xa
DEBUG   2025-08-29 09:47:04,143  pymodbus.logging:serial.py:271 Changing state to IDLE - Last Frame End - 1756432024.143922 Current Time stamp - 1756432024.143922
DEBUG   2025-08-29 09:47:04,143  pymodbus.logging:serial.py:279 Waiting for 3.5 char before next send - 1.823 ms
DEBUG   2025-08-29 09:47:04,147  pymodbus.logging:base.py:250 New Transaction state "SENDING"
DEBUG   2025-08-29 09:47:04,147  pymodbus.logging:transaction.py:317 Changing transaction state from "SENDING" to "WAITING FOR REPLY"
DEBUG   2025-08-29 09:47:04,174  pymodbus.logging:transaction.py:419 Changing transaction state from "WAITING FOR REPLY" to "PROCESSING REPLY"
DEBUG   2025-08-29 09:47:04,174  pymodbus.logging:transaction.py:324 RECV: 0x1 0x3 0x4 0x3f 0x83 0x47 0x6c 0x34 0x12
DEBUG   2025-08-29 09:47:04,174  pymodbus.logging:base.py:92 Processing: 0x1 0x3 0x4 0x3f 0x83 0x47 0x6c 0x34 0x12
DEBUG   2025-08-29 09:47:04,174  pymodbus.logging:decoders.py:103 decode PDU for 3
DEBUG   2025-08-29 09:47:04,174  pymodbus.logging:base.py:102 Frame advanced, resetting header!!
DEBUG   2025-08-29 09:47:04,174  pymodbus.logging:transaction.py:67 Adding transaction 0
DEBUG   2025-08-29 09:47:04,174  pymodbus.logging:transaction.py:78 Getting transaction 0
DEBUG   2025-08-29 09:47:04,174  pymodbus.logging:transaction.py:258 Changing transaction state from "PROCESSING REPLY" to "TRANSACTION_COMPLETE"
INFO    2025-08-29 09:47:04,174  root:modbus_rtu_tcp.py:44 read_measurement ret is:ReadHoldingRegistersResponse (2)
INFO    2025-08-29 09:47:04,174  root:acudc260_modbus_get.py:173 read i_sum_current ret is:[16259, 18284]
DEBUG   2025-08-29 09:47:04,174  pymodbus.logging:transaction.py:184 Current transaction state - TRANSACTION_COMPLETE
DEBUG   2025-08-29 09:47:04,174  pymodbus.logging:transaction.py:193 Running transaction 0
DEBUG   2025-08-29 09:47:04,174  pymodbus.logging:transaction.py:293 SEND: 0x1 0x3 0x30 0x8 0x0 0x2 0x4a 0xc9
DEBUG   2025-08-29 09:47:04,174  pymodbus.logging:serial.py:271 Changing state to IDLE - Last Frame End - 1756432024.174186 Current Time stamp - 1756432024.174744
DEBUG   2025-08-29 09:47:04,174  pymodbus.logging:serial.py:279 Waiting for 3.5 char before next send - 1.823 ms
DEBUG   2025-08-29 09:47:04,177  pymodbus.logging:base.py:250 New Transaction state "SENDING"
DEBUG   2025-08-29 09:47:04,177  pymodbus.logging:transaction.py:317 Changing transaction state from "SENDING" to "WAITING FOR REPLY"
DEBUG   2025-08-29 09:47:04,207  pymodbus.logging:transaction.py:419 Changing transaction state from "WAITING FOR REPLY" to "PROCESSING REPLY"
DEBUG   2025-08-29 09:47:04,207  pymodbus.logging:transaction.py:324 RECV: 0x1 0x3 0x4 0x0 0x0 0x0 0x0 0xfa 0x33
DEBUG   2025-08-29 09:47:04,207  pymodbus.logging:base.py:92 Processing: 0x1 0x3 0x4 0x0 0x0 0x0 0x0 0xfa 0x33
DEBUG   2025-08-29 09:47:04,207  pymodbus.logging:decoders.py:103 decode PDU for 3
DEBUG   2025-08-29 09:47:04,207  pymodbus.logging:base.py:102 Frame advanced, resetting header!!
DEBUG   2025-08-29 09:47:04,207  pymodbus.logging:transaction.py:67 Adding transaction 0
DEBUG   2025-08-29 09:47:04,207  pymodbus.logging:transaction.py:78 Getting transaction 0
DEBUG   2025-08-29 09:47:04,207  pymodbus.logging:transaction.py:258 Changing transaction state from "PROCESSING REPLY" to "TRANSACTION_COMPLETE"
INFO    2025-08-29 09:47:04,207  root:modbus_rtu_tcp.py:44 read_measurement ret is:ReadHoldingRegistersResponse (2)
INFO    2025-08-29 09:47:04,207  root:acudc260_modbus_get.py:187 read p1_power ret is:[0, 0]
DEBUG   2025-08-29 09:47:04,207  pymodbus.logging:transaction.py:184 Current transaction state - TRANSACTION_COMPLETE
DEBUG   2025-08-29 09:47:04,207  pymodbus.logging:transaction.py:193 Running transaction 0
DEBUG   2025-08-29 09:47:04,207  pymodbus.logging:transaction.py:293 SEND: 0x1 0x3 0x30 0xa 0x0 0x2 0xeb 0x9
DEBUG   2025-08-29 09:47:04,207  pymodbus.logging:serial.py:271 Changing state to IDLE - Last Frame End - 1756432024.207263 Current Time stamp - 1756432024.20787
DEBUG   2025-08-29 09:47:04,207  pymodbus.logging:serial.py:279 Waiting for 3.5 char before next send - 1.823 ms
DEBUG   2025-08-29 09:47:04,210  pymodbus.logging:base.py:250 New Transaction state "SENDING"
DEBUG   2025-08-29 09:47:04,210  pymodbus.logging:transaction.py:317 Changing transaction state from "SENDING" to "WAITING FOR REPLY"
DEBUG   2025-08-29 09:47:04,240  pymodbus.logging:transaction.py:419 Changing transaction state from "WAITING FOR REPLY" to "PROCESSING REPLY"
DEBUG   2025-08-29 09:47:04,240  pymodbus.logging:transaction.py:324 RECV: 0x1 0x3 0x4 0x0 0x0 0x0 0x0 0xfa 0x33
DEBUG   2025-08-29 09:47:04,240  pymodbus.logging:base.py:92 Processing: 0x1 0x3 0x4 0x0 0x0 0x0 0x0 0xfa 0x33
DEBUG   2025-08-29 09:47:04,240  pymodbus.logging:decoders.py:103 decode PDU for 3
DEBUG   2025-08-29 09:47:04,240  pymodbus.logging:base.py:102 Frame advanced, resetting header!!
DEBUG   2025-08-29 09:47:04,240  pymodbus.logging:transaction.py:67 Adding transaction 0
DEBUG   2025-08-29 09:47:04,240  pymodbus.logging:transaction.py:78 Getting transaction 0
DEBUG   2025-08-29 09:47:04,240  pymodbus.logging:transaction.py:258 Changing transaction state from "PROCESSING REPLY" to "TRANSACTION_COMPLETE"
INFO    2025-08-29 09:47:04,240  root:modbus_rtu_tcp.py:44 read_measurement ret is:ReadHoldingRegistersResponse (2)
INFO    2025-08-29 09:47:04,240  root:acudc260_modbus_get.py:201 read p2_power ret is:[0, 0]
DEBUG   2025-08-29 09:47:04,240  pymodbus.logging:transaction.py:184 Current transaction state - TRANSACTION_COMPLETE
DEBUG   2025-08-29 09:47:04,240  pymodbus.logging:transaction.py:193 Running transaction 0
DEBUG   2025-08-29 09:47:04,240  pymodbus.logging:transaction.py:293 SEND: 0x1 0x3 0x30 0xc 0x0 0x2 0xb 0x8
DEBUG   2025-08-29 09:47:04,240  pymodbus.logging:serial.py:271 Changing state to IDLE - Last Frame End - 1756432024.240191 Current Time stamp - 1756432024.240191
DEBUG   2025-08-29 09:47:04,240  pymodbus.logging:serial.py:279 Waiting for 3.5 char before next send - 1.823 ms
DEBUG   2025-08-29 09:47:04,243  pymodbus.logging:base.py:250 New Transaction state "SENDING"
DEBUG   2025-08-29 09:47:04,243  pymodbus.logging:transaction.py:317 Changing transaction state from "SENDING" to "WAITING FOR REPLY"
DEBUG   2025-08-29 09:47:04,271  pymodbus.logging:transaction.py:419 Changing transaction state from "WAITING FOR REPLY" to "PROCESSING REPLY"
DEBUG   2025-08-29 09:47:04,271  pymodbus.logging:transaction.py:324 RECV: 0x1 0x3 0x4 0x0 0x0 0x0 0x0 0xfa 0x33
DEBUG   2025-08-29 09:47:04,271  pymodbus.logging:base.py:92 Processing: 0x1 0x3 0x4 0x0 0x0 0x0 0x0 0xfa 0x33
DEBUG   2025-08-29 09:47:04,271  pymodbus.logging:decoders.py:103 decode PDU for 3
DEBUG   2025-08-29 09:47:04,271  pymodbus.logging:base.py:102 Frame advanced, resetting header!!
DEBUG   2025-08-29 09:47:04,271  pymodbus.logging:transaction.py:67 Adding transaction 0
DEBUG   2025-08-29 09:47:04,271  pymodbus.logging:transaction.py:78 Getting transaction 0
DEBUG   2025-08-29 09:47:04,271  pymodbus.logging:transaction.py:258 Changing transaction state from "PROCESSING REPLY" to "TRANSACTION_COMPLETE"
INFO    2025-08-29 09:47:04,271  root:modbus_rtu_tcp.py:44 read_measurement ret is:ReadHoldingRegistersResponse (2)
INFO    2025-08-29 09:47:04,271  root:acudc260_modbus_get.py:215 read p_sum_power ret is:[0, 0]
DEBUG   2025-08-29 09:47:04,372  pymodbus.logging:transaction.py:184 Current transaction state - TRANSACTION_COMPLETE
DEBUG   2025-08-29 09:47:04,372  pymodbus.logging:transaction.py:193 Running transaction 0
DEBUG   2025-08-29 09:47:04,372  pymodbus.logging:transaction.py:293 SEND: 0x1 0x3 0x30 0x0 0x0 0x2 0xcb 0xb
DEBUG   2025-08-29 09:47:04,372  pymodbus.logging:serial.py:271 Changing state to IDLE - Last Frame End - 1756432024.271545 Current Time stamp - 1756432024.372269
DEBUG   2025-08-29 09:47:04,372  pymodbus.logging:base.py:250 New Transaction state "SENDING"
DEBUG   2025-08-29 09:47:04,372  pymodbus.logging:transaction.py:317 Changing transaction state from "SENDING" to "WAITING FOR REPLY"
DEBUG   2025-08-29 09:47:04,398  pymodbus.logging:transaction.py:419 Changing transaction state from "WAITING FOR REPLY" to "PROCESSING REPLY"
DEBUG   2025-08-29 09:47:04,399  pymodbus.logging:transaction.py:324 RECV: 0x1 0x3 0x4 0x0 0x0 0x0 0x0 0xfa 0x33
DEBUG   2025-08-29 09:47:04,399  pymodbus.logging:base.py:92 Processing: 0x1 0x3 0x4 0x0 0x0 0x0 0x0 0xfa 0x33
DEBUG   2025-08-29 09:47:04,399  pymodbus.logging:decoders.py:103 decode PDU for 3
DEBUG   2025-08-29 09:47:04,399  pymodbus.logging:base.py:102 Frame advanced, resetting header!!
DEBUG   2025-08-29 09:47:04,399  pymodbus.logging:transaction.py:67 Adding transaction 0
DEBUG   2025-08-29 09:47:04,399  pymodbus.logging:transaction.py:78 Getting transaction 0
DEBUG   2025-08-29 09:47:04,399  pymodbus.logging:transaction.py:258 Changing transaction state from "PROCESSING REPLY" to "TRANSACTION_COMPLETE"
INFO    2025-08-29 09:47:04,399  root:modbus_rtu_tcp.py:44 read_measurement ret is:ReadHoldingRegistersResponse (2)
INFO    2025-08-29 09:47:04,399  root:acudc260_modbus_get.py:131 read u_voltage ret is:[0, 0]
DEBUG   2025-08-29 09:47:04,399  pymodbus.logging:transaction.py:184 Current transaction state - TRANSACTION_COMPLETE
DEBUG   2025-08-29 09:47:04,400  pymodbus.logging:transaction.py:193 Running transaction 0
DEBUG   2025-08-29 09:47:04,400  pymodbus.logging:transaction.py:293 SEND: 0x1 0x3 0x30 0x2 0x0 0x2 0x6a 0xcb
DEBUG   2025-08-29 09:47:04,400  pymodbus.logging:serial.py:271 Changing state to IDLE - Last Frame End - 1756432024.398698 Current Time stamp - 1756432024.400288
DEBUG   2025-08-29 09:47:04,400  pymodbus.logging:serial.py:279 Waiting for 3.5 char before next send - 1.823 ms
DEBUG   2025-08-29 09:47:04,402  pymodbus.logging:base.py:250 New Transaction state "SENDING"
DEBUG   2025-08-29 09:47:04,402  pymodbus.logging:transaction.py:317 Changing transaction state from "SENDING" to "WAITING FOR REPLY"
DEBUG   2025-08-29 09:47:04,432  pymodbus.logging:transaction.py:419 Changing transaction state from "WAITING FOR REPLY" to "PROCESSING REPLY"
DEBUG   2025-08-29 09:47:04,432  pymodbus.logging:transaction.py:324 RECV: 0x1 0x3 0x4 0x3f 0x4 0x14 0xe8 0xb8 0xa8
DEBUG   2025-08-29 09:47:04,432  pymodbus.logging:base.py:92 Processing: 0x1 0x3 0x4 0x3f 0x4 0x14 0xe8 0xb8 0xa8
DEBUG   2025-08-29 09:47:04,432  pymodbus.logging:decoders.py:103 decode PDU for 3
DEBUG   2025-08-29 09:47:04,432  pymodbus.logging:base.py:102 Frame advanced, resetting header!!
DEBUG   2025-08-29 09:47:04,432  pymodbus.logging:transaction.py:67 Adding transaction 0
DEBUG   2025-08-29 09:47:04,432  pymodbus.logging:transaction.py:78 Getting transaction 0
DEBUG   2025-08-29 09:47:04,432  pymodbus.logging:transaction.py:258 Changing transaction state from "PROCESSING REPLY" to "TRANSACTION_COMPLETE"
INFO    2025-08-29 09:47:04,432  root:modbus_rtu_tcp.py:44 read_measurement ret is:ReadHoldingRegistersResponse (2)
INFO    2025-08-29 09:47:04,432  root:acudc260_modbus_get.py:145 read i1_current ret is:[16132, 5352]
DEBUG   2025-08-29 09:47:04,432  pymodbus.logging:transaction.py:184 Current transaction state - TRANSACTION_COMPLETE
DEBUG   2025-08-29 09:47:04,432  pymodbus.logging:transaction.py:193 Running transaction 0
DEBUG   2025-08-29 09:47:04,432  pymodbus.logging:transaction.py:293 SEND: 0x1 0x3 0x30 0x4 0x0 0x2 0x8a 0xca
DEBUG   2025-08-29 09:47:04,432  pymodbus.logging:serial.py:271 Changing state to IDLE - Last Frame End - 1756432024.432008 Current Time stamp - 1756432024.432008
DEBUG   2025-08-29 09:47:04,433  pymodbus.logging:serial.py:279 Waiting for 3.5 char before next send - 1.823 ms
DEBUG   2025-08-29 09:47:04,435  pymodbus.logging:base.py:250 New Transaction state "SENDING"
DEBUG   2025-08-29 09:47:04,435  pymodbus.logging:transaction.py:317 Changing transaction state from "SENDING" to "WAITING FOR REPLY"
DEBUG   2025-08-29 09:47:04,463  pymodbus.logging:transaction.py:419 Changing transaction state from "WAITING FOR REPLY" to "PROCESSING REPLY"
DEBUG   2025-08-29 09:47:04,463  pymodbus.logging:transaction.py:324 RECV: 0x1 0x3 0x4 0x3f 0x3 0x49 0xe6 0xb0 0x3d
DEBUG   2025-08-29 09:47:04,463  pymodbus.logging:base.py:92 Processing: 0x1 0x3 0x4 0x3f 0x3 0x49 0xe6 0xb0 0x3d
DEBUG   2025-08-29 09:47:04,463  pymodbus.logging:decoders.py:103 decode PDU for 3
DEBUG   2025-08-29 09:47:04,463  pymodbus.logging:base.py:102 Frame advanced, resetting header!!
DEBUG   2025-08-29 09:47:04,463  pymodbus.logging:transaction.py:67 Adding transaction 0
DEBUG   2025-08-29 09:47:04,463  pymodbus.logging:transaction.py:78 Getting transaction 0
DEBUG   2025-08-29 09:47:04,463  pymodbus.logging:transaction.py:258 Changing transaction state from "PROCESSING REPLY" to "TRANSACTION_COMPLETE"
INFO    2025-08-29 09:47:04,464  root:modbus_rtu_tcp.py:44 read_measurement ret is:ReadHoldingRegistersResponse (2)
INFO    2025-08-29 09:47:04,464  root:acudc260_modbus_get.py:159 read i2_current ret is:[16131, 18918]
DEBUG   2025-08-29 09:47:04,464  pymodbus.logging:transaction.py:184 Current transaction state - TRANSACTION_COMPLETE
DEBUG   2025-08-29 09:47:04,464  pymodbus.logging:transaction.py:193 Running transaction 0
DEBUG   2025-08-29 09:47:04,464  pymodbus.logging:transaction.py:293 SEND: 0x1 0x3 0x30 0x6 0x0 0x2 0x2b 0xa
DEBUG   2025-08-29 09:47:04,464  pymodbus.logging:serial.py:271 Changing state to IDLE - Last Frame End - 1756432024.463169 Current Time stamp - 1756432024.464183
DEBUG   2025-08-29 09:47:04,464  pymodbus.logging:serial.py:279 Waiting for 3.5 char before next send - 1.823 ms
DEBUG   2025-08-29 09:47:04,466  pymodbus.logging:base.py:250 New Transaction state "SENDING"
DEBUG   2025-08-29 09:47:04,467  pymodbus.logging:transaction.py:317 Changing transaction state from "SENDING" to "WAITING FOR REPLY"
DEBUG   2025-08-29 09:47:04,493  pymodbus.logging:transaction.py:419 Changing transaction state from "WAITING FOR REPLY" to "PROCESSING REPLY"
DEBUG   2025-08-29 09:47:04,493  pymodbus.logging:transaction.py:324 RECV: 0x1 0x3 0x4 0x3f 0x84 0x88 0x0 0xd0 0xe
DEBUG   2025-08-29 09:47:04,493  pymodbus.logging:base.py:92 Processing: 0x1 0x3 0x4 0x3f 0x84 0x88 0x0 0xd0 0xe
DEBUG   2025-08-29 09:47:04,493  pymodbus.logging:decoders.py:103 decode PDU for 3
DEBUG   2025-08-29 09:47:04,493  pymodbus.logging:base.py:102 Frame advanced, resetting header!!
DEBUG   2025-08-29 09:47:04,493  pymodbus.logging:transaction.py:67 Adding transaction 0
DEBUG   2025-08-29 09:47:04,493  pymodbus.logging:transaction.py:78 Getting transaction 0
DEBUG   2025-08-29 09:47:04,493  pymodbus.logging:transaction.py:258 Changing transaction state from "PROCESSING REPLY" to "TRANSACTION_COMPLETE"
INFO    2025-08-29 09:47:04,493  root:modbus_rtu_tcp.py:44 read_measurement ret is:ReadHoldingRegistersResponse (2)
INFO    2025-08-29 09:47:04,493  root:acudc260_modbus_get.py:173 read i_sum_current ret is:[16260, 34816]
DEBUG   2025-08-29 09:47:04,493  pymodbus.logging:transaction.py:184 Current transaction state - TRANSACTION_COMPLETE
DEBUG   2025-08-29 09:47:04,493  pymodbus.logging:transaction.py:193 Running transaction 0
DEBUG   2025-08-29 09:47:04,493  pymodbus.logging:transaction.py:293 SEND: 0x1 0x3 0x30 0x8 0x0 0x2 0x4a 0xc9
DEBUG   2025-08-29 09:47:04,493  pymodbus.logging:serial.py:271 Changing state to IDLE - Last Frame End - 1756432024.493984 Current Time stamp - 1756432024.493984
DEBUG   2025-08-29 09:47:04,493  pymodbus.logging:serial.py:279 Waiting for 3.5 char before next send - 1.823 ms
DEBUG   2025-08-29 09:47:04,496  pymodbus.logging:base.py:250 New Transaction state "SENDING"
DEBUG   2025-08-29 09:47:04,496  pymodbus.logging:transaction.py:317 Changing transaction state from "SENDING" to "WAITING FOR REPLY"
DEBUG   2025-08-29 09:47:04,522  pymodbus.logging:transaction.py:419 Changing transaction state from "WAITING FOR REPLY" to "PROCESSING REPLY"
DEBUG   2025-08-29 09:47:04,523  pymodbus.logging:transaction.py:324 RECV: 0x1 0x3 0x4 0x0 0x0 0x0 0x0 0xfa 0x33
DEBUG   2025-08-29 09:47:04,523  pymodbus.logging:base.py:92 Processing: 0x1 0x3 0x4 0x0 0x0 0x0 0x0 0xfa 0x33
DEBUG   2025-08-29 09:47:04,523  pymodbus.logging:decoders.py:103 decode PDU for 3
DEBUG   2025-08-29 09:47:04,523  pymodbus.logging:base.py:102 Frame advanced, resetting header!!
DEBUG   2025-08-29 09:47:04,523  pymodbus.logging:transaction.py:67 Adding transaction 0
DEBUG   2025-08-29 09:47:04,523  pymodbus.logging:transaction.py:78 Getting transaction 0
DEBUG   2025-08-29 09:47:04,523  pymodbus.logging:transaction.py:258 Changing transaction state from "PROCESSING REPLY" to "TRANSACTION_COMPLETE"
INFO    2025-08-29 09:47:04,523  root:modbus_rtu_tcp.py:44 read_measurement ret is:ReadHoldingRegistersResponse (2)
INFO    2025-08-29 09:47:04,523  root:acudc260_modbus_get.py:187 read p1_power ret is:[0, 0]
DEBUG   2025-08-29 09:47:04,523  pymodbus.logging:transaction.py:184 Current transaction state - TRANSACTION_COMPLETE
DEBUG   2025-08-29 09:47:04,523  pymodbus.logging:transaction.py:193 Running transaction 0
DEBUG   2025-08-29 09:47:04,523  pymodbus.logging:transaction.py:293 SEND: 0x1 0x3 0x30 0xa 0x0 0x2 0xeb 0x9
DEBUG   2025-08-29 09:47:04,523  pymodbus.logging:serial.py:271 Changing state to IDLE - Last Frame End - 1756432024.522591 Current Time stamp - 1756432024.523597
DEBUG   2025-08-29 09:47:04,523  pymodbus.logging:serial.py:279 Waiting for 3.5 char before next send - 1.823 ms
DEBUG   2025-08-29 09:47:04,526  pymodbus.logging:base.py:250 New Transaction state "SENDING"
DEBUG   2025-08-29 09:47:04,526  pymodbus.logging:transaction.py:317 Changing transaction state from "SENDING" to "WAITING FOR REPLY"
DEBUG   2025-08-29 09:47:04,557  pymodbus.logging:transaction.py:419 Changing transaction state from "WAITING FOR REPLY" to "PROCESSING REPLY"
DEBUG   2025-08-29 09:47:04,557  pymodbus.logging:transaction.py:324 RECV: 0x1 0x3 0x4 0x0 0x0 0x0 0x0 0xfa 0x33
DEBUG   2025-08-29 09:47:04,557  pymodbus.logging:base.py:92 Processing: 0x1 0x3 0x4 0x0 0x0 0x0 0x0 0xfa 0x33
DEBUG   2025-08-29 09:47:04,557  pymodbus.logging:decoders.py:103 decode PDU for 3
DEBUG   2025-08-29 09:47:04,557  pymodbus.logging:base.py:102 Frame advanced, resetting header!!
DEBUG   2025-08-29 09:47:04,557  pymodbus.logging:transaction.py:67 Adding transaction 0
DEBUG   2025-08-29 09:47:04,557  pymodbus.logging:transaction.py:78 Getting transaction 0
DEBUG   2025-08-29 09:47:04,558  pymodbus.logging:transaction.py:258 Changing transaction state from "PROCESSING REPLY" to "TRANSACTION_COMPLETE"
INFO    2025-08-29 09:47:04,558  root:modbus_rtu_tcp.py:44 read_measurement ret is:ReadHoldingRegistersResponse (2)
INFO    2025-08-29 09:47:04,558  root:acudc260_modbus_get.py:201 read p2_power ret is:[0, 0]
DEBUG   2025-08-29 09:47:04,558  pymodbus.logging:transaction.py:184 Current transaction state - TRANSACTION_COMPLETE
DEBUG   2025-08-29 09:47:04,558  pymodbus.logging:transaction.py:193 Running transaction 0
DEBUG   2025-08-29 09:47:04,558  pymodbus.logging:transaction.py:293 SEND: 0x1 0x3 0x30 0xc 0x0 0x2 0xb 0x8
DEBUG   2025-08-29 09:47:04,558  pymodbus.logging:serial.py:271 Changing state to IDLE - Last Frame End - 1756432024.557901 Current Time stamp - 1756432024.558914
DEBUG   2025-08-29 09:47:04,558  pymodbus.logging:serial.py:279 Waiting for 3.5 char before next send - 1.823 ms
DEBUG   2025-08-29 09:47:04,561  pymodbus.logging:base.py:250 New Transaction state "SENDING"
DEBUG   2025-08-29 09:47:04,561  pymodbus.logging:transaction.py:317 Changing transaction state from "SENDING" to "WAITING FOR REPLY"
DEBUG   2025-08-29 09:47:04,590  pymodbus.logging:transaction.py:419 Changing transaction state from "WAITING FOR REPLY" to "PROCESSING REPLY"
DEBUG   2025-08-29 09:47:04,590  pymodbus.logging:transaction.py:324 RECV: 0x1 0x3 0x4 0x0 0x0 0x0 0x0 0xfa 0x33
DEBUG   2025-08-29 09:47:04,590  pymodbus.logging:base.py:92 Processing: 0x1 0x3 0x4 0x0 0x0 0x0 0x0 0xfa 0x33
DEBUG   2025-08-29 09:47:04,590  pymodbus.logging:decoders.py:103 decode PDU for 3
DEBUG   2025-08-29 09:47:04,590  pymodbus.logging:base.py:102 Frame advanced, resetting header!!
DEBUG   2025-08-29 09:47:04,590  pymodbus.logging:transaction.py:67 Adding transaction 0
DEBUG   2025-08-29 09:47:04,590  pymodbus.logging:transaction.py:78 Getting transaction 0
DEBUG   2025-08-29 09:47:04,590  pymodbus.logging:transaction.py:258 Changing transaction state from "PROCESSING REPLY" to "TRANSACTION_COMPLETE"
INFO    2025-08-29 09:47:04,590  root:modbus_rtu_tcp.py:44 read_measurement ret is:ReadHoldingRegistersResponse (2)
INFO    2025-08-29 09:47:04,590  root:acudc260_modbus_get.py:215 read p_sum_power ret is:[0, 0]
DEBUG   2025-08-29 09:47:04,691  pymodbus.logging:transaction.py:184 Current transaction state - TRANSACTION_COMPLETE
DEBUG   2025-08-29 09:47:04,691  pymodbus.logging:transaction.py:193 Running transaction 0
DEBUG   2025-08-29 09:47:04,691  pymodbus.logging:transaction.py:293 SEND: 0x1 0x3 0x30 0x0 0x0 0x2 0xcb 0xb
DEBUG   2025-08-29 09:47:04,691  pymodbus.logging:serial.py:271 Changing state to IDLE - Last Frame End - 1756432024.590456 Current Time stamp - 1756432024.691972
DEBUG   2025-08-29 09:47:04,691  pymodbus.logging:base.py:250 New Transaction state "SENDING"
DEBUG   2025-08-29 09:47:04,691  pymodbus.logging:transaction.py:317 Changing transaction state from "SENDING" to "WAITING FOR REPLY"
DEBUG   2025-08-29 09:47:04,718  pymodbus.logging:transaction.py:419 Changing transaction state from "WAITING FOR REPLY" to "PROCESSING REPLY"
DEBUG   2025-08-29 09:47:04,718  pymodbus.logging:transaction.py:324 RECV: 0x1 0x3 0x4 0x0 0x0 0x0 0x0 0xfa 0x33
DEBUG   2025-08-29 09:47:04,718  pymodbus.logging:base.py:92 Processing: 0x1 0x3 0x4 0x0 0x0 0x0 0x0 0xfa 0x33
DEBUG   2025-08-29 09:47:04,718  pymodbus.logging:decoders.py:103 decode PDU for 3
DEBUG   2025-08-29 09:47:04,718  pymodbus.logging:base.py:102 Frame advanced, resetting header!!
DEBUG   2025-08-29 09:47:04,718  pymodbus.logging:transaction.py:67 Adding transaction 0
DEBUG   2025-08-29 09:47:04,718  pymodbus.logging:transaction.py:78 Getting transaction 0
DEBUG   2025-08-29 09:47:04,719  pymodbus.logging:transaction.py:258 Changing transaction state from "PROCESSING REPLY" to "TRANSACTION_COMPLETE"
INFO    2025-08-29 09:47:04,719  root:modbus_rtu_tcp.py:44 read_measurement ret is:ReadHoldingRegistersResponse (2)
INFO    2025-08-29 09:47:04,719  root:acudc260_modbus_get.py:131 read u_voltage ret is:[0, 0]
DEBUG   2025-08-29 09:47:04,719  pymodbus.logging:transaction.py:184 Current transaction state - TRANSACTION_COMPLETE
DEBUG   2025-08-29 09:47:04,719  pymodbus.logging:transaction.py:193 Running transaction 0
DEBUG   2025-08-29 09:47:04,719  pymodbus.logging:transaction.py:293 SEND: 0x1 0x3 0x30 0x2 0x0 0x2 0x6a 0xcb
DEBUG   2025-08-29 09:47:04,719  pymodbus.logging:serial.py:271 Changing state to IDLE - Last Frame End - 1756432024.71849 Current Time stamp - 1756432024.719508
DEBUG   2025-08-29 09:47:04,719  pymodbus.logging:serial.py:279 Waiting for 3.5 char before next send - 1.823 ms
DEBUG   2025-08-29 09:47:04,722  pymodbus.logging:base.py:250 New Transaction state "SENDING"
DEBUG   2025-08-29 09:47:04,722  pymodbus.logging:transaction.py:317 Changing transaction state from "SENDING" to "WAITING FOR REPLY"
DEBUG   2025-08-29 09:47:04,751  pymodbus.logging:transaction.py:419 Changing transaction state from "WAITING FOR REPLY" to "PROCESSING REPLY"
DEBUG   2025-08-29 09:47:04,751  pymodbus.logging:transaction.py:324 RECV: 0x1 0x3 0x4 0x3f 0x6 0x90 0xb3 0x3b 0x93
DEBUG   2025-08-29 09:47:04,751  pymodbus.logging:base.py:92 Processing: 0x1 0x3 0x4 0x3f 0x6 0x90 0xb3 0x3b 0x93
DEBUG   2025-08-29 09:47:04,751  pymodbus.logging:decoders.py:103 decode PDU for 3
DEBUG   2025-08-29 09:47:04,751  pymodbus.logging:base.py:102 Frame advanced, resetting header!!
DEBUG   2025-08-29 09:47:04,751  pymodbus.logging:transaction.py:67 Adding transaction 0
DEBUG   2025-08-29 09:47:04,751  pymodbus.logging:transaction.py:78 Getting transaction 0
DEBUG   2025-08-29 09:47:04,751  pymodbus.logging:transaction.py:258 Changing transaction state from "PROCESSING REPLY" to "TRANSACTION_COMPLETE"
INFO    2025-08-29 09:47:04,752  root:modbus_rtu_tcp.py:44 read_measurement ret is:ReadHoldingRegistersResponse (2)
INFO    2025-08-29 09:47:04,752  root:acudc260_modbus_get.py:145 read i1_current ret is:[16134, 37043]
DEBUG   2025-08-29 09:47:04,752  pymodbus.logging:transaction.py:184 Current transaction state - TRANSACTION_COMPLETE
DEBUG   2025-08-29 09:47:04,752  pymodbus.logging:transaction.py:193 Running transaction 0
DEBUG   2025-08-29 09:47:04,752  pymodbus.logging:transaction.py:293 SEND: 0x1 0x3 0x30 0x4 0x0 0x2 0x8a 0xca
DEBUG   2025-08-29 09:47:04,752  pymodbus.logging:serial.py:271 Changing state to IDLE - Last Frame End - 1756432024.751484 Current Time stamp - 1756432024.752568
DEBUG   2025-08-29 09:47:04,752  pymodbus.logging:serial.py:279 Waiting for 3.5 char before next send - 1.823 ms
DEBUG   2025-08-29 09:47:04,755  pymodbus.logging:base.py:250 New Transaction state "SENDING"
DEBUG   2025-08-29 09:47:04,755  pymodbus.logging:transaction.py:317 Changing transaction state from "SENDING" to "WAITING FOR REPLY"
DEBUG   2025-08-29 09:47:04,782  pymodbus.logging:transaction.py:419 Changing transaction state from "WAITING FOR REPLY" to "PROCESSING REPLY"
DEBUG   2025-08-29 09:47:04,782  pymodbus.logging:transaction.py:324 RECV: 0x1 0x3 0x4 0x3f 0x2 0xb4 0xd2 0xa0 0xba
DEBUG   2025-08-29 09:47:04,782  pymodbus.logging:base.py:92 Processing: 0x1 0x3 0x4 0x3f 0x2 0xb4 0xd2 0xa0 0xba
DEBUG   2025-08-29 09:47:04,782  pymodbus.logging:decoders.py:103 decode PDU for 3
DEBUG   2025-08-29 09:47:04,782  pymodbus.logging:base.py:102 Frame advanced, resetting header!!
DEBUG   2025-08-29 09:47:04,783  pymodbus.logging:transaction.py:67 Adding transaction 0
DEBUG   2025-08-29 09:47:04,783  pymodbus.logging:transaction.py:78 Getting transaction 0
DEBUG   2025-08-29 09:47:04,783  pymodbus.logging:transaction.py:258 Changing transaction state from "PROCESSING REPLY" to "TRANSACTION_COMPLETE"
INFO    2025-08-29 09:47:04,783  root:modbus_rtu_tcp.py:44 read_measurement ret is:ReadHoldingRegistersResponse (2)
INFO    2025-08-29 09:47:04,783  root:acudc260_modbus_get.py:159 read i2_current ret is:[16130, 46290]
DEBUG   2025-08-29 09:47:04,783  pymodbus.logging:transaction.py:184 Current transaction state - TRANSACTION_COMPLETE
DEBUG   2025-08-29 09:47:04,783  pymodbus.logging:transaction.py:193 Running transaction 0
DEBUG   2025-08-29 09:47:04,783  pymodbus.logging:transaction.py:293 SEND: 0x1 0x3 0x30 0x6 0x0 0x2 0x2b 0xa
DEBUG   2025-08-29 09:47:04,783  pymodbus.logging:serial.py:271 Changing state to IDLE - Last Frame End - 1756432024.782479 Current Time stamp - 1756432024.783544
DEBUG   2025-08-29 09:47:04,783  pymodbus.logging:serial.py:279 Waiting for 3.5 char before next send - 1.823 ms
DEBUG   2025-08-29 09:47:04,786  pymodbus.logging:base.py:250 New Transaction state "SENDING"
DEBUG   2025-08-29 09:47:04,787  pymodbus.logging:transaction.py:317 Changing transaction state from "SENDING" to "WAITING FOR REPLY"
DEBUG   2025-08-29 09:47:04,816  pymodbus.logging:transaction.py:419 Changing transaction state from "WAITING FOR REPLY" to "PROCESSING REPLY"
