INFO    2025-08-29 14:07:59,803  root:acudc260_fast_test.py:363 测试进度:['test_case', 'Voltage', 'Current_1', 'Current_2', '等待时间(h)', 'voltage_accuracy', 'current_accuracy', 'power_accuracy', '采样次数', '采样间隔'],执行时间:2025_08_29 14:07:59
INFO    2025-08-29 14:07:59,803  root:source_control.py:26 <源输出>
    电压检定点:6.0%;
    电流检定点:0.08%;
    电压纹波比例:0%;
    电流纹波比例:0%;
    电压纹波相位:0度;
    电流纹波相位:0度;
    纹波频率:300Hz;
    电能方向:正向;
    <End>
INFO    2025-08-29 14:08:01,425  root:source_control.py:30 recv_data ret is:<源输出应答>
电压总值:60.000000V;
电流总值:0.400000A;
功率总值:23.999999W;
电压直流:60.000000V;
电流直流:0.400000A;
功率直流:23.999999W;
电压纹波:0.000000V;
电流纹波:0.000000A;
功率纹波:0.000000W;
<End>
DEBUG   2025-08-29 14:08:11,527  pymodbus.logging:transaction.py:184 Current transaction state - IDLE
DEBUG   2025-08-29 14:08:11,527  pymodbus.logging:transaction.py:193 Running transaction 0
DEBUG   2025-08-29 14:08:11,527  pymodbus.logging:transaction.py:293 SEND: 0x1 0x3 0x30 0x0 0x0 0x2 0xcb 0xb
DEBUG   2025-08-29 14:08:11,527  pymodbus.logging:base.py:250 New Transaction state "SENDING"
DEBUG   2025-08-29 14:08:11,527  pymodbus.logging:transaction.py:317 Changing transaction state from "SENDING" to "WAITING FOR REPLY"
DEBUG   2025-08-29 14:08:11,551  pymodbus.logging:transaction.py:419 Changing transaction state from "WAITING FOR REPLY" to "PROCESSING REPLY"
DEBUG   2025-08-29 14:08:11,551  pymodbus.logging:transaction.py:324 RECV: 0x1 0x3 0x4 0x42 0x6f 0xfb 0x74 0x9d 0x41
DEBUG   2025-08-29 14:08:11,551  pymodbus.logging:base.py:92 Processing: 0x1 0x3 0x4 0x42 0x6f 0xfb 0x74 0x9d 0x41
DEBUG   2025-08-29 14:08:11,551  pymodbus.logging:decoders.py:103 decode PDU for 3
DEBUG   2025-08-29 14:08:11,551  pymodbus.logging:base.py:102 Frame advanced, resetting header!!
DEBUG   2025-08-29 14:08:11,552  pymodbus.logging:transaction.py:67 Adding transaction 0
DEBUG   2025-08-29 14:08:11,552  pymodbus.logging:transaction.py:78 Getting transaction 0
DEBUG   2025-08-29 14:08:11,552  pymodbus.logging:transaction.py:258 Changing transaction state from "PROCESSING REPLY" to "TRANSACTION_COMPLETE"
INFO    2025-08-29 14:08:11,552  root:modbus_rtu_tcp.py:44 read_measurement ret is:ReadHoldingRegistersResponse (2)
INFO    2025-08-29 14:08:11,552  root:acudc260_modbus_get.py:131 read u_voltage ret is:[17007, 64372]
DEBUG   2025-08-29 14:08:11,552  pymodbus.logging:transaction.py:184 Current transaction state - TRANSACTION_COMPLETE
DEBUG   2025-08-29 14:08:11,552  pymodbus.logging:transaction.py:193 Running transaction 0
DEBUG   2025-08-29 14:08:11,552  pymodbus.logging:transaction.py:293 SEND: 0x1 0x3 0x30 0x2 0x0 0x2 0x6a 0xcb
DEBUG   2025-08-29 14:08:11,552  pymodbus.logging:serial.py:271 Changing state to IDLE - Last Frame End - 1756447691.551332 Current Time stamp - 1756447691.552333
DEBUG   2025-08-29 14:08:11,552  pymodbus.logging:serial.py:279 Waiting for 3.5 char before next send - 1.823 ms
DEBUG   2025-08-29 14:08:11,554  pymodbus.logging:base.py:250 New Transaction state "SENDING"
DEBUG   2025-08-29 14:08:11,554  pymodbus.logging:transaction.py:317 Changing transaction state from "SENDING" to "WAITING FOR REPLY"
DEBUG   2025-08-29 14:08:11,587  pymodbus.logging:transaction.py:419 Changing transaction state from "WAITING FOR REPLY" to "PROCESSING REPLY"
DEBUG   2025-08-29 14:08:11,587  pymodbus.logging:transaction.py:324 RECV: 0x1 0x3 0x4 0x3e 0xd0 0xf6 0x2a 0x30 0x5d
DEBUG   2025-08-29 14:08:11,587  pymodbus.logging:base.py:92 Processing: 0x1 0x3 0x4 0x3e 0xd0 0xf6 0x2a 0x30 0x5d
DEBUG   2025-08-29 14:08:11,587  pymodbus.logging:decoders.py:103 decode PDU for 3
DEBUG   2025-08-29 14:08:11,587  pymodbus.logging:base.py:102 Frame advanced, resetting header!!
DEBUG   2025-08-29 14:08:11,587  pymodbus.logging:transaction.py:67 Adding transaction 0
DEBUG   2025-08-29 14:08:11,587  pymodbus.logging:transaction.py:78 Getting transaction 0
DEBUG   2025-08-29 14:08:11,587  pymodbus.logging:transaction.py:258 Changing transaction state from "PROCESSING REPLY" to "TRANSACTION_COMPLETE"
INFO    2025-08-29 14:08:11,587  root:modbus_rtu_tcp.py:44 read_measurement ret is:ReadHoldingRegistersResponse (2)
INFO    2025-08-29 14:08:11,587  root:acudc260_modbus_get.py:145 read i1_current ret is:[16080, 63018]
DEBUG   2025-08-29 14:08:11,587  pymodbus.logging:transaction.py:184 Current transaction state - TRANSACTION_COMPLETE
DEBUG   2025-08-29 14:08:11,587  pymodbus.logging:transaction.py:193 Running transaction 0
DEBUG   2025-08-29 14:08:11,588  pymodbus.logging:transaction.py:293 SEND: 0x1 0x3 0x30 0x4 0x0 0x2 0x8a 0xca
DEBUG   2025-08-29 14:08:11,588  pymodbus.logging:serial.py:271 Changing state to IDLE - Last Frame End - 1756447691.587024 Current Time stamp - 1756447691.588764
DEBUG   2025-08-29 14:08:11,588  pymodbus.logging:serial.py:279 Waiting for 3.5 char before next send - 1.823 ms
DEBUG   2025-08-29 14:08:11,591  pymodbus.logging:base.py:250 New Transaction state "SENDING"
DEBUG   2025-08-29 14:08:11,591  pymodbus.logging:transaction.py:317 Changing transaction state from "SENDING" to "WAITING FOR REPLY"
DEBUG   2025-08-29 14:08:11,619  pymodbus.logging:transaction.py:419 Changing transaction state from "WAITING FOR REPLY" to "PROCESSING REPLY"
DEBUG   2025-08-29 14:08:11,619  pymodbus.logging:transaction.py:324 RECV: 0x1 0x3 0x4 0x3e 0xcf 0x57 0x4d 0x39 0xe1
DEBUG   2025-08-29 14:08:11,619  pymodbus.logging:base.py:92 Processing: 0x1 0x3 0x4 0x3e 0xcf 0x57 0x4d 0x39 0xe1
DEBUG   2025-08-29 14:08:11,619  pymodbus.logging:decoders.py:103 decode PDU for 3
DEBUG   2025-08-29 14:08:11,619  pymodbus.logging:base.py:102 Frame advanced, resetting header!!
DEBUG   2025-08-29 14:08:11,619  pymodbus.logging:transaction.py:67 Adding transaction 0
DEBUG   2025-08-29 14:08:11,620  pymodbus.logging:transaction.py:78 Getting transaction 0
DEBUG   2025-08-29 14:08:11,620  pymodbus.logging:transaction.py:258 Changing transaction state from "PROCESSING REPLY" to "TRANSACTION_COMPLETE"
INFO    2025-08-29 14:08:11,620  root:modbus_rtu_tcp.py:44 read_measurement ret is:ReadHoldingRegistersResponse (2)
INFO    2025-08-29 14:08:11,620  root:acudc260_modbus_get.py:159 read i2_current ret is:[16079, 22349]
DEBUG   2025-08-29 14:08:11,620  pymodbus.logging:transaction.py:184 Current transaction state - TRANSACTION_COMPLETE
DEBUG   2025-08-29 14:08:11,620  pymodbus.logging:transaction.py:193 Running transaction 0
DEBUG   2025-08-29 14:08:11,620  pymodbus.logging:transaction.py:293 SEND: 0x1 0x3 0x30 0x6 0x0 0x2 0x2b 0xa
DEBUG   2025-08-29 14:08:11,620  pymodbus.logging:serial.py:271 Changing state to IDLE - Last Frame End - 1756447691.619683 Current Time stamp - 1756447691.620699
DEBUG   2025-08-29 14:08:11,620  pymodbus.logging:serial.py:279 Waiting for 3.5 char before next send - 1.823 ms
DEBUG   2025-08-29 14:08:11,623  pymodbus.logging:base.py:250 New Transaction state "SENDING"
DEBUG   2025-08-29 14:08:11,624  pymodbus.logging:transaction.py:317 Changing transaction state from "SENDING" to "WAITING FOR REPLY"
DEBUG   2025-08-29 14:08:11,650  pymodbus.logging:transaction.py:419 Changing transaction state from "WAITING FOR REPLY" to "PROCESSING REPLY"
DEBUG   2025-08-29 14:08:11,650  pymodbus.logging:transaction.py:324 RECV: 0x1 0x3 0x4 0x3f 0x50 0x9c 0x42 0x1f 0x7
DEBUG   2025-08-29 14:08:11,650  pymodbus.logging:base.py:92 Processing: 0x1 0x3 0x4 0x3f 0x50 0x9c 0x42 0x1f 0x7
DEBUG   2025-08-29 14:08:11,650  pymodbus.logging:decoders.py:103 decode PDU for 3
DEBUG   2025-08-29 14:08:11,650  pymodbus.logging:base.py:102 Frame advanced, resetting header!!
DEBUG   2025-08-29 14:08:11,650  pymodbus.logging:transaction.py:67 Adding transaction 0
DEBUG   2025-08-29 14:08:11,650  pymodbus.logging:transaction.py:78 Getting transaction 0
DEBUG   2025-08-29 14:08:11,651  pymodbus.logging:transaction.py:258 Changing transaction state from "PROCESSING REPLY" to "TRANSACTION_COMPLETE"
INFO    2025-08-29 14:08:11,651  root:modbus_rtu_tcp.py:44 read_measurement ret is:ReadHoldingRegistersResponse (2)
INFO    2025-08-29 14:08:11,651  root:acudc260_modbus_get.py:173 read i_sum_current ret is:[16208, 40002]
DEBUG   2025-08-29 14:08:11,651  pymodbus.logging:transaction.py:184 Current transaction state - TRANSACTION_COMPLETE
DEBUG   2025-08-29 14:08:11,651  pymodbus.logging:transaction.py:193 Running transaction 0
DEBUG   2025-08-29 14:08:11,651  pymodbus.logging:transaction.py:293 SEND: 0x1 0x3 0x30 0x8 0x0 0x2 0x4a 0xc9
DEBUG   2025-08-29 14:08:11,651  pymodbus.logging:serial.py:271 Changing state to IDLE - Last Frame End - 1756447691.650193 Current Time stamp - 1756447691.651221
DEBUG   2025-08-29 14:08:11,651  pymodbus.logging:serial.py:279 Waiting for 3.5 char before next send - 1.823 ms
DEBUG   2025-08-29 14:08:11,653  pymodbus.logging:base.py:250 New Transaction state "SENDING"
DEBUG   2025-08-29 14:08:11,653  pymodbus.logging:transaction.py:317 Changing transaction state from "SENDING" to "WAITING FOR REPLY"
DEBUG   2025-08-29 14:08:11,682  pymodbus.logging:transaction.py:419 Changing transaction state from "WAITING FOR REPLY" to "PROCESSING REPLY"
DEBUG   2025-08-29 14:08:11,682  pymodbus.logging:transaction.py:324 RECV: 0x1 0x3 0x4 0x3c 0xc9 0x7b 0xc7 0x45 0x3f
DEBUG   2025-08-29 14:08:11,682  pymodbus.logging:base.py:92 Processing: 0x1 0x3 0x4 0x3c 0xc9 0x7b 0xc7 0x45 0x3f
DEBUG   2025-08-29 14:08:11,682  pymodbus.logging:decoders.py:103 decode PDU for 3
DEBUG   2025-08-29 14:08:11,682  pymodbus.logging:base.py:102 Frame advanced, resetting header!!
DEBUG   2025-08-29 14:08:11,682  pymodbus.logging:transaction.py:67 Adding transaction 0
DEBUG   2025-08-29 14:08:11,682  pymodbus.logging:transaction.py:78 Getting transaction 0
DEBUG   2025-08-29 14:08:11,682  pymodbus.logging:transaction.py:258 Changing transaction state from "PROCESSING REPLY" to "TRANSACTION_COMPLETE"
INFO    2025-08-29 14:08:11,682  root:modbus_rtu_tcp.py:44 read_measurement ret is:ReadHoldingRegistersResponse (2)
INFO    2025-08-29 14:08:11,682  root:acudc260_modbus_get.py:187 read p1_power ret is:[15561, 31687]
DEBUG   2025-08-29 14:08:11,683  pymodbus.logging:transaction.py:184 Current transaction state - TRANSACTION_COMPLETE
DEBUG   2025-08-29 14:08:11,683  pymodbus.logging:transaction.py:193 Running transaction 0
DEBUG   2025-08-29 14:08:11,683  pymodbus.logging:transaction.py:293 SEND: 0x1 0x3 0x30 0xa 0x0 0x2 0xeb 0x9
DEBUG   2025-08-29 14:08:11,683  pymodbus.logging:serial.py:271 Changing state to IDLE - Last Frame End - 1756447691.682574 Current Time stamp - 1756447691.683696
DEBUG   2025-08-29 14:08:11,683  pymodbus.logging:serial.py:279 Waiting for 3.5 char before next send - 1.823 ms
DEBUG   2025-08-29 14:08:11,686  pymodbus.logging:base.py:250 New Transaction state "SENDING"
DEBUG   2025-08-29 14:08:11,686  pymodbus.logging:transaction.py:317 Changing transaction state from "SENDING" to "WAITING FOR REPLY"
DEBUG   2025-08-29 14:08:11,716  pymodbus.logging:transaction.py:419 Changing transaction state from "WAITING FOR REPLY" to "PROCESSING REPLY"
DEBUG   2025-08-29 14:08:11,716  pymodbus.logging:transaction.py:324 RECV: 0x1 0x3 0x4 0x3c 0xc5 0xb3 0xc3 0xd3 0x3f
DEBUG   2025-08-29 14:08:11,716  pymodbus.logging:base.py:92 Processing: 0x1 0x3 0x4 0x3c 0xc5 0xb3 0xc3 0xd3 0x3f
DEBUG   2025-08-29 14:08:11,716  pymodbus.logging:decoders.py:103 decode PDU for 3
DEBUG   2025-08-29 14:08:11,716  pymodbus.logging:base.py:102 Frame advanced, resetting header!!
DEBUG   2025-08-29 14:08:11,716  pymodbus.logging:transaction.py:67 Adding transaction 0
DEBUG   2025-08-29 14:08:11,716  pymodbus.logging:transaction.py:78 Getting transaction 0
DEBUG   2025-08-29 14:08:11,716  pymodbus.logging:transaction.py:258 Changing transaction state from "PROCESSING REPLY" to "TRANSACTION_COMPLETE"
INFO    2025-08-29 14:08:11,716  root:modbus_rtu_tcp.py:44 read_measurement ret is:ReadHoldingRegistersResponse (2)
INFO    2025-08-29 14:08:11,717  root:acudc260_modbus_get.py:201 read p2_power ret is:[15557, 46019]
DEBUG   2025-08-29 14:08:11,717  pymodbus.logging:transaction.py:184 Current transaction state - TRANSACTION_COMPLETE
DEBUG   2025-08-29 14:08:11,717  pymodbus.logging:transaction.py:193 Running transaction 0
DEBUG   2025-08-29 14:08:11,717  pymodbus.logging:transaction.py:293 SEND: 0x1 0x3 0x30 0xc 0x0 0x2 0xb 0x8
DEBUG   2025-08-29 14:08:11,717  pymodbus.logging:serial.py:271 Changing state to IDLE - Last Frame End - 1756447691.716186 Current Time stamp - 1756447691.717196
DEBUG   2025-08-29 14:08:11,717  pymodbus.logging:serial.py:279 Waiting for 3.5 char before next send - 1.823 ms
DEBUG   2025-08-29 14:08:11,719  pymodbus.logging:base.py:250 New Transaction state "SENDING"
DEBUG   2025-08-29 14:08:11,719  pymodbus.logging:transaction.py:317 Changing transaction state from "SENDING" to "WAITING FOR REPLY"
DEBUG   2025-08-29 14:08:11,743  pymodbus.logging:transaction.py:419 Changing transaction state from "WAITING FOR REPLY" to "PROCESSING REPLY"
DEBUG   2025-08-29 14:08:11,743  pymodbus.logging:transaction.py:324 RECV: 0x1 0x3 0x4 0x3d 0x48 0x95 0x4d 0xd8 0xec
DEBUG   2025-08-29 14:08:11,743  pymodbus.logging:base.py:92 Processing: 0x1 0x3 0x4 0x3d 0x48 0x95 0x4d 0xd8 0xec
DEBUG   2025-08-29 14:08:11,743  pymodbus.logging:decoders.py:103 decode PDU for 3
DEBUG   2025-08-29 14:08:11,743  pymodbus.logging:base.py:102 Frame advanced, resetting header!!
DEBUG   2025-08-29 14:08:11,743  pymodbus.logging:transaction.py:67 Adding transaction 0
DEBUG   2025-08-29 14:08:11,743  pymodbus.logging:transaction.py:78 Getting transaction 0
DEBUG   2025-08-29 14:08:11,743  pymodbus.logging:transaction.py:258 Changing transaction state from "PROCESSING REPLY" to "TRANSACTION_COMPLETE"
INFO    2025-08-29 14:08:11,743  root:modbus_rtu_tcp.py:44 read_measurement ret is:ReadHoldingRegistersResponse (2)
INFO    2025-08-29 14:08:11,743  root:acudc260_modbus_get.py:215 read p_sum_power ret is:[15688, 38221]
DEBUG   2025-08-29 14:08:11,844  pymodbus.logging:transaction.py:184 Current transaction state - TRANSACTION_COMPLETE
DEBUG   2025-08-29 14:08:11,844  pymodbus.logging:transaction.py:193 Running transaction 0
DEBUG   2025-08-29 14:08:11,844  pymodbus.logging:transaction.py:293 SEND: 0x1 0x3 0x30 0x0 0x0 0x2 0xcb 0xb
DEBUG   2025-08-29 14:08:11,844  pymodbus.logging:serial.py:271 Changing state to IDLE - Last Frame End - 1756447691.743623 Current Time stamp - 1756447691.844841
DEBUG   2025-08-29 14:08:11,844  pymodbus.logging:base.py:250 New Transaction state "SENDING"
DEBUG   2025-08-29 14:08:11,844  pymodbus.logging:transaction.py:317 Changing transaction state from "SENDING" to "WAITING FOR REPLY"
DEBUG   2025-08-29 14:08:11,874  pymodbus.logging:transaction.py:419 Changing transaction state from "WAITING FOR REPLY" to "PROCESSING REPLY"
DEBUG   2025-08-29 14:08:11,874  pymodbus.logging:transaction.py:324 RECV: 0x1 0x3 0x4 0x42 0x6f 0xfc 0xf9 0x5f 0x14
DEBUG   2025-08-29 14:08:11,874  pymodbus.logging:base.py:92 Processing: 0x1 0x3 0x4 0x42 0x6f 0xfc 0xf9 0x5f 0x14
DEBUG   2025-08-29 14:08:11,874  pymodbus.logging:decoders.py:103 decode PDU for 3
DEBUG   2025-08-29 14:08:11,874  pymodbus.logging:base.py:102 Frame advanced, resetting header!!
DEBUG   2025-08-29 14:08:11,874  pymodbus.logging:transaction.py:67 Adding transaction 0
DEBUG   2025-08-29 14:08:11,874  pymodbus.logging:transaction.py:78 Getting transaction 0
DEBUG   2025-08-29 14:08:11,874  pymodbus.logging:transaction.py:258 Changing transaction state from "PROCESSING REPLY" to "TRANSACTION_COMPLETE"
INFO    2025-08-29 14:08:11,874  root:modbus_rtu_tcp.py:44 read_measurement ret is:ReadHoldingRegistersResponse (2)
INFO    2025-08-29 14:08:11,874  root:acudc260_modbus_get.py:131 read u_voltage ret is:[17007, 64761]
DEBUG   2025-08-29 14:08:11,874  pymodbus.logging:transaction.py:184 Current transaction state - TRANSACTION_COMPLETE
DEBUG   2025-08-29 14:08:11,874  pymodbus.logging:transaction.py:193 Running transaction 0
DEBUG   2025-08-29 14:08:11,874  pymodbus.logging:transaction.py:293 SEND: 0x1 0x3 0x30 0x2 0x0 0x2 0x6a 0xcb
DEBUG   2025-08-29 14:08:11,875  pymodbus.logging:serial.py:271 Changing state to IDLE - Last Frame End - 1756447691.874827 Current Time stamp - 1756447691.874827
DEBUG   2025-08-29 14:08:11,875  pymodbus.logging:serial.py:279 Waiting for 3.5 char before next send - 1.823 ms
DEBUG   2025-08-29 14:08:11,877  pymodbus.logging:base.py:250 New Transaction state "SENDING"
DEBUG   2025-08-29 14:08:11,877  pymodbus.logging:transaction.py:317 Changing transaction state from "SENDING" to "WAITING FOR REPLY"
DEBUG   2025-08-29 14:08:11,907  pymodbus.logging:transaction.py:419 Changing transaction state from "WAITING FOR REPLY" to "PROCESSING REPLY"
DEBUG   2025-08-29 14:08:11,907  pymodbus.logging:transaction.py:324 RECV: 0x1 0x3 0x4 0x3e 0xd1 0x6e 0x63 0xcb 0xab
DEBUG   2025-08-29 14:08:11,907  pymodbus.logging:base.py:92 Processing: 0x1 0x3 0x4 0x3e 0xd1 0x6e 0x63 0xcb 0xab
DEBUG   2025-08-29 14:08:11,907  pymodbus.logging:decoders.py:103 decode PDU for 3
DEBUG   2025-08-29 14:08:11,907  pymodbus.logging:base.py:102 Frame advanced, resetting header!!
DEBUG   2025-08-29 14:08:11,907  pymodbus.logging:transaction.py:67 Adding transaction 0
DEBUG   2025-08-29 14:08:11,907  pymodbus.logging:transaction.py:78 Getting transaction 0
DEBUG   2025-08-29 14:08:11,907  pymodbus.logging:transaction.py:258 Changing transaction state from "PROCESSING REPLY" to "TRANSACTION_COMPLETE"
INFO    2025-08-29 14:08:11,907  root:modbus_rtu_tcp.py:44 read_measurement ret is:ReadHoldingRegistersResponse (2)
INFO    2025-08-29 14:08:11,907  root:acudc260_modbus_get.py:145 read i1_current ret is:[16081, 28259]
DEBUG   2025-08-29 14:08:11,907  pymodbus.logging:transaction.py:184 Current transaction state - TRANSACTION_COMPLETE
DEBUG   2025-08-29 14:08:11,907  pymodbus.logging:transaction.py:193 Running transaction 0
DEBUG   2025-08-29 14:08:11,907  pymodbus.logging:transaction.py:293 SEND: 0x1 0x3 0x30 0x4 0x0 0x2 0x8a 0xca
DEBUG   2025-08-29 14:08:11,907  pymodbus.logging:serial.py:271 Changing state to IDLE - Last Frame End - 1756447691.907813 Current Time stamp - 1756447691.907813
DEBUG   2025-08-29 14:08:11,908  pymodbus.logging:serial.py:279 Waiting for 3.5 char before next send - 1.823 ms
DEBUG   2025-08-29 14:08:11,910  pymodbus.logging:base.py:250 New Transaction state "SENDING"
DEBUG   2025-08-29 14:08:11,910  pymodbus.logging:transaction.py:317 Changing transaction state from "SENDING" to "WAITING FOR REPLY"
DEBUG   2025-08-29 14:08:11,938  pymodbus.logging:transaction.py:419 Changing transaction state from "WAITING FOR REPLY" to "PROCESSING REPLY"
DEBUG   2025-08-29 14:08:11,953  pymodbus.logging:transaction.py:324 RECV: 0x1 0x3 0x4 0x3e 0xcb 0xfd 0xf0 0xc6 0xf1
DEBUG   2025-08-29 14:08:11,953  pymodbus.logging:base.py:92 Processing: 0x1 0x3 0x4 0x3e 0xcb 0xfd 0xf0 0xc6 0xf1
DEBUG   2025-08-29 14:08:11,953  pymodbus.logging:decoders.py:103 decode PDU for 3
DEBUG   2025-08-29 14:08:11,953  pymodbus.logging:base.py:102 Frame advanced, resetting header!!
DEBUG   2025-08-29 14:08:11,953  pymodbus.logging:transaction.py:67 Adding transaction 0
DEBUG   2025-08-29 14:08:11,953  pymodbus.logging:transaction.py:78 Getting transaction 0
DEBUG   2025-08-29 14:08:11,953  pymodbus.logging:transaction.py:258 Changing transaction state from "PROCESSING REPLY" to "TRANSACTION_COMPLETE"
INFO    2025-08-29 14:08:11,953  root:modbus_rtu_tcp.py:44 read_measurement ret is:ReadHoldingRegistersResponse (2)
INFO    2025-08-29 14:08:11,953  root:acudc260_modbus_get.py:159 read i2_current ret is:[16075, 65008]
DEBUG   2025-08-29 14:08:11,953  pymodbus.logging:transaction.py:184 Current transaction state - TRANSACTION_COMPLETE
DEBUG   2025-08-29 14:08:11,953  pymodbus.logging:transaction.py:193 Running transaction 0
DEBUG   2025-08-29 14:08:11,953  pymodbus.logging:transaction.py:293 SEND: 0x1 0x3 0x30 0x6 0x0 0x2 0x2b 0xa
DEBUG   2025-08-29 14:08:11,953  pymodbus.logging:serial.py:271 Changing state to IDLE - Last Frame End - 1756447691.938133 Current Time stamp - 1756447691.953168
DEBUG   2025-08-29 14:08:11,954  pymodbus.logging:base.py:250 New Transaction state "SENDING"
DEBUG   2025-08-29 14:08:11,954  pymodbus.logging:transaction.py:317 Changing transaction state from "SENDING" to "WAITING FOR REPLY"
DEBUG   2025-08-29 14:08:11,988  pymodbus.logging:transaction.py:419 Changing transaction state from "WAITING FOR REPLY" to "PROCESSING REPLY"
DEBUG   2025-08-29 14:08:11,988  pymodbus.logging:transaction.py:324 RECV: 0x1 0x3 0x4 0x3f 0x4e 0x57 0x45 0x69 0xf3
DEBUG   2025-08-29 14:08:11,988  pymodbus.logging:base.py:92 Processing: 0x1 0x3 0x4 0x3f 0x4e 0x57 0x45 0x69 0xf3
DEBUG   2025-08-29 14:08:11,988  pymodbus.logging:decoders.py:103 decode PDU for 3
DEBUG   2025-08-29 14:08:11,988  pymodbus.logging:base.py:102 Frame advanced, resetting header!!
DEBUG   2025-08-29 14:08:11,988  pymodbus.logging:transaction.py:67 Adding transaction 0
DEBUG   2025-08-29 14:08:11,988  pymodbus.logging:transaction.py:78 Getting transaction 0
DEBUG   2025-08-29 14:08:11,988  pymodbus.logging:transaction.py:258 Changing transaction state from "PROCESSING REPLY" to "TRANSACTION_COMPLETE"
INFO    2025-08-29 14:08:11,988  root:modbus_rtu_tcp.py:44 read_measurement ret is:ReadHoldingRegistersResponse (2)
INFO    2025-08-29 14:08:11,988  root:acudc260_modbus_get.py:173 read i_sum_current ret is:[16206, 22341]
DEBUG   2025-08-29 14:08:11,988  pymodbus.logging:transaction.py:184 Current transaction state - TRANSACTION_COMPLETE
DEBUG   2025-08-29 14:08:11,988  pymodbus.logging:transaction.py:193 Running transaction 0
DEBUG   2025-08-29 14:08:11,988  pymodbus.logging:transaction.py:293 SEND: 0x1 0x3 0x30 0x8 0x0 0x2 0x4a 0xc9
DEBUG   2025-08-29 14:08:11,988  pymodbus.logging:serial.py:271 Changing state to IDLE - Last Frame End - 1756447691.988561 Current Time stamp - 1756447691.988561
DEBUG   2025-08-29 14:08:11,988  pymodbus.logging:serial.py:279 Waiting for 3.5 char before next send - 1.823 ms
DEBUG   2025-08-29 14:08:11,991  pymodbus.logging:base.py:250 New Transaction state "SENDING"
DEBUG   2025-08-29 14:08:11,991  pymodbus.logging:transaction.py:317 Changing transaction state from "SENDING" to "WAITING FOR REPLY"
DEBUG   2025-08-29 14:08:12,018  pymodbus.logging:transaction.py:419 Changing transaction state from "WAITING FOR REPLY" to "PROCESSING REPLY"
DEBUG   2025-08-29 14:08:12,018  pymodbus.logging:transaction.py:324 RECV: 0x1 0x3 0x4 0x3c 0xc9 0x58 0xc5 0xdd 0xce
DEBUG   2025-08-29 14:08:12,018  pymodbus.logging:base.py:92 Processing: 0x1 0x3 0x4 0x3c 0xc9 0x58 0xc5 0xdd 0xce
DEBUG   2025-08-29 14:08:12,018  pymodbus.logging:decoders.py:103 decode PDU for 3
DEBUG   2025-08-29 14:08:12,018  pymodbus.logging:base.py:102 Frame advanced, resetting header!!
DEBUG   2025-08-29 14:08:12,018  pymodbus.logging:transaction.py:67 Adding transaction 0
DEBUG   2025-08-29 14:08:12,018  pymodbus.logging:transaction.py:78 Getting transaction 0
DEBUG   2025-08-29 14:08:12,018  pymodbus.logging:transaction.py:258 Changing transaction state from "PROCESSING REPLY" to "TRANSACTION_COMPLETE"
INFO    2025-08-29 14:08:12,018  root:modbus_rtu_tcp.py:44 read_measurement ret is:ReadHoldingRegistersResponse (2)
INFO    2025-08-29 14:08:12,018  root:acudc260_modbus_get.py:187 read p1_power ret is:[15561, 22725]
DEBUG   2025-08-29 14:08:12,018  pymodbus.logging:transaction.py:184 Current transaction state - TRANSACTION_COMPLETE
DEBUG   2025-08-29 14:08:12,018  pymodbus.logging:transaction.py:193 Running transaction 0
DEBUG   2025-08-29 14:08:12,018  pymodbus.logging:transaction.py:293 SEND: 0x1 0x3 0x30 0xa 0x0 0x2 0xeb 0x9
DEBUG   2025-08-29 14:08:12,018  pymodbus.logging:serial.py:271 Changing state to IDLE - Last Frame End - 1756447692.01895 Current Time stamp - 1756447692.01895
DEBUG   2025-08-29 14:08:12,018  pymodbus.logging:serial.py:279 Waiting for 3.5 char before next send - 1.823 ms
DEBUG   2025-08-29 14:08:12,022  pymodbus.logging:base.py:250 New Transaction state "SENDING"
DEBUG   2025-08-29 14:08:12,022  pymodbus.logging:transaction.py:317 Changing transaction state from "SENDING" to "WAITING FOR REPLY"
DEBUG   2025-08-29 14:08:12,051  pymodbus.logging:transaction.py:419 Changing transaction state from "WAITING FOR REPLY" to "PROCESSING REPLY"
DEBUG   2025-08-29 14:08:12,051  pymodbus.logging:transaction.py:324 RECV: 0x1 0x3 0x4 0x3c 0xc4 0x3a 0x35 0x65 0x29
DEBUG   2025-08-29 14:08:12,051  pymodbus.logging:base.py:92 Processing: 0x1 0x3 0x4 0x3c 0xc4 0x3a 0x35 0x65 0x29
DEBUG   2025-08-29 14:08:12,051  pymodbus.logging:decoders.py:103 decode PDU for 3
DEBUG   2025-08-29 14:08:12,051  pymodbus.logging:base.py:102 Frame advanced, resetting header!!
DEBUG   2025-08-29 14:08:12,051  pymodbus.logging:transaction.py:67 Adding transaction 0
DEBUG   2025-08-29 14:08:12,051  pymodbus.logging:transaction.py:78 Getting transaction 0
DEBUG   2025-08-29 14:08:12,051  pymodbus.logging:transaction.py:258 Changing transaction state from "PROCESSING REPLY" to "TRANSACTION_COMPLETE"
INFO    2025-08-29 14:08:12,051  root:modbus_rtu_tcp.py:44 read_measurement ret is:ReadHoldingRegistersResponse (2)
INFO    2025-08-29 14:08:12,051  root:acudc260_modbus_get.py:201 read p2_power ret is:[15556, 14901]
DEBUG   2025-08-29 14:08:12,051  pymodbus.logging:transaction.py:184 Current transaction state - TRANSACTION_COMPLETE
DEBUG   2025-08-29 14:08:12,051  pymodbus.logging:transaction.py:193 Running transaction 0
DEBUG   2025-08-29 14:08:12,051  pymodbus.logging:transaction.py:293 SEND: 0x1 0x3 0x30 0xc 0x0 0x2 0xb 0x8
DEBUG   2025-08-29 14:08:12,052  pymodbus.logging:serial.py:271 Changing state to IDLE - Last Frame End - 1756447692.051832 Current Time stamp - 1756447692.051832
DEBUG   2025-08-29 14:08:12,052  pymodbus.logging:serial.py:279 Waiting for 3.5 char before next send - 1.823 ms
DEBUG   2025-08-29 14:08:12,054  pymodbus.logging:base.py:250 New Transaction state "SENDING"
DEBUG   2025-08-29 14:08:12,054  pymodbus.logging:transaction.py:317 Changing transaction state from "SENDING" to "WAITING FOR REPLY"
DEBUG   2025-08-29 14:08:12,082  pymodbus.logging:transaction.py:419 Changing transaction state from "WAITING FOR REPLY" to "PROCESSING REPLY"
DEBUG   2025-08-29 14:08:12,082  pymodbus.logging:transaction.py:324 RECV: 0x1 0x3 0x4 0x3d 0x46 0xc9 0x7d 0x80 0x3b
DEBUG   2025-08-29 14:08:12,082  pymodbus.logging:base.py:92 Processing: 0x1 0x3 0x4 0x3d 0x46 0xc9 0x7d 0x80 0x3b
DEBUG   2025-08-29 14:08:12,082  pymodbus.logging:decoders.py:103 decode PDU for 3
DEBUG   2025-08-29 14:08:12,082  pymodbus.logging:base.py:102 Frame advanced, resetting header!!
DEBUG   2025-08-29 14:08:12,082  pymodbus.logging:transaction.py:67 Adding transaction 0
DEBUG   2025-08-29 14:08:12,082  pymodbus.logging:transaction.py:78 Getting transaction 0
DEBUG   2025-08-29 14:08:12,082  pymodbus.logging:transaction.py:258 Changing transaction state from "PROCESSING REPLY" to "TRANSACTION_COMPLETE"
INFO    2025-08-29 14:08:12,082  root:modbus_rtu_tcp.py:44 read_measurement ret is:ReadHoldingRegistersResponse (2)
INFO    2025-08-29 14:08:12,082  root:acudc260_modbus_get.py:215 read p_sum_power ret is:[15686, 51581]
DEBUG   2025-08-29 14:08:12,183  pymodbus.logging:transaction.py:184 Current transaction state - TRANSACTION_COMPLETE
DEBUG   2025-08-29 14:08:12,183  pymodbus.logging:transaction.py:193 Running transaction 0
DEBUG   2025-08-29 14:08:12,183  pymodbus.logging:transaction.py:293 SEND: 0x1 0x3 0x30 0x0 0x0 0x2 0xcb 0xb
DEBUG   2025-08-29 14:08:12,183  pymodbus.logging:serial.py:271 Changing state to IDLE - Last Frame End - 1756447692.082677 Current Time stamp - 1756447692.183811
DEBUG   2025-08-29 14:08:12,183  pymodbus.logging:base.py:250 New Transaction state "SENDING"
DEBUG   2025-08-29 14:08:12,183  pymodbus.logging:transaction.py:317 Changing transaction state from "SENDING" to "WAITING FOR REPLY"
DEBUG   2025-08-29 14:08:12,210  pymodbus.logging:transaction.py:419 Changing transaction state from "WAITING FOR REPLY" to "PROCESSING REPLY"
DEBUG   2025-08-29 14:08:12,210  pymodbus.logging:transaction.py:324 RECV: 0x1 0x3 0x4 0x42 0x6f 0xf9 0x22 0x1c 0x1f
DEBUG   2025-08-29 14:08:12,210  pymodbus.logging:base.py:92 Processing: 0x1 0x3 0x4 0x42 0x6f 0xf9 0x22 0x1c 0x1f
DEBUG   2025-08-29 14:08:12,210  pymodbus.logging:decoders.py:103 decode PDU for 3
DEBUG   2025-08-29 14:08:12,210  pymodbus.logging:base.py:102 Frame advanced, resetting header!!
DEBUG   2025-08-29 14:08:12,210  pymodbus.logging:transaction.py:67 Adding transaction 0
DEBUG   2025-08-29 14:08:12,210  pymodbus.logging:transaction.py:78 Getting transaction 0
DEBUG   2025-08-29 14:08:12,210  pymodbus.logging:transaction.py:258 Changing transaction state from "PROCESSING REPLY" to "TRANSACTION_COMPLETE"
INFO    2025-08-29 14:08:12,210  root:modbus_rtu_tcp.py:44 read_measurement ret is:ReadHoldingRegistersResponse (2)
INFO    2025-08-29 14:08:12,210  root:acudc260_modbus_get.py:131 read u_voltage ret is:[17007, 63778]
DEBUG   2025-08-29 14:08:12,210  pymodbus.logging:transaction.py:184 Current transaction state - TRANSACTION_COMPLETE
DEBUG   2025-08-29 14:08:12,210  pymodbus.logging:transaction.py:193 Running transaction 0
DEBUG   2025-08-29 14:08:12,210  pymodbus.logging:transaction.py:293 SEND: 0x1 0x3 0x30 0x2 0x0 0x2 0x6a 0xcb
DEBUG   2025-08-29 14:08:12,210  pymodbus.logging:serial.py:271 Changing state to IDLE - Last Frame End - 1756447692.210518 Current Time stamp - 1756447692.210518
DEBUG   2025-08-29 14:08:12,210  pymodbus.logging:serial.py:279 Waiting for 3.5 char before next send - 1.823 ms
DEBUG   2025-08-29 14:08:12,213  pymodbus.logging:base.py:250 New Transaction state "SENDING"
DEBUG   2025-08-29 14:08:12,213  pymodbus.logging:transaction.py:317 Changing transaction state from "SENDING" to "WAITING FOR REPLY"
DEBUG   2025-08-29 14:08:12,239  pymodbus.logging:transaction.py:419 Changing transaction state from "WAITING FOR REPLY" to "PROCESSING REPLY"
DEBUG   2025-08-29 14:08:12,239  pymodbus.logging:transaction.py:324 RECV: 0x1 0x3 0x4 0x3e 0xd0 0x39 0xfd 0x25 0xf3
DEBUG   2025-08-29 14:08:12,239  pymodbus.logging:base.py:92 Processing: 0x1 0x3 0x4 0x3e 0xd0 0x39 0xfd 0x25 0xf3
DEBUG   2025-08-29 14:08:12,239  pymodbus.logging:decoders.py:103 decode PDU for 3
DEBUG   2025-08-29 14:08:12,239  pymodbus.logging:base.py:102 Frame advanced, resetting header!!
DEBUG   2025-08-29 14:08:12,240  pymodbus.logging:transaction.py:67 Adding transaction 0
DEBUG   2025-08-29 14:08:12,240  pymodbus.logging:transaction.py:78 Getting transaction 0
DEBUG   2025-08-29 14:08:12,240  pymodbus.logging:transaction.py:258 Changing transaction state from "PROCESSING REPLY" to "TRANSACTION_COMPLETE"
INFO    2025-08-29 14:08:12,240  root:modbus_rtu_tcp.py:44 read_measurement ret is:ReadHoldingRegistersResponse (2)
INFO    2025-08-29 14:08:12,240  root:acudc260_modbus_get.py:145 read i1_current ret is:[16080, 14845]
DEBUG   2025-08-29 14:08:12,240  pymodbus.logging:transaction.py:184 Current transaction state - TRANSACTION_COMPLETE
DEBUG   2025-08-29 14:08:12,240  pymodbus.logging:transaction.py:193 Running transaction 0
DEBUG   2025-08-29 14:08:12,240  pymodbus.logging:transaction.py:293 SEND: 0x1 0x3 0x30 0x4 0x0 0x2 0x8a 0xca
DEBUG   2025-08-29 14:08:12,240  pymodbus.logging:serial.py:271 Changing state to IDLE - Last Frame End - 1756447692.239043 Current Time stamp - 1756447692.240024
DEBUG   2025-08-29 14:08:12,240  pymodbus.logging:serial.py:279 Waiting for 3.5 char before next send - 1.823 ms
DEBUG   2025-08-29 14:08:12,242  pymodbus.logging:base.py:250 New Transaction state "SENDING"
DEBUG   2025-08-29 14:08:12,242  pymodbus.logging:transaction.py:317 Changing transaction state from "SENDING" to "WAITING FOR REPLY"
DEBUG   2025-08-29 14:08:12,270  pymodbus.logging:transaction.py:419 Changing transaction state from "WAITING FOR REPLY" to "PROCESSING REPLY"
DEBUG   2025-08-29 14:08:12,271  pymodbus.logging:transaction.py:324 RECV: 0x1 0x3 0x4 0x3e 0xcf 0xb9 0x70 0xb5 0x90
DEBUG   2025-08-29 14:08:12,271  pymodbus.logging:base.py:92 Processing: 0x1 0x3 0x4 0x3e 0xcf 0xb9 0x70 0xb5 0x90
DEBUG   2025-08-29 14:08:12,271  pymodbus.logging:decoders.py:103 decode PDU for 3
DEBUG   2025-08-29 14:08:12,271  pymodbus.logging:base.py:102 Frame advanced, resetting header!!
DEBUG   2025-08-29 14:08:12,271  pymodbus.logging:transaction.py:67 Adding transaction 0
DEBUG   2025-08-29 14:08:12,271  pymodbus.logging:transaction.py:78 Getting transaction 0
DEBUG   2025-08-29 14:08:12,271  pymodbus.logging:transaction.py:258 Changing transaction state from "PROCESSING REPLY" to "TRANSACTION_COMPLETE"
INFO    2025-08-29 14:08:12,271  root:modbus_rtu_tcp.py:44 read_measurement ret is:ReadHoldingRegistersResponse (2)
INFO    2025-08-29 14:08:12,271  root:acudc260_modbus_get.py:159 read i2_current ret is:[16079, 47472]
DEBUG   2025-08-29 14:08:12,271  pymodbus.logging:transaction.py:184 Current transaction state - TRANSACTION_COMPLETE
DEBUG   2025-08-29 14:08:12,271  pymodbus.logging:transaction.py:193 Running transaction 0
DEBUG   2025-08-29 14:08:12,271  pymodbus.logging:transaction.py:293 SEND: 0x1 0x3 0x30 0x6 0x0 0x2 0x2b 0xa
DEBUG   2025-08-29 14:08:12,271  pymodbus.logging:serial.py:271 Changing state to IDLE - Last Frame End - 1756447692.270837 Current Time stamp - 1756447692.271775
DEBUG   2025-08-29 14:08:12,271  pymodbus.logging:serial.py:279 Waiting for 3.5 char before next send - 1.823 ms
DEBUG   2025-08-29 14:08:12,274  pymodbus.logging:base.py:250 New Transaction state "SENDING"
DEBUG   2025-08-29 14:08:12,274  pymodbus.logging:transaction.py:317 Changing transaction state from "SENDING" to "WAITING FOR REPLY"
DEBUG   2025-08-29 14:08:12,307  pymodbus.logging:transaction.py:419 Changing transaction state from "WAITING FOR REPLY" to "PROCESSING REPLY"
DEBUG   2025-08-29 14:08:12,307  pymodbus.logging:transaction.py:324 RECV: 0x1 0x3 0x4 0x3f 0x4f 0xf9 0xb6 0x4 0x16
DEBUG   2025-08-29 14:08:12,307  pymodbus.logging:base.py:92 Processing: 0x1 0x3 0x4 0x3f 0x4f 0xf9 0xb6 0x4 0x16
DEBUG   2025-08-29 14:08:12,307  pymodbus.logging:decoders.py:103 decode PDU for 3
DEBUG   2025-08-29 14:08:12,307  pymodbus.logging:base.py:102 Frame advanced, resetting header!!
DEBUG   2025-08-29 14:08:12,307  pymodbus.logging:transaction.py:67 Adding transaction 0
DEBUG   2025-08-29 14:08:12,307  pymodbus.logging:transaction.py:78 Getting transaction 0
DEBUG   2025-08-29 14:08:12,307  pymodbus.logging:transaction.py:258 Changing transaction state from "PROCESSING REPLY" to "TRANSACTION_COMPLETE"
INFO    2025-08-29 14:08:12,307  root:modbus_rtu_tcp.py:44 read_measurement ret is:ReadHoldingRegistersResponse (2)
INFO    2025-08-29 14:08:12,307  root:acudc260_modbus_get.py:173 read i_sum_current ret is:[16207, 63926]
DEBUG   2025-08-29 14:08:12,307  pymodbus.logging:transaction.py:184 Current transaction state - TRANSACTION_COMPLETE
DEBUG   2025-08-29 14:08:12,307  pymodbus.logging:transaction.py:193 Running transaction 0
DEBUG   2025-08-29 14:08:12,307  pymodbus.logging:transaction.py:293 SEND: 0x1 0x3 0x30 0x8 0x0 0x2 0x4a 0xc9
DEBUG   2025-08-29 14:08:12,307  pymodbus.logging:serial.py:271 Changing state to IDLE - Last Frame End - 1756447692.307577 Current Time stamp - 1756447692.307577
DEBUG   2025-08-29 14:08:12,307  pymodbus.logging:serial.py:279 Waiting for 3.5 char before next send - 1.823 ms
DEBUG   2025-08-29 14:08:12,310  pymodbus.logging:base.py:250 New Transaction state "SENDING"
DEBUG   2025-08-29 14:08:12,310  pymodbus.logging:transaction.py:317 Changing transaction state from "SENDING" to "WAITING FOR REPLY"
DEBUG   2025-08-29 14:08:12,340  pymodbus.logging:transaction.py:419 Changing transaction state from "WAITING FOR REPLY" to "PROCESSING REPLY"
DEBUG   2025-08-29 14:08:12,340  pymodbus.logging:transaction.py:324 RECV: 0x1 0x3 0x4 0x3c 0xcb 0x1 0xa1 0x47 0xb5
DEBUG   2025-08-29 14:08:12,340  pymodbus.logging:base.py:92 Processing: 0x1 0x3 0x4 0x3c 0xcb 0x1 0xa1 0x47 0xb5
DEBUG   2025-08-29 14:08:12,340  pymodbus.logging:decoders.py:103 decode PDU for 3
DEBUG   2025-08-29 14:08:12,340  pymodbus.logging:base.py:102 Frame advanced, resetting header!!
DEBUG   2025-08-29 14:08:12,341  pymodbus.logging:transaction.py:67 Adding transaction 0
DEBUG   2025-08-29 14:08:12,341  pymodbus.logging:transaction.py:78 Getting transaction 0
DEBUG   2025-08-29 14:08:12,341  pymodbus.logging:transaction.py:258 Changing transaction state from "PROCESSING REPLY" to "TRANSACTION_COMPLETE"
INFO    2025-08-29 14:08:12,341  root:modbus_rtu_tcp.py:44 read_measurement ret is:ReadHoldingRegistersResponse (2)
INFO    2025-08-29 14:08:12,341  root:acudc260_modbus_get.py:187 read p1_power ret is:[15563, 417]
DEBUG   2025-08-29 14:08:12,341  pymodbus.logging:transaction.py:184 Current transaction state - TRANSACTION_COMPLETE
DEBUG   2025-08-29 14:08:12,341  pymodbus.logging:transaction.py:193 Running transaction 0
DEBUG   2025-08-29 14:08:12,341  pymodbus.logging:transaction.py:293 SEND: 0x1 0x3 0x30 0xa 0x0 0x2 0xeb 0x9
DEBUG   2025-08-29 14:08:12,341  pymodbus.logging:serial.py:271 Changing state to IDLE - Last Frame End - 1756447692.340615 Current Time stamp - 1756447692.341139
DEBUG   2025-08-29 14:08:12,341  pymodbus.logging:serial.py:279 Waiting for 3.5 char before next send - 1.823 ms
DEBUG   2025-08-29 14:08:12,343  pymodbus.logging:base.py:250 New Transaction state "SENDING"
DEBUG   2025-08-29 14:08:12,343  pymodbus.logging:transaction.py:317 Changing transaction state from "SENDING" to "WAITING FOR REPLY"
DEBUG   2025-08-29 14:08:12,370  pymodbus.logging:transaction.py:419 Changing transaction state from "WAITING FOR REPLY" to "PROCESSING REPLY"
DEBUG   2025-08-29 14:08:12,370  pymodbus.logging:transaction.py:324 RECV: 0x1 0x3 0x4 0x3c 0xc8 0x41 0x9b 0x6 0x66
DEBUG   2025-08-29 14:08:12,370  pymodbus.logging:base.py:92 Processing: 0x1 0x3 0x4 0x3c 0xc8 0x41 0x9b 0x6 0x66
DEBUG   2025-08-29 14:08:12,370  pymodbus.logging:decoders.py:103 decode PDU for 3
DEBUG   2025-08-29 14:08:12,370  pymodbus.logging:base.py:102 Frame advanced, resetting header!!
DEBUG   2025-08-29 14:08:12,370  pymodbus.logging:transaction.py:67 Adding transaction 0
DEBUG   2025-08-29 14:08:12,370  pymodbus.logging:transaction.py:78 Getting transaction 0
DEBUG   2025-08-29 14:08:12,370  pymodbus.logging:transaction.py:258 Changing transaction state from "PROCESSING REPLY" to "TRANSACTION_COMPLETE"
INFO    2025-08-29 14:08:12,370  root:modbus_rtu_tcp.py:44 read_measurement ret is:ReadHoldingRegistersResponse (2)
INFO    2025-08-29 14:08:12,370  root:acudc260_modbus_get.py:201 read p2_power ret is:[15560, 16795]
DEBUG   2025-08-29 14:08:12,370  pymodbus.logging:transaction.py:184 Current transaction state - TRANSACTION_COMPLETE
DEBUG   2025-08-29 14:08:12,370  pymodbus.logging:transaction.py:193 Running transaction 0
DEBUG   2025-08-29 14:08:12,370  pymodbus.logging:transaction.py:293 SEND: 0x1 0x3 0x30 0xc 0x0 0x2 0xb 0x8
DEBUG   2025-08-29 14:08:12,370  pymodbus.logging:serial.py:271 Changing state to IDLE - Last Frame End - 1756447692.370285 Current Time stamp - 1756447692.370285
DEBUG   2025-08-29 14:08:12,371  pymodbus.logging:serial.py:279 Waiting for 3.5 char before next send - 1.823 ms
DEBUG   2025-08-29 14:08:12,373  pymodbus.logging:base.py:250 New Transaction state "SENDING"
DEBUG   2025-08-29 14:08:12,373  pymodbus.logging:transaction.py:317 Changing transaction state from "SENDING" to "WAITING FOR REPLY"
DEBUG   2025-08-29 14:08:12,402  pymodbus.logging:transaction.py:419 Changing transaction state from "WAITING FOR REPLY" to "PROCESSING REPLY"
DEBUG   2025-08-29 14:08:12,402  pymodbus.logging:transaction.py:324 RECV: 0x1 0x3 0x4 0x3d 0x49 0xa1 0x9e 0xde 0x71
DEBUG   2025-08-29 14:08:12,402  pymodbus.logging:base.py:92 Processing: 0x1 0x3 0x4 0x3d 0x49 0xa1 0x9e 0xde 0x71
DEBUG   2025-08-29 14:08:12,402  pymodbus.logging:decoders.py:103 decode PDU for 3
DEBUG   2025-08-29 14:08:12,402  pymodbus.logging:base.py:102 Frame advanced, resetting header!!
DEBUG   2025-08-29 14:08:12,402  pymodbus.logging:transaction.py:67 Adding transaction 0
DEBUG   2025-08-29 14:08:12,402  pymodbus.logging:transaction.py:78 Getting transaction 0
DEBUG   2025-08-29 14:08:12,402  pymodbus.logging:transaction.py:258 Changing transaction state from "PROCESSING REPLY" to "TRANSACTION_COMPLETE"
INFO    2025-08-29 14:08:12,402  root:modbus_rtu_tcp.py:44 read_measurement ret is:ReadHoldingRegistersResponse (2)
INFO    2025-08-29 14:08:12,402  root:acudc260_modbus_get.py:215 read p_sum_power ret is:[15689, 41374]
DEBUG   2025-08-29 14:08:12,504  pymodbus.logging:transaction.py:184 Current transaction state - TRANSACTION_COMPLETE
DEBUG   2025-08-29 14:08:12,504  pymodbus.logging:transaction.py:193 Running transaction 0
DEBUG   2025-08-29 14:08:12,504  pymodbus.logging:transaction.py:293 SEND: 0x1 0x3 0x30 0x0 0x0 0x2 0xcb 0xb
DEBUG   2025-08-29 14:08:12,504  pymodbus.logging:serial.py:271 Changing state to IDLE - Last Frame End - 1756447692.402653 Current Time stamp - 1756447692.504455
DEBUG   2025-08-29 14:08:12,504  pymodbus.logging:base.py:250 New Transaction state "SENDING"
DEBUG   2025-08-29 14:08:12,504  pymodbus.logging:transaction.py:317 Changing transaction state from "SENDING" to "WAITING FOR REPLY"
DEBUG   2025-08-29 14:08:12,532  pymodbus.logging:transaction.py:419 Changing transaction state from "WAITING FOR REPLY" to "PROCESSING REPLY"
DEBUG   2025-08-29 14:08:12,532  pymodbus.logging:transaction.py:324 RECV: 0x1 0x3 0x4 0x42 0x6f 0xfc 0xd2 0x1f 0xb
DEBUG   2025-08-29 14:08:12,532  pymodbus.logging:base.py:92 Processing: 0x1 0x3 0x4 0x42 0x6f 0xfc 0xd2 0x1f 0xb
DEBUG   2025-08-29 14:08:12,532  pymodbus.logging:decoders.py:103 decode PDU for 3
DEBUG   2025-08-29 14:08:12,532  pymodbus.logging:base.py:102 Frame advanced, resetting header!!
DEBUG   2025-08-29 14:08:12,532  pymodbus.logging:transaction.py:67 Adding transaction 0
DEBUG   2025-08-29 14:08:12,532  pymodbus.logging:transaction.py:78 Getting transaction 0
DEBUG   2025-08-29 14:08:12,532  pymodbus.logging:transaction.py:258 Changing transaction state from "PROCESSING REPLY" to "TRANSACTION_COMPLETE"
INFO    2025-08-29 14:08:12,532  root:modbus_rtu_tcp.py:44 read_measurement ret is:ReadHoldingRegistersResponse (2)
INFO    2025-08-29 14:08:12,532  root:acudc260_modbus_get.py:131 read u_voltage ret is:[17007, 64722]
DEBUG   2025-08-29 14:08:12,532  pymodbus.logging:transaction.py:184 Current transaction state - TRANSACTION_COMPLETE
DEBUG   2025-08-29 14:08:12,532  pymodbus.logging:transaction.py:193 Running transaction 0
DEBUG   2025-08-29 14:08:12,532  pymodbus.logging:transaction.py:293 SEND: 0x1 0x3 0x30 0x2 0x0 0x2 0x6a 0xcb
DEBUG   2025-08-29 14:08:12,532  pymodbus.logging:serial.py:271 Changing state to IDLE - Last Frame End - 1756447692.532185 Current Time stamp - 1756447692.532185
DEBUG   2025-08-29 14:08:12,532  pymodbus.logging:serial.py:279 Waiting for 3.5 char before next send - 1.823 ms
DEBUG   2025-08-29 14:08:12,535  pymodbus.logging:base.py:250 New Transaction state "SENDING"
DEBUG   2025-08-29 14:08:12,535  pymodbus.logging:transaction.py:317 Changing transaction state from "SENDING" to "WAITING FOR REPLY"
DEBUG   2025-08-29 14:08:12,559  pymodbus.logging:transaction.py:419 Changing transaction state from "WAITING FOR REPLY" to "PROCESSING REPLY"
DEBUG   2025-08-29 14:08:12,559  pymodbus.logging:transaction.py:324 RECV: 0x1 0x3 0x4 0x3e 0xd2 0xc4 0x50 0x5 0x1e
DEBUG   2025-08-29 14:08:12,559  pymodbus.logging:base.py:92 Processing: 0x1 0x3 0x4 0x3e 0xd2 0xc4 0x50 0x5 0x1e
DEBUG   2025-08-29 14:08:12,559  pymodbus.logging:decoders.py:103 decode PDU for 3
DEBUG   2025-08-29 14:08:12,559  pymodbus.logging:base.py:102 Frame advanced, resetting header!!
DEBUG   2025-08-29 14:08:12,559  pymodbus.logging:transaction.py:67 Adding transaction 0
DEBUG   2025-08-29 14:08:12,559  pymodbus.logging:transaction.py:78 Getting transaction 0
DEBUG   2025-08-29 14:08:12,559  pymodbus.logging:transaction.py:258 Changing transaction state from "PROCESSING REPLY" to "TRANSACTION_COMPLETE"
INFO    2025-08-29 14:08:12,560  root:modbus_rtu_tcp.py:44 read_measurement ret is:ReadHoldingRegistersResponse (2)
INFO    2025-08-29 14:08:12,560  root:acudc260_modbus_get.py:145 read i1_current ret is:[16082, 50256]
DEBUG   2025-08-29 14:08:12,560  pymodbus.logging:transaction.py:184 Current transaction state - TRANSACTION_COMPLETE
DEBUG   2025-08-29 14:08:12,560  pymodbus.logging:transaction.py:193 Running transaction 0
DEBUG   2025-08-29 14:08:12,560  pymodbus.logging:transaction.py:293 SEND: 0x1 0x3 0x30 0x4 0x0 0x2 0x8a 0xca
DEBUG   2025-08-29 14:08:12,560  pymodbus.logging:serial.py:271 Changing state to IDLE - Last Frame End - 1756447692.559339 Current Time stamp - 1756447692.560455
DEBUG   2025-08-29 14:08:12,560  pymodbus.logging:serial.py:279 Waiting for 3.5 char before next send - 1.823 ms
DEBUG   2025-08-29 14:08:12,563  pymodbus.logging:base.py:250 New Transaction state "SENDING"
DEBUG   2025-08-29 14:08:12,563  pymodbus.logging:transaction.py:317 Changing transaction state from "SENDING" to "WAITING FOR REPLY"
DEBUG   2025-08-29 14:08:12,591  pymodbus.logging:transaction.py:419 Changing transaction state from "WAITING FOR REPLY" to "PROCESSING REPLY"
DEBUG   2025-08-29 14:08:12,591  pymodbus.logging:transaction.py:324 RECV: 0x1 0x3 0x4 0x3e 0xce 0x9b 0xea 0x7c 0x9b
DEBUG   2025-08-29 14:08:12,591  pymodbus.logging:base.py:92 Processing: 0x1 0x3 0x4 0x3e 0xce 0x9b 0xea 0x7c 0x9b
DEBUG   2025-08-29 14:08:12,591  pymodbus.logging:decoders.py:103 decode PDU for 3
DEBUG   2025-08-29 14:08:12,591  pymodbus.logging:base.py:102 Frame advanced, resetting header!!
DEBUG   2025-08-29 14:08:12,591  pymodbus.logging:transaction.py:67 Adding transaction 0
DEBUG   2025-08-29 14:08:12,591  pymodbus.logging:transaction.py:78 Getting transaction 0
DEBUG   2025-08-29 14:08:12,591  pymodbus.logging:transaction.py:258 Changing transaction state from "PROCESSING REPLY" to "TRANSACTION_COMPLETE"
INFO    2025-08-29 14:08:12,591  root:modbus_rtu_tcp.py:44 read_measurement ret is:ReadHoldingRegistersResponse (2)
INFO    2025-08-29 14:08:12,591  root:acudc260_modbus_get.py:159 read i2_current ret is:[16078, 39914]
DEBUG   2025-08-29 14:08:12,591  pymodbus.logging:transaction.py:184 Current transaction state - TRANSACTION_COMPLETE
DEBUG   2025-08-29 14:08:12,592  pymodbus.logging:transaction.py:193 Running transaction 0
DEBUG   2025-08-29 14:08:12,592  pymodbus.logging:transaction.py:293 SEND: 0x1 0x3 0x30 0x6 0x0 0x2 0x2b 0xa
DEBUG   2025-08-29 14:08:12,592  pymodbus.logging:serial.py:271 Changing state to IDLE - Last Frame End - 1756447692.591368 Current Time stamp - 1756447692.592405
DEBUG   2025-08-29 14:08:12,592  pymodbus.logging:serial.py:279 Waiting for 3.5 char before next send - 1.823 ms
DEBUG   2025-08-29 14:08:12,594  pymodbus.logging:base.py:250 New Transaction state "SENDING"
DEBUG   2025-08-29 14:08:12,594  pymodbus.logging:transaction.py:317 Changing transaction state from "SENDING" to "WAITING FOR REPLY"
DEBUG   2025-08-29 14:08:12,628  pymodbus.logging:transaction.py:419 Changing transaction state from "WAITING FOR REPLY" to "PROCESSING REPLY"
DEBUG   2025-08-29 14:08:12,628  pymodbus.logging:transaction.py:324 RECV: 0x1 0x3 0x4 0x3f 0x50 0x12 0x38 0xfb 0x44
DEBUG   2025-08-29 14:08:12,628  pymodbus.logging:base.py:92 Processing: 0x1 0x3 0x4 0x3f 0x50 0x12 0x38 0xfb 0x44
DEBUG   2025-08-29 14:08:12,628  pymodbus.logging:decoders.py:103 decode PDU for 3
DEBUG   2025-08-29 14:08:12,628  pymodbus.logging:base.py:102 Frame advanced, resetting header!!
DEBUG   2025-08-29 14:08:12,628  pymodbus.logging:transaction.py:67 Adding transaction 0
DEBUG   2025-08-29 14:08:12,628  pymodbus.logging:transaction.py:78 Getting transaction 0
DEBUG   2025-08-29 14:08:12,628  pymodbus.logging:transaction.py:258 Changing transaction state from "PROCESSING REPLY" to "TRANSACTION_COMPLETE"
INFO    2025-08-29 14:08:12,628  root:modbus_rtu_tcp.py:44 read_measurement ret is:ReadHoldingRegistersResponse (2)
INFO    2025-08-29 14:08:12,628  root:acudc260_modbus_get.py:173 read i_sum_current ret is:[16208, 4664]
DEBUG   2025-08-29 14:08:12,628  pymodbus.logging:transaction.py:184 Current transaction state - TRANSACTION_COMPLETE
DEBUG   2025-08-29 14:08:12,628  pymodbus.logging:transaction.py:193 Running transaction 0
DEBUG   2025-08-29 14:08:12,628  pymodbus.logging:transaction.py:293 SEND: 0x1 0x3 0x30 0x8 0x0 0x2 0x4a 0xc9
DEBUG   2025-08-29 14:08:12,628  pymodbus.logging:serial.py:271 Changing state to IDLE - Last Frame End - 1756447692.628553 Current Time stamp - 1756447692.628553
DEBUG   2025-08-29 14:08:12,628  pymodbus.logging:serial.py:279 Waiting for 3.5 char before next send - 1.823 ms
DEBUG   2025-08-29 14:08:12,631  pymodbus.logging:base.py:250 New Transaction state "SENDING"
DEBUG   2025-08-29 14:08:12,631  pymodbus.logging:transaction.py:317 Changing transaction state from "SENDING" to "WAITING FOR REPLY"
DEBUG   2025-08-29 14:08:12,660  pymodbus.logging:transaction.py:419 Changing transaction state from "WAITING FOR REPLY" to "PROCESSING REPLY"
DEBUG   2025-08-29 14:08:12,660  pymodbus.logging:transaction.py:324 RECV: 0x1 0x3 0x4 0x3c 0xc7 0xe0 0x40 0xf 0xae
DEBUG   2025-08-29 14:08:12,660  pymodbus.logging:base.py:92 Processing: 0x1 0x3 0x4 0x3c 0xc7 0xe0 0x40 0xf 0xae
DEBUG   2025-08-29 14:08:12,660  pymodbus.logging:decoders.py:103 decode PDU for 3
DEBUG   2025-08-29 14:08:12,660  pymodbus.logging:base.py:102 Frame advanced, resetting header!!
DEBUG   2025-08-29 14:08:12,660  pymodbus.logging:transaction.py:67 Adding transaction 0
DEBUG   2025-08-29 14:08:12,660  pymodbus.logging:transaction.py:78 Getting transaction 0
DEBUG   2025-08-29 14:08:12,660  pymodbus.logging:transaction.py:258 Changing transaction state from "PROCESSING REPLY" to "TRANSACTION_COMPLETE"
INFO    2025-08-29 14:08:12,660  root:modbus_rtu_tcp.py:44 read_measurement ret is:ReadHoldingRegistersResponse (2)
INFO    2025-08-29 14:08:12,660  root:acudc260_modbus_get.py:187 read p1_power ret is:[15559, 57408]
DEBUG   2025-08-29 14:08:12,660  pymodbus.logging:transaction.py:184 Current transaction state - TRANSACTION_COMPLETE
DEBUG   2025-08-29 14:08:12,660  pymodbus.logging:transaction.py:193 Running transaction 0
DEBUG   2025-08-29 14:08:12,660  pymodbus.logging:transaction.py:293 SEND: 0x1 0x3 0x30 0xa 0x0 0x2 0xeb 0x9
DEBUG   2025-08-29 14:08:12,660  pymodbus.logging:serial.py:271 Changing state to IDLE - Last Frame End - 1756447692.660403 Current Time stamp - 1756447692.660403
DEBUG   2025-08-29 14:08:12,660  pymodbus.logging:serial.py:279 Waiting for 3.5 char before next send - 1.823 ms
DEBUG   2025-08-29 14:08:12,663  pymodbus.logging:base.py:250 New Transaction state "SENDING"
DEBUG   2025-08-29 14:08:12,663  pymodbus.logging:transaction.py:317 Changing transaction state from "SENDING" to "WAITING FOR REPLY"
DEBUG   2025-08-29 14:08:12,692  pymodbus.logging:transaction.py:419 Changing transaction state from "WAITING FOR REPLY" to "PROCESSING REPLY"
DEBUG   2025-08-29 14:08:12,692  pymodbus.logging:transaction.py:324 RECV: 0x1 0x3 0x4 0x3c 0xc7 0x97 0xdc 0x28 0x37
DEBUG   2025-08-29 14:08:12,692  pymodbus.logging:base.py:92 Processing: 0x1 0x3 0x4 0x3c 0xc7 0x97 0xdc 0x28 0x37
DEBUG   2025-08-29 14:08:12,692  pymodbus.logging:decoders.py:103 decode PDU for 3
DEBUG   2025-08-29 14:08:12,692  pymodbus.logging:base.py:102 Frame advanced, resetting header!!
DEBUG   2025-08-29 14:08:12,692  pymodbus.logging:transaction.py:67 Adding transaction 0
DEBUG   2025-08-29 14:08:12,692  pymodbus.logging:transaction.py:78 Getting transaction 0
DEBUG   2025-08-29 14:08:12,692  pymodbus.logging:transaction.py:258 Changing transaction state from "PROCESSING REPLY" to "TRANSACTION_COMPLETE"
INFO    2025-08-29 14:08:12,692  root:modbus_rtu_tcp.py:44 read_measurement ret is:ReadHoldingRegistersResponse (2)
INFO    2025-08-29 14:08:12,692  root:acudc260_modbus_get.py:201 read p2_power ret is:[15559, 38876]
DEBUG   2025-08-29 14:08:12,692  pymodbus.logging:transaction.py:184 Current transaction state - TRANSACTION_COMPLETE
DEBUG   2025-08-29 14:08:12,692  pymodbus.logging:transaction.py:193 Running transaction 0
DEBUG   2025-08-29 14:08:12,693  pymodbus.logging:transaction.py:293 SEND: 0x1 0x3 0x30 0xc 0x0 0x2 0xb 0x8
DEBUG   2025-08-29 14:08:12,693  pymodbus.logging:serial.py:271 Changing state to IDLE - Last Frame End - 1756447692.692046 Current Time stamp - 1756447692.693057
DEBUG   2025-08-29 14:08:12,693  pymodbus.logging:serial.py:279 Waiting for 3.5 char before next send - 1.823 ms
DEBUG   2025-08-29 14:08:12,695  pymodbus.logging:base.py:250 New Transaction state "SENDING"
DEBUG   2025-08-29 14:08:12,695  pymodbus.logging:transaction.py:317 Changing transaction state from "SENDING" to "WAITING FOR REPLY"
DEBUG   2025-08-29 14:08:12,723  pymodbus.logging:transaction.py:419 Changing transaction state from "WAITING FOR REPLY" to "PROCESSING REPLY"
DEBUG   2025-08-29 14:08:12,723  pymodbus.logging:transaction.py:324 RECV: 0x1 0x3 0x4 0x3d 0x45 0xe7 0xa3 0xed 0xc3
DEBUG   2025-08-29 14:08:12,723  pymodbus.logging:base.py:92 Processing: 0x1 0x3 0x4 0x3d 0x45 0xe7 0xa3 0xed 0xc3
DEBUG   2025-08-29 14:08:12,723  pymodbus.logging:decoders.py:103 decode PDU for 3
DEBUG   2025-08-29 14:08:12,723  pymodbus.logging:base.py:102 Frame advanced, resetting header!!
DEBUG   2025-08-29 14:08:12,723  pymodbus.logging:transaction.py:67 Adding transaction 0
DEBUG   2025-08-29 14:08:12,723  pymodbus.logging:transaction.py:78 Getting transaction 0
DEBUG   2025-08-29 14:08:12,723  pymodbus.logging:transaction.py:258 Changing transaction state from "PROCESSING REPLY" to "TRANSACTION_COMPLETE"
INFO    2025-08-29 14:08:12,723  root:modbus_rtu_tcp.py:44 read_measurement ret is:ReadHoldingRegistersResponse (2)
INFO    2025-08-29 14:08:12,723  root:acudc260_modbus_get.py:215 read p_sum_power ret is:[15685, 59299]
DEBUG   2025-08-29 14:08:12,825  pymodbus.logging:transaction.py:184 Current transaction state - TRANSACTION_COMPLETE
DEBUG   2025-08-29 14:08:12,825  pymodbus.logging:transaction.py:193 Running transaction 0
DEBUG   2025-08-29 14:08:12,825  pymodbus.logging:transaction.py:293 SEND: 0x1 0x3 0x30 0x0 0x0 0x2 0xcb 0xb
DEBUG   2025-08-29 14:08:12,825  pymodbus.logging:serial.py:271 Changing state to IDLE - Last Frame End - 1756447692.723919 Current Time stamp - 1756447692.825081
DEBUG   2025-08-29 14:08:12,825  pymodbus.logging:base.py:250 New Transaction state "SENDING"
DEBUG   2025-08-29 14:08:12,826  pymodbus.logging:transaction.py:317 Changing transaction state from "SENDING" to "WAITING FOR REPLY"
DEBUG   2025-08-29 14:08:12,851  pymodbus.logging:transaction.py:419 Changing transaction state from "WAITING FOR REPLY" to "PROCESSING REPLY"
DEBUG   2025-08-29 14:08:12,851  pymodbus.logging:transaction.py:324 RECV: 0x1 0x3 0x4 0x42 0x6f 0xfb 0x3c 0x9d 0x77
DEBUG   2025-08-29 14:08:12,851  pymodbus.logging:base.py:92 Processing: 0x1 0x3 0x4 0x42 0x6f 0xfb 0x3c 0x9d 0x77
DEBUG   2025-08-29 14:08:12,851  pymodbus.logging:decoders.py:103 decode PDU for 3
DEBUG   2025-08-29 14:08:12,851  pymodbus.logging:base.py:102 Frame advanced, resetting header!!
DEBUG   2025-08-29 14:08:12,851  pymodbus.logging:transaction.py:67 Adding transaction 0
DEBUG   2025-08-29 14:08:12,851  pymodbus.logging:transaction.py:78 Getting transaction 0
DEBUG   2025-08-29 14:08:12,851  pymodbus.logging:transaction.py:258 Changing transaction state from "PROCESSING REPLY" to "TRANSACTION_COMPLETE"
INFO    2025-08-29 14:08:12,851  root:modbus_rtu_tcp.py:44 read_measurement ret is:ReadHoldingRegistersResponse (2)
INFO    2025-08-29 14:08:12,851  root:acudc260_modbus_get.py:131 read u_voltage ret is:[17007, 64316]
DEBUG   2025-08-29 14:08:12,852  pymodbus.logging:transaction.py:184 Current transaction state - TRANSACTION_COMPLETE
DEBUG   2025-08-29 14:08:12,852  pymodbus.logging:transaction.py:193 Running transaction 0
DEBUG   2025-08-29 14:08:12,852  pymodbus.logging:transaction.py:293 SEND: 0x1 0x3 0x30 0x2 0x0 0x2 0x6a 0xcb
DEBUG   2025-08-29 14:08:12,852  pymodbus.logging:serial.py:271 Changing state to IDLE - Last Frame End - 1756447692.851877 Current Time stamp - 1756447692.852905
DEBUG   2025-08-29 14:08:12,852  pymodbus.logging:serial.py:279 Waiting for 3.5 char before next send - 1.823 ms
DEBUG   2025-08-29 14:08:12,855  pymodbus.logging:base.py:250 New Transaction state "SENDING"
DEBUG   2025-08-29 14:08:12,855  pymodbus.logging:transaction.py:317 Changing transaction state from "SENDING" to "WAITING FOR REPLY"
DEBUG   2025-08-29 14:08:12,883  pymodbus.logging:transaction.py:419 Changing transaction state from "WAITING FOR REPLY" to "PROCESSING REPLY"
DEBUG   2025-08-29 14:08:12,883  pymodbus.logging:transaction.py:324 RECV: 0x1 0x3 0x4 0x3e 0xd0 0xda 0x26 0x2c 0x98
DEBUG   2025-08-29 14:08:12,883  pymodbus.logging:base.py:92 Processing: 0x1 0x3 0x4 0x3e 0xd0 0xda 0x26 0x2c 0x98
DEBUG   2025-08-29 14:08:12,883  pymodbus.logging:decoders.py:103 decode PDU for 3
DEBUG   2025-08-29 14:08:12,883  pymodbus.logging:base.py:102 Frame advanced, resetting header!!
DEBUG   2025-08-29 14:08:12,883  pymodbus.logging:transaction.py:67 Adding transaction 0
DEBUG   2025-08-29 14:08:12,883  pymodbus.logging:transaction.py:78 Getting transaction 0
DEBUG   2025-08-29 14:08:12,883  pymodbus.logging:transaction.py:258 Changing transaction state from "PROCESSING REPLY" to "TRANSACTION_COMPLETE"
INFO    2025-08-29 14:08:12,883  root:modbus_rtu_tcp.py:44 read_measurement ret is:ReadHoldingRegistersResponse (2)
INFO    2025-08-29 14:08:12,883  root:acudc260_modbus_get.py:145 read i1_current ret is:[16080, 55846]
DEBUG   2025-08-29 14:08:12,883  pymodbus.logging:transaction.py:184 Current transaction state - TRANSACTION_COMPLETE
DEBUG   2025-08-29 14:08:12,883  pymodbus.logging:transaction.py:193 Running transaction 0
DEBUG   2025-08-29 14:08:12,883  pymodbus.logging:transaction.py:293 SEND: 0x1 0x3 0x30 0x4 0x0 0x2 0x8a 0xca
DEBUG   2025-08-29 14:08:12,884  pymodbus.logging:serial.py:271 Changing state to IDLE - Last Frame End - 1756447692.883222 Current Time stamp - 1756447692.884327
DEBUG   2025-08-29 14:08:12,884  pymodbus.logging:serial.py:279 Waiting for 3.5 char before next send - 1.823 ms
DEBUG   2025-08-29 14:08:12,886  pymodbus.logging:base.py:250 New Transaction state "SENDING"
DEBUG   2025-08-29 14:08:12,886  pymodbus.logging:transaction.py:317 Changing transaction state from "SENDING" to "WAITING FOR REPLY"
DEBUG   2025-08-29 14:08:12,915  pymodbus.logging:transaction.py:419 Changing transaction state from "WAITING FOR REPLY" to "PROCESSING REPLY"
DEBUG   2025-08-29 14:08:12,915  pymodbus.logging:transaction.py:324 RECV: 0x1 0x3 0x4 0x3e 0xcc 0xa0 0xba 0xce 0x57
DEBUG   2025-08-29 14:08:12,915  pymodbus.logging:base.py:92 Processing: 0x1 0x3 0x4 0x3e 0xcc 0xa0 0xba 0xce 0x57
DEBUG   2025-08-29 14:08:12,915  pymodbus.logging:decoders.py:103 decode PDU for 3
DEBUG   2025-08-29 14:08:12,915  pymodbus.logging:base.py:102 Frame advanced, resetting header!!
DEBUG   2025-08-29 14:08:12,915  pymodbus.logging:transaction.py:67 Adding transaction 0
DEBUG   2025-08-29 14:08:12,915  pymodbus.logging:transaction.py:78 Getting transaction 0
DEBUG   2025-08-29 14:08:12,915  pymodbus.logging:transaction.py:258 Changing transaction state from "PROCESSING REPLY" to "TRANSACTION_COMPLETE"
INFO    2025-08-29 14:08:12,915  root:modbus_rtu_tcp.py:44 read_measurement ret is:ReadHoldingRegistersResponse (2)
INFO    2025-08-29 14:08:12,915  root:acudc260_modbus_get.py:159 read i2_current ret is:[16076, 41146]
DEBUG   2025-08-29 14:08:12,915  pymodbus.logging:transaction.py:184 Current transaction state - TRANSACTION_COMPLETE
DEBUG   2025-08-29 14:08:12,915  pymodbus.logging:transaction.py:193 Running transaction 0
DEBUG   2025-08-29 14:08:12,915  pymodbus.logging:transaction.py:293 SEND: 0x1 0x3 0x30 0x6 0x0 0x2 0x2b 0xa
DEBUG   2025-08-29 14:08:12,915  pymodbus.logging:serial.py:271 Changing state to IDLE - Last Frame End - 1756447692.915666 Current Time stamp - 1756447692.915666
DEBUG   2025-08-29 14:08:12,915  pymodbus.logging:serial.py:279 Waiting for 3.5 char before next send - 1.823 ms
DEBUG   2025-08-29 14:08:12,918  pymodbus.logging:base.py:250 New Transaction state "SENDING"
DEBUG   2025-08-29 14:08:12,918  pymodbus.logging:transaction.py:317 Changing transaction state from "SENDING" to "WAITING FOR REPLY"
DEBUG   2025-08-29 14:08:12,948  pymodbus.logging:transaction.py:419 Changing transaction state from "WAITING FOR REPLY" to "PROCESSING REPLY"
DEBUG   2025-08-29 14:08:12,948  pymodbus.logging:transaction.py:324 RECV: 0x1 0x3 0x4 0x3f 0x4e 0x86 0xf3 0xb4 0x15
DEBUG   2025-08-29 14:08:12,948  pymodbus.logging:base.py:92 Processing: 0x1 0x3 0x4 0x3f 0x4e 0x86 0xf3 0xb4 0x15
DEBUG   2025-08-29 14:08:12,948  pymodbus.logging:decoders.py:103 decode PDU for 3
DEBUG   2025-08-29 14:08:12,948  pymodbus.logging:base.py:102 Frame advanced, resetting header!!
DEBUG   2025-08-29 14:08:12,948  pymodbus.logging:transaction.py:67 Adding transaction 0
DEBUG   2025-08-29 14:08:12,948  pymodbus.logging:transaction.py:78 Getting transaction 0
DEBUG   2025-08-29 14:08:12,948  pymodbus.logging:transaction.py:258 Changing transaction state from "PROCESSING REPLY" to "TRANSACTION_COMPLETE"
INFO    2025-08-29 14:08:12,948  root:modbus_rtu_tcp.py:44 read_measurement ret is:ReadHoldingRegistersResponse (2)
INFO    2025-08-29 14:08:12,948  root:acudc260_modbus_get.py:173 read i_sum_current ret is:[16206, 34547]
DEBUG   2025-08-29 14:08:12,948  pymodbus.logging:transaction.py:184 Current transaction state - TRANSACTION_COMPLETE
DEBUG   2025-08-29 14:08:12,948  pymodbus.logging:transaction.py:193 Running transaction 0
DEBUG   2025-08-29 14:08:12,948  pymodbus.logging:transaction.py:293 SEND: 0x1 0x3 0x30 0x8 0x0 0x2 0x4a 0xc9
DEBUG   2025-08-29 14:08:12,948  pymodbus.logging:serial.py:271 Changing state to IDLE - Last Frame End - 1756447692.948799 Current Time stamp - 1756447692.948799
DEBUG   2025-08-29 14:08:12,948  pymodbus.logging:serial.py:279 Waiting for 3.5 char before next send - 1.823 ms
DEBUG   2025-08-29 14:08:12,951  pymodbus.logging:base.py:250 New Transaction state "SENDING"
DEBUG   2025-08-29 14:08:12,951  pymodbus.logging:transaction.py:317 Changing transaction state from "SENDING" to "WAITING FOR REPLY"
DEBUG   2025-08-29 14:08:12,979  pymodbus.logging:transaction.py:419 Changing transaction state from "WAITING FOR REPLY" to "PROCESSING REPLY"
DEBUG   2025-08-29 14:08:12,979  pymodbus.logging:transaction.py:324 RECV: 0x1 0x3 0x4 0x3c 0xc8 0x8d 0x39 0xd2 0xdf
DEBUG   2025-08-29 14:08:12,979  pymodbus.logging:base.py:92 Processing: 0x1 0x3 0x4 0x3c 0xc8 0x8d 0x39 0xd2 0xdf
DEBUG   2025-08-29 14:08:12,979  pymodbus.logging:decoders.py:103 decode PDU for 3
DEBUG   2025-08-29 14:08:12,979  pymodbus.logging:base.py:102 Frame advanced, resetting header!!
DEBUG   2025-08-29 14:08:12,979  pymodbus.logging:transaction.py:67 Adding transaction 0
DEBUG   2025-08-29 14:08:12,979  pymodbus.logging:transaction.py:78 Getting transaction 0
DEBUG   2025-08-29 14:08:12,979  pymodbus.logging:transaction.py:258 Changing transaction state from "PROCESSING REPLY" to "TRANSACTION_COMPLETE"
INFO    2025-08-29 14:08:12,979  root:modbus_rtu_tcp.py:44 read_measurement ret is:ReadHoldingRegistersResponse (2)
INFO    2025-08-29 14:08:12,979  root:acudc260_modbus_get.py:187 read p1_power ret is:[15560, 36153]
DEBUG   2025-08-29 14:08:12,979  pymodbus.logging:transaction.py:184 Current transaction state - TRANSACTION_COMPLETE
DEBUG   2025-08-29 14:08:12,979  pymodbus.logging:transaction.py:193 Running transaction 0
DEBUG   2025-08-29 14:08:12,979  pymodbus.logging:transaction.py:293 SEND: 0x1 0x3 0x30 0xa 0x0 0x2 0xeb 0x9
DEBUG   2025-08-29 14:08:12,979  pymodbus.logging:serial.py:271 Changing state to IDLE - Last Frame End - 1756447692.979021 Current Time stamp - 1756447692.979021
DEBUG   2025-08-29 14:08:12,979  pymodbus.logging:serial.py:279 Waiting for 3.5 char before next send - 1.823 ms
DEBUG   2025-08-29 14:08:12,982  pymodbus.logging:base.py:250 New Transaction state "SENDING"
DEBUG   2025-08-29 14:08:12,982  pymodbus.logging:transaction.py:317 Changing transaction state from "SENDING" to "WAITING FOR REPLY"
DEBUG   2025-08-29 14:08:13,011  pymodbus.logging:transaction.py:419 Changing transaction state from "WAITING FOR REPLY" to "PROCESSING REPLY"
DEBUG   2025-08-29 14:08:13,011  pymodbus.logging:transaction.py:324 RECV: 0x1 0x3 0x4 0x3c 0xc3 0xf5 0x1f 0x0 0xc7
DEBUG   2025-08-29 14:08:13,011  pymodbus.logging:base.py:92 Processing: 0x1 0x3 0x4 0x3c 0xc3 0xf5 0x1f 0x0 0xc7
DEBUG   2025-08-29 14:08:13,011  pymodbus.logging:decoders.py:103 decode PDU for 3
DEBUG   2025-08-29 14:08:13,011  pymodbus.logging:base.py:102 Frame advanced, resetting header!!
DEBUG   2025-08-29 14:08:13,011  pymodbus.logging:transaction.py:67 Adding transaction 0
DEBUG   2025-08-29 14:08:13,011  pymodbus.logging:transaction.py:78 Getting transaction 0
DEBUG   2025-08-29 14:08:13,011  pymodbus.logging:transaction.py:258 Changing transaction state from "PROCESSING REPLY" to "TRANSACTION_COMPLETE"
INFO    2025-08-29 14:08:13,011  root:modbus_rtu_tcp.py:44 read_measurement ret is:ReadHoldingRegistersResponse (2)
INFO    2025-08-29 14:08:13,011  root:acudc260_modbus_get.py:201 read p2_power ret is:[15555, 62751]
DEBUG   2025-08-29 14:08:13,011  pymodbus.logging:transaction.py:184 Current transaction state - TRANSACTION_COMPLETE
DEBUG   2025-08-29 14:08:13,011  pymodbus.logging:transaction.py:193 Running transaction 0
DEBUG   2025-08-29 14:08:13,012  pymodbus.logging:transaction.py:293 SEND: 0x1 0x3 0x30 0xc 0x0 0x2 0xb 0x8
DEBUG   2025-08-29 14:08:13,012  pymodbus.logging:serial.py:271 Changing state to IDLE - Last Frame End - 1756447693.011483 Current Time stamp - 1756447693.012642
DEBUG   2025-08-29 14:08:13,012  pymodbus.logging:serial.py:279 Waiting for 3.5 char before next send - 1.823 ms
DEBUG   2025-08-29 14:08:13,015  pymodbus.logging:base.py:250 New Transaction state "SENDING"
DEBUG   2025-08-29 14:08:13,015  pymodbus.logging:transaction.py:317 Changing transaction state from "SENDING" to "WAITING FOR REPLY"
DEBUG   2025-08-29 14:08:13,042  pymodbus.logging:transaction.py:419 Changing transaction state from "WAITING FOR REPLY" to "PROCESSING REPLY"
DEBUG   2025-08-29 14:08:13,042  pymodbus.logging:transaction.py:324 RECV: 0x1 0x3 0x4 0x3d 0x47 0x47 0xbd 0xb4 0xb
DEBUG   2025-08-29 14:08:13,042  pymodbus.logging:base.py:92 Processing: 0x1 0x3 0x4 0x3d 0x47 0x47 0xbd 0xb4 0xb
DEBUG   2025-08-29 14:08:13,042  pymodbus.logging:decoders.py:103 decode PDU for 3
DEBUG   2025-08-29 14:08:13,043  pymodbus.logging:base.py:102 Frame advanced, resetting header!!
DEBUG   2025-08-29 14:08:13,043  pymodbus.logging:transaction.py:67 Adding transaction 0
DEBUG   2025-08-29 14:08:13,043  pymodbus.logging:transaction.py:78 Getting transaction 0
DEBUG   2025-08-29 14:08:13,043  pymodbus.logging:transaction.py:258 Changing transaction state from "PROCESSING REPLY" to "TRANSACTION_COMPLETE"
INFO    2025-08-29 14:08:13,043  root:modbus_rtu_tcp.py:44 read_measurement ret is:ReadHoldingRegistersResponse (2)
INFO    2025-08-29 14:08:13,043  root:acudc260_modbus_get.py:215 read p_sum_power ret is:[15687, 18365]
DEBUG   2025-08-29 14:08:13,144  pymodbus.logging:transaction.py:184 Current transaction state - TRANSACTION_COMPLETE
DEBUG   2025-08-29 14:08:13,144  pymodbus.logging:transaction.py:193 Running transaction 0
DEBUG   2025-08-29 14:08:13,144  pymodbus.logging:transaction.py:293 SEND: 0x1 0x3 0x30 0x0 0x0 0x2 0xcb 0xb
DEBUG   2025-08-29 14:08:13,144  pymodbus.logging:serial.py:271 Changing state to IDLE - Last Frame End - 1756447693.042581 Current Time stamp - 1756447693.144513
DEBUG   2025-08-29 14:08:13,144  pymodbus.logging:base.py:250 New Transaction state "SENDING"
DEBUG   2025-08-29 14:08:13,145  pymodbus.logging:transaction.py:317 Changing transaction state from "SENDING" to "WAITING FOR REPLY"
DEBUG   2025-08-29 14:08:13,170  pymodbus.logging:transaction.py:419 Changing transaction state from "WAITING FOR REPLY" to "PROCESSING REPLY"
DEBUG   2025-08-29 14:08:13,170  pymodbus.logging:transaction.py:324 RECV: 0x1 0x3 0x4 0x42 0x6f 0xfc 0xc0 0x9f 0x6
DEBUG   2025-08-29 14:08:13,170  pymodbus.logging:base.py:92 Processing: 0x1 0x3 0x4 0x42 0x6f 0xfc 0xc0 0x9f 0x6
DEBUG   2025-08-29 14:08:13,170  pymodbus.logging:decoders.py:103 decode PDU for 3
DEBUG   2025-08-29 14:08:13,170  pymodbus.logging:base.py:102 Frame advanced, resetting header!!
DEBUG   2025-08-29 14:08:13,170  pymodbus.logging:transaction.py:67 Adding transaction 0
DEBUG   2025-08-29 14:08:13,170  pymodbus.logging:transaction.py:78 Getting transaction 0
DEBUG   2025-08-29 14:08:13,170  pymodbus.logging:transaction.py:258 Changing transaction state from "PROCESSING REPLY" to "TRANSACTION_COMPLETE"
INFO    2025-08-29 14:08:13,170  root:modbus_rtu_tcp.py:44 read_measurement ret is:ReadHoldingRegistersResponse (2)
INFO    2025-08-29 14:08:13,170  root:acudc260_modbus_get.py:131 read u_voltage ret is:[17007, 64704]
DEBUG   2025-08-29 14:08:13,171  pymodbus.logging:transaction.py:184 Current transaction state - TRANSACTION_COMPLETE
DEBUG   2025-08-29 14:08:13,171  pymodbus.logging:transaction.py:193 Running transaction 0
DEBUG   2025-08-29 14:08:13,171  pymodbus.logging:transaction.py:293 SEND: 0x1 0x3 0x30 0x2 0x0 0x2 0x6a 0xcb
DEBUG   2025-08-29 14:08:13,171  pymodbus.logging:serial.py:271 Changing state to IDLE - Last Frame End - 1756447693.170007 Current Time stamp - 1756447693.17112
DEBUG   2025-08-29 14:08:13,171  pymodbus.logging:serial.py:279 Waiting for 3.5 char before next send - 1.823 ms
DEBUG   2025-08-29 14:08:13,173  pymodbus.logging:base.py:250 New Transaction state "SENDING"
DEBUG   2025-08-29 14:08:13,173  pymodbus.logging:transaction.py:317 Changing transaction state from "SENDING" to "WAITING FOR REPLY"
DEBUG   2025-08-29 14:08:13,203  pymodbus.logging:transaction.py:419 Changing transaction state from "WAITING FOR REPLY" to "PROCESSING REPLY"
DEBUG   2025-08-29 14:08:13,203  pymodbus.logging:transaction.py:324 RECV: 0x1 0x3 0x4 0x3e 0xd2 0x54 0x0 0x69 0x22
DEBUG   2025-08-29 14:08:13,203  pymodbus.logging:base.py:92 Processing: 0x1 0x3 0x4 0x3e 0xd2 0x54 0x0 0x69 0x22
DEBUG   2025-08-29 14:08:13,203  pymodbus.logging:decoders.py:103 decode PDU for 3
DEBUG   2025-08-29 14:08:13,203  pymodbus.logging:base.py:102 Frame advanced, resetting header!!
DEBUG   2025-08-29 14:08:13,204  pymodbus.logging:transaction.py:67 Adding transaction 0
DEBUG   2025-08-29 14:08:13,204  pymodbus.logging:transaction.py:78 Getting transaction 0
DEBUG   2025-08-29 14:08:13,204  pymodbus.logging:transaction.py:258 Changing transaction state from "PROCESSING REPLY" to "TRANSACTION_COMPLETE"
INFO    2025-08-29 14:08:13,204  root:modbus_rtu_tcp.py:44 read_measurement ret is:ReadHoldingRegistersResponse (2)
INFO    2025-08-29 14:08:13,204  root:acudc260_modbus_get.py:145 read i1_current ret is:[16082, 21504]
DEBUG   2025-08-29 14:08:13,204  pymodbus.logging:transaction.py:184 Current transaction state - TRANSACTION_COMPLETE
DEBUG   2025-08-29 14:08:13,204  pymodbus.logging:transaction.py:193 Running transaction 0
DEBUG   2025-08-29 14:08:13,204  pymodbus.logging:transaction.py:293 SEND: 0x1 0x3 0x30 0x4 0x0 0x2 0x8a 0xca
DEBUG   2025-08-29 14:08:13,204  pymodbus.logging:serial.py:271 Changing state to IDLE - Last Frame End - 1756447693.203674 Current Time stamp - 1756447693.20429
DEBUG   2025-08-29 14:08:13,204  pymodbus.logging:serial.py:279 Waiting for 3.5 char before next send - 1.823 ms
DEBUG   2025-08-29 14:08:13,207  pymodbus.logging:base.py:250 New Transaction state "SENDING"
DEBUG   2025-08-29 14:08:13,207  pymodbus.logging:transaction.py:317 Changing transaction state from "SENDING" to "WAITING FOR REPLY"
DEBUG   2025-08-29 14:08:13,234  pymodbus.logging:transaction.py:419 Changing transaction state from "WAITING FOR REPLY" to "PROCESSING REPLY"
DEBUG   2025-08-29 14:08:13,234  pymodbus.logging:transaction.py:324 RECV: 0x1 0x3 0x4 0x3e 0xcf 0x71 0xa0 0xe3 0xcc
DEBUG   2025-08-29 14:08:13,234  pymodbus.logging:base.py:92 Processing: 0x1 0x3 0x4 0x3e 0xcf 0x71 0xa0 0xe3 0xcc
DEBUG   2025-08-29 14:08:13,234  pymodbus.logging:decoders.py:103 decode PDU for 3
DEBUG   2025-08-29 14:08:13,234  pymodbus.logging:base.py:102 Frame advanced, resetting header!!
DEBUG   2025-08-29 14:08:13,234  pymodbus.logging:transaction.py:67 Adding transaction 0
DEBUG   2025-08-29 14:08:13,234  pymodbus.logging:transaction.py:78 Getting transaction 0
DEBUG   2025-08-29 14:08:13,234  pymodbus.logging:transaction.py:258 Changing transaction state from "PROCESSING REPLY" to "TRANSACTION_COMPLETE"
INFO    2025-08-29 14:08:13,234  root:modbus_rtu_tcp.py:44 read_measurement ret is:ReadHoldingRegistersResponse (2)
INFO    2025-08-29 14:08:13,234  root:acudc260_modbus_get.py:159 read i2_current ret is:[16079, 29088]
DEBUG   2025-08-29 14:08:13,234  pymodbus.logging:transaction.py:184 Current transaction state - TRANSACTION_COMPLETE
DEBUG   2025-08-29 14:08:13,234  pymodbus.logging:transaction.py:193 Running transaction 0
DEBUG   2025-08-29 14:08:13,234  pymodbus.logging:transaction.py:293 SEND: 0x1 0x3 0x30 0x6 0x0 0x2 0x2b 0xa
DEBUG   2025-08-29 14:08:13,234  pymodbus.logging:serial.py:271 Changing state to IDLE - Last Frame End - 1756447693.234112 Current Time stamp - 1756447693.234112
DEBUG   2025-08-29 14:08:13,235  pymodbus.logging:serial.py:279 Waiting for 3.5 char before next send - 1.823 ms
DEBUG   2025-08-29 14:08:13,237  pymodbus.logging:base.py:250 New Transaction state "SENDING"
DEBUG   2025-08-29 14:08:13,237  pymodbus.logging:transaction.py:317 Changing transaction state from "SENDING" to "WAITING FOR REPLY"
DEBUG   2025-08-29 14:08:13,267  pymodbus.logging:transaction.py:419 Changing transaction state from "WAITING FOR REPLY" to "PROCESSING REPLY"
DEBUG   2025-08-29 14:08:13,267  pymodbus.logging:transaction.py:324 RECV: 0x1 0x3 0x4 0x3f 0x50 0x59 0x13 0x8d 0xab
DEBUG   2025-08-29 14:08:13,267  pymodbus.logging:base.py:92 Processing: 0x1 0x3 0x4 0x3f 0x50 0x59 0x13 0x8d 0xab
DEBUG   2025-08-29 14:08:13,267  pymodbus.logging:decoders.py:103 decode PDU for 3
DEBUG   2025-08-29 14:08:13,267  pymodbus.logging:base.py:102 Frame advanced, resetting header!!
DEBUG   2025-08-29 14:08:13,267  pymodbus.logging:transaction.py:67 Adding transaction 0
DEBUG   2025-08-29 14:08:13,267  pymodbus.logging:transaction.py:78 Getting transaction 0
DEBUG   2025-08-29 14:08:13,267  pymodbus.logging:transaction.py:258 Changing transaction state from "PROCESSING REPLY" to "TRANSACTION_COMPLETE"
INFO    2025-08-29 14:08:13,267  root:modbus_rtu_tcp.py:44 read_measurement ret is:ReadHoldingRegistersResponse (2)
INFO    2025-08-29 14:08:13,267  root:acudc260_modbus_get.py:173 read i_sum_current ret is:[16208, 22803]
DEBUG   2025-08-29 14:08:13,267  pymodbus.logging:transaction.py:184 Current transaction state - TRANSACTION_COMPLETE
DEBUG   2025-08-29 14:08:13,267  pymodbus.logging:transaction.py:193 Running transaction 0
DEBUG   2025-08-29 14:08:13,267  pymodbus.logging:transaction.py:293 SEND: 0x1 0x3 0x30 0x8 0x0 0x2 0x4a 0xc9
DEBUG   2025-08-29 14:08:13,267  pymodbus.logging:serial.py:271 Changing state to IDLE - Last Frame End - 1756447693.267203 Current Time stamp - 1756447693.267203
DEBUG   2025-08-29 14:08:13,267  pymodbus.logging:serial.py:279 Waiting for 3.5 char before next send - 1.823 ms
DEBUG   2025-08-29 14:08:13,270  pymodbus.logging:base.py:250 New Transaction state "SENDING"
DEBUG   2025-08-29 14:08:13,270  pymodbus.logging:transaction.py:317 Changing transaction state from "SENDING" to "WAITING FOR REPLY"
DEBUG   2025-08-29 14:08:13,299  pymodbus.logging:transaction.py:419 Changing transaction state from "WAITING FOR REPLY" to "PROCESSING REPLY"
DEBUG   2025-08-29 14:08:13,312  pymodbus.logging:transaction.py:324 RECV: 0x1 0x3 0x4 0x3c 0xc8 0xde 0x29 0xef 0xe3
DEBUG   2025-08-29 14:08:13,312  pymodbus.logging:base.py:92 Processing: 0x1 0x3 0x4 0x3c 0xc8 0xde 0x29 0xef 0xe3
DEBUG   2025-08-29 14:08:13,312  pymodbus.logging:decoders.py:103 decode PDU for 3
DEBUG   2025-08-29 14:08:13,312  pymodbus.logging:base.py:102 Frame advanced, resetting header!!
DEBUG   2025-08-29 14:08:13,312  pymodbus.logging:transaction.py:67 Adding transaction 0
DEBUG   2025-08-29 14:08:13,312  pymodbus.logging:transaction.py:78 Getting transaction 0
DEBUG   2025-08-29 14:08:13,312  pymodbus.logging:transaction.py:258 Changing transaction state from "PROCESSING REPLY" to "TRANSACTION_COMPLETE"
INFO    2025-08-29 14:08:13,312  root:modbus_rtu_tcp.py:44 read_measurement ret is:ReadHoldingRegistersResponse (2)
INFO    2025-08-29 14:08:13,312  root:acudc260_modbus_get.py:187 read p1_power ret is:[15560, 56873]
DEBUG   2025-08-29 14:08:13,312  pymodbus.logging:transaction.py:184 Current transaction state - TRANSACTION_COMPLETE
DEBUG   2025-08-29 14:08:13,312  pymodbus.logging:transaction.py:193 Running transaction 0
DEBUG   2025-08-29 14:08:13,312  pymodbus.logging:transaction.py:293 SEND: 0x1 0x3 0x30 0xa 0x0 0x2 0xeb 0x9
DEBUG   2025-08-29 14:08:13,312  pymodbus.logging:serial.py:271 Changing state to IDLE - Last Frame End - 1756447693.299978 Current Time stamp - 1756447693.31255
DEBUG   2025-08-29 14:08:13,312  pymodbus.logging:base.py:250 New Transaction state "SENDING"
DEBUG   2025-08-29 14:08:13,312  pymodbus.logging:transaction.py:317 Changing transaction state from "SENDING" to "WAITING FOR REPLY"
DEBUG   2025-08-29 14:08:13,342  pymodbus.logging:transaction.py:419 Changing transaction state from "WAITING FOR REPLY" to "PROCESSING REPLY"
DEBUG   2025-08-29 14:08:13,342  pymodbus.logging:transaction.py:324 RECV: 0x1 0x3 0x4 0x3c 0xc6 0x68 0xc6 0xb9 0xcc
DEBUG   2025-08-29 14:08:13,342  pymodbus.logging:base.py:92 Processing: 0x1 0x3 0x4 0x3c 0xc6 0x68 0xc6 0xb9 0xcc
DEBUG   2025-08-29 14:08:13,342  pymodbus.logging:decoders.py:103 decode PDU for 3
DEBUG   2025-08-29 14:08:13,342  pymodbus.logging:base.py:102 Frame advanced, resetting header!!
DEBUG   2025-08-29 14:08:13,342  pymodbus.logging:transaction.py:67 Adding transaction 0
DEBUG   2025-08-29 14:08:13,342  pymodbus.logging:transaction.py:78 Getting transaction 0
DEBUG   2025-08-29 14:08:13,342  pymodbus.logging:transaction.py:258 Changing transaction state from "PROCESSING REPLY" to "TRANSACTION_COMPLETE"
INFO    2025-08-29 14:08:13,342  root:modbus_rtu_tcp.py:44 read_measurement ret is:ReadHoldingRegistersResponse (2)
INFO    2025-08-29 14:08:13,342  root:acudc260_modbus_get.py:201 read p2_power ret is:[15558, 26822]
DEBUG   2025-08-29 14:08:13,342  pymodbus.logging:transaction.py:184 Current transaction state - TRANSACTION_COMPLETE
DEBUG   2025-08-29 14:08:13,343  pymodbus.logging:transaction.py:193 Running transaction 0
DEBUG   2025-08-29 14:08:13,343  pymodbus.logging:transaction.py:293 SEND: 0x1 0x3 0x30 0xc 0x0 0x2 0xb 0x8
DEBUG   2025-08-29 14:08:13,343  pymodbus.logging:serial.py:271 Changing state to IDLE - Last Frame End - 1756447693.342768 Current Time stamp - 1756447693.343746
DEBUG   2025-08-29 14:08:13,343  pymodbus.logging:serial.py:279 Waiting for 3.5 char before next send - 1.823 ms
DEBUG   2025-08-29 14:08:13,345  pymodbus.logging:base.py:250 New Transaction state "SENDING"
DEBUG   2025-08-29 14:08:13,345  pymodbus.logging:transaction.py:317 Changing transaction state from "SENDING" to "WAITING FOR REPLY"
DEBUG   2025-08-29 14:08:13,375  pymodbus.logging:transaction.py:419 Changing transaction state from "WAITING FOR REPLY" to "PROCESSING REPLY"
DEBUG   2025-08-29 14:08:13,375  pymodbus.logging:transaction.py:324 RECV: 0x1 0x3 0x4 0x3d 0x48 0x79 0x6d 0x95 0xf4
DEBUG   2025-08-29 14:08:13,375  pymodbus.logging:base.py:92 Processing: 0x1 0x3 0x4 0x3d 0x48 0x79 0x6d 0x95 0xf4
DEBUG   2025-08-29 14:08:13,375  pymodbus.logging:decoders.py:103 decode PDU for 3
DEBUG   2025-08-29 14:08:13,375  pymodbus.logging:base.py:102 Frame advanced, resetting header!!
DEBUG   2025-08-29 14:08:13,375  pymodbus.logging:transaction.py:67 Adding transaction 0
DEBUG   2025-08-29 14:08:13,375  pymodbus.logging:transaction.py:78 Getting transaction 0
DEBUG   2025-08-29 14:08:13,375  pymodbus.logging:transaction.py:258 Changing transaction state from "PROCESSING REPLY" to "TRANSACTION_COMPLETE"
INFO    2025-08-29 14:08:13,375  root:modbus_rtu_tcp.py:44 read_measurement ret is:ReadHoldingRegistersResponse (2)
INFO    2025-08-29 14:08:13,376  root:acudc260_modbus_get.py:215 read p_sum_power ret is:[15688, 31085]
DEBUG   2025-08-29 14:08:13,476  pymodbus.logging:transaction.py:184 Current transaction state - TRANSACTION_COMPLETE
DEBUG   2025-08-29 14:08:13,476  pymodbus.logging:transaction.py:193 Running transaction 0
DEBUG   2025-08-29 14:08:13,476  pymodbus.logging:transaction.py:293 SEND: 0x1 0x3 0x30 0x0 0x0 0x2 0xcb 0xb
DEBUG   2025-08-29 14:08:13,476  pymodbus.logging:serial.py:271 Changing state to IDLE - Last Frame End - 1756447693.37517 Current Time stamp - 1756447693.476579
DEBUG   2025-08-29 14:08:13,476  pymodbus.logging:base.py:250 New Transaction state "SENDING"
DEBUG   2025-08-29 14:08:13,476  pymodbus.logging:transaction.py:317 Changing transaction state from "SENDING" to "WAITING FOR REPLY"
DEBUG   2025-08-29 14:08:13,507  pymodbus.logging:transaction.py:419 Changing transaction state from "WAITING FOR REPLY" to "PROCESSING REPLY"
DEBUG   2025-08-29 14:08:13,507  pymodbus.logging:transaction.py:324 RECV: 0x1 0x3 0x4 0x42 0x6f 0xfd 0x99 0x5e 0xac
DEBUG   2025-08-29 14:08:13,507  pymodbus.logging:base.py:92 Processing: 0x1 0x3 0x4 0x42 0x6f 0xfd 0x99 0x5e 0xac
DEBUG   2025-08-29 14:08:13,507  pymodbus.logging:decoders.py:103 decode PDU for 3
DEBUG   2025-08-29 14:08:13,507  pymodbus.logging:base.py:102 Frame advanced, resetting header!!
DEBUG   2025-08-29 14:08:13,507  pymodbus.logging:transaction.py:67 Adding transaction 0
DEBUG   2025-08-29 14:08:13,507  pymodbus.logging:transaction.py:78 Getting transaction 0
DEBUG   2025-08-29 14:08:13,507  pymodbus.logging:transaction.py:258 Changing transaction state from "PROCESSING REPLY" to "TRANSACTION_COMPLETE"
INFO    2025-08-29 14:08:13,507  root:modbus_rtu_tcp.py:44 read_measurement ret is:ReadHoldingRegistersResponse (2)
INFO    2025-08-29 14:08:13,507  root:acudc260_modbus_get.py:131 read u_voltage ret is:[17007, 64921]
DEBUG   2025-08-29 14:08:13,507  pymodbus.logging:transaction.py:184 Current transaction state - TRANSACTION_COMPLETE
DEBUG   2025-08-29 14:08:13,507  pymodbus.logging:transaction.py:193 Running transaction 0
DEBUG   2025-08-29 14:08:13,507  pymodbus.logging:transaction.py:293 SEND: 0x1 0x3 0x30 0x2 0x0 0x2 0x6a 0xcb
DEBUG   2025-08-29 14:08:13,507  pymodbus.logging:serial.py:271 Changing state to IDLE - Last Frame End - 1756447693.507499 Current Time stamp - 1756447693.507499
DEBUG   2025-08-29 14:08:13,507  pymodbus.logging:serial.py:279 Waiting for 3.5 char before next send - 1.823 ms
DEBUG   2025-08-29 14:08:13,510  pymodbus.logging:base.py:250 New Transaction state "SENDING"
DEBUG   2025-08-29 14:08:13,510  pymodbus.logging:transaction.py:317 Changing transaction state from "SENDING" to "WAITING FOR REPLY"
DEBUG   2025-08-29 14:08:13,540  pymodbus.logging:transaction.py:419 Changing transaction state from "WAITING FOR REPLY" to "PROCESSING REPLY"
DEBUG   2025-08-29 14:08:13,540  pymodbus.logging:transaction.py:324 RECV: 0x1 0x3 0x4 0x3e 0xd0 0x79 0x40 0xd4 0x42
DEBUG   2025-08-29 14:08:13,540  pymodbus.logging:base.py:92 Processing: 0x1 0x3 0x4 0x3e 0xd0 0x79 0x40 0xd4 0x42
DEBUG   2025-08-29 14:08:13,540  pymodbus.logging:decoders.py:103 decode PDU for 3
DEBUG   2025-08-29 14:08:13,540  pymodbus.logging:base.py:102 Frame advanced, resetting header!!
DEBUG   2025-08-29 14:08:13,540  pymodbus.logging:transaction.py:67 Adding transaction 0
DEBUG   2025-08-29 14:08:13,540  pymodbus.logging:transaction.py:78 Getting transaction 0
DEBUG   2025-08-29 14:08:13,540  pymodbus.logging:transaction.py:258 Changing transaction state from "PROCESSING REPLY" to "TRANSACTION_COMPLETE"
INFO    2025-08-29 14:08:13,540  root:modbus_rtu_tcp.py:44 read_measurement ret is:ReadHoldingRegistersResponse (2)
INFO    2025-08-29 14:08:13,540  root:acudc260_modbus_get.py:145 read i1_current ret is:[16080, 31040]
DEBUG   2025-08-29 14:08:13,540  pymodbus.logging:transaction.py:184 Current transaction state - TRANSACTION_COMPLETE
DEBUG   2025-08-29 14:08:13,540  pymodbus.logging:transaction.py:193 Running transaction 0
DEBUG   2025-08-29 14:08:13,540  pymodbus.logging:transaction.py:293 SEND: 0x1 0x3 0x30 0x4 0x0 0x2 0x8a 0xca
DEBUG   2025-08-29 14:08:13,540  pymodbus.logging:serial.py:271 Changing state to IDLE - Last Frame End - 1756447693.540483 Current Time stamp - 1756447693.540483
DEBUG   2025-08-29 14:08:13,541  pymodbus.logging:serial.py:279 Waiting for 3.5 char before next send - 1.823 ms
DEBUG   2025-08-29 14:08:13,543  pymodbus.logging:base.py:250 New Transaction state "SENDING"
DEBUG   2025-08-29 14:08:13,543  pymodbus.logging:transaction.py:317 Changing transaction state from "SENDING" to "WAITING FOR REPLY"
DEBUG   2025-08-29 14:08:13,570  pymodbus.logging:transaction.py:419 Changing transaction state from "WAITING FOR REPLY" to "PROCESSING REPLY"
DEBUG   2025-08-29 14:08:13,570  pymodbus.logging:transaction.py:324 RECV: 0x1 0x3 0x4 0x3e 0xcf 0xa0 0x9d 0x7e 0x4d
DEBUG   2025-08-29 14:08:13,570  pymodbus.logging:base.py:92 Processing: 0x1 0x3 0x4 0x3e 0xcf 0xa0 0x9d 0x7e 0x4d
DEBUG   2025-08-29 14:08:13,570  pymodbus.logging:decoders.py:103 decode PDU for 3
DEBUG   2025-08-29 14:08:13,570  pymodbus.logging:base.py:102 Frame advanced, resetting header!!
DEBUG   2025-08-29 14:08:13,570  pymodbus.logging:transaction.py:67 Adding transaction 0
DEBUG   2025-08-29 14:08:13,570  pymodbus.logging:transaction.py:78 Getting transaction 0
DEBUG   2025-08-29 14:08:13,570  pymodbus.logging:transaction.py:258 Changing transaction state from "PROCESSING REPLY" to "TRANSACTION_COMPLETE"
INFO    2025-08-29 14:08:13,570  root:modbus_rtu_tcp.py:44 read_measurement ret is:ReadHoldingRegistersResponse (2)
INFO    2025-08-29 14:08:13,570  root:acudc260_modbus_get.py:159 read i2_current ret is:[16079, 41117]
DEBUG   2025-08-29 14:08:13,570  pymodbus.logging:transaction.py:184 Current transaction state - TRANSACTION_COMPLETE
DEBUG   2025-08-29 14:08:13,570  pymodbus.logging:transaction.py:193 Running transaction 0
DEBUG   2025-08-29 14:08:13,570  pymodbus.logging:transaction.py:293 SEND: 0x1 0x3 0x30 0x6 0x0 0x2 0x2b 0xa
DEBUG   2025-08-29 14:08:13,570  pymodbus.logging:serial.py:271 Changing state to IDLE - Last Frame End - 1756447693.570074 Current Time stamp - 1756447693.570074
DEBUG   2025-08-29 14:08:13,570  pymodbus.logging:serial.py:279 Waiting for 3.5 char before next send - 1.823 ms
DEBUG   2025-08-29 14:08:13,573  pymodbus.logging:base.py:250 New Transaction state "SENDING"
DEBUG   2025-08-29 14:08:13,573  pymodbus.logging:transaction.py:317 Changing transaction state from "SENDING" to "WAITING FOR REPLY"
DEBUG   2025-08-29 14:08:13,602  pymodbus.logging:transaction.py:419 Changing transaction state from "WAITING FOR REPLY" to "PROCESSING REPLY"
DEBUG   2025-08-29 14:08:13,602  pymodbus.logging:transaction.py:324 RECV: 0x1 0x3 0x4 0x3f 0x50 0xc 0xee 0x73 0x7a
DEBUG   2025-08-29 14:08:13,602  pymodbus.logging:base.py:92 Processing: 0x1 0x3 0x4 0x3f 0x50 0xc 0xee 0x73 0x7a
DEBUG   2025-08-29 14:08:13,602  pymodbus.logging:decoders.py:103 decode PDU for 3
DEBUG   2025-08-29 14:08:13,602  pymodbus.logging:base.py:102 Frame advanced, resetting header!!
DEBUG   2025-08-29 14:08:13,602  pymodbus.logging:transaction.py:67 Adding transaction 0
DEBUG   2025-08-29 14:08:13,602  pymodbus.logging:transaction.py:78 Getting transaction 0
DEBUG   2025-08-29 14:08:13,602  pymodbus.logging:transaction.py:258 Changing transaction state from "PROCESSING REPLY" to "TRANSACTION_COMPLETE"
INFO    2025-08-29 14:08:13,602  root:modbus_rtu_tcp.py:44 read_measurement ret is:ReadHoldingRegistersResponse (2)
INFO    2025-08-29 14:08:13,602  root:acudc260_modbus_get.py:173 read i_sum_current ret is:[16208, 3310]
DEBUG   2025-08-29 14:08:13,602  pymodbus.logging:transaction.py:184 Current transaction state - TRANSACTION_COMPLETE
DEBUG   2025-08-29 14:08:13,602  pymodbus.logging:transaction.py:193 Running transaction 0
DEBUG   2025-08-29 14:08:13,602  pymodbus.logging:transaction.py:293 SEND: 0x1 0x3 0x30 0x8 0x0 0x2 0x4a 0xc9
DEBUG   2025-08-29 14:08:13,602  pymodbus.logging:serial.py:271 Changing state to IDLE - Last Frame End - 1756447693.602721 Current Time stamp - 1756447693.602721
DEBUG   2025-08-29 14:08:13,602  pymodbus.logging:serial.py:279 Waiting for 3.5 char before next send - 1.823 ms
DEBUG   2025-08-29 14:08:13,605  pymodbus.logging:base.py:250 New Transaction state "SENDING"
DEBUG   2025-08-29 14:08:13,605  pymodbus.logging:transaction.py:317 Changing transaction state from "SENDING" to "WAITING FOR REPLY"
DEBUG   2025-08-29 14:08:13,635  pymodbus.logging:transaction.py:419 Changing transaction state from "WAITING FOR REPLY" to "PROCESSING REPLY"
DEBUG   2025-08-29 14:08:13,635  pymodbus.logging:transaction.py:324 RECV: 0x1 0x3 0x4 0x3c 0xc7 0xf0 0x58 0x2 0x64
DEBUG   2025-08-29 14:08:13,635  pymodbus.logging:base.py:92 Processing: 0x1 0x3 0x4 0x3c 0xc7 0xf0 0x58 0x2 0x64
DEBUG   2025-08-29 14:08:13,635  pymodbus.logging:decoders.py:103 decode PDU for 3
DEBUG   2025-08-29 14:08:13,635  pymodbus.logging:base.py:102 Frame advanced, resetting header!!
DEBUG   2025-08-29 14:08:13,635  pymodbus.logging:transaction.py:67 Adding transaction 0
DEBUG   2025-08-29 14:08:13,635  pymodbus.logging:transaction.py:78 Getting transaction 0
DEBUG   2025-08-29 14:08:13,635  pymodbus.logging:transaction.py:258 Changing transaction state from "PROCESSING REPLY" to "TRANSACTION_COMPLETE"
INFO    2025-08-29 14:08:13,635  root:modbus_rtu_tcp.py:44 read_measurement ret is:ReadHoldingRegistersResponse (2)
INFO    2025-08-29 14:08:13,635  root:acudc260_modbus_get.py:187 read p1_power ret is:[15559, 61528]
DEBUG   2025-08-29 14:08:13,635  pymodbus.logging:transaction.py:184 Current transaction state - TRANSACTION_COMPLETE
DEBUG   2025-08-29 14:08:13,635  pymodbus.logging:transaction.py:193 Running transaction 0
DEBUG   2025-08-29 14:08:13,635  pymodbus.logging:transaction.py:293 SEND: 0x1 0x3 0x30 0xa 0x0 0x2 0xeb 0x9
DEBUG   2025-08-29 14:08:13,635  pymodbus.logging:serial.py:271 Changing state to IDLE - Last Frame End - 1756447693.635859 Current Time stamp - 1756447693.635859
DEBUG   2025-08-29 14:08:13,635  pymodbus.logging:serial.py:279 Waiting for 3.5 char before next send - 1.823 ms
DEBUG   2025-08-29 14:08:13,638  pymodbus.logging:base.py:250 New Transaction state "SENDING"
DEBUG   2025-08-29 14:08:13,638  pymodbus.logging:transaction.py:317 Changing transaction state from "SENDING" to "WAITING FOR REPLY"
DEBUG   2025-08-29 14:08:13,666  pymodbus.logging:transaction.py:419 Changing transaction state from "WAITING FOR REPLY" to "PROCESSING REPLY"
DEBUG   2025-08-29 14:08:13,666  pymodbus.logging:transaction.py:324 RECV: 0x1 0x3 0x4 0x3c 0xc4 0xb4 0xe4 0xc0 0xd5
DEBUG   2025-08-29 14:08:13,666  pymodbus.logging:base.py:92 Processing: 0x1 0x3 0x4 0x3c 0xc4 0xb4 0xe4 0xc0 0xd5
DEBUG   2025-08-29 14:08:13,666  pymodbus.logging:decoders.py:103 decode PDU for 3
DEBUG   2025-08-29 14:08:13,666  pymodbus.logging:base.py:102 Frame advanced, resetting header!!
DEBUG   2025-08-29 14:08:13,666  pymodbus.logging:transaction.py:67 Adding transaction 0
DEBUG   2025-08-29 14:08:13,666  pymodbus.logging:transaction.py:78 Getting transaction 0
DEBUG   2025-08-29 14:08:13,666  pymodbus.logging:transaction.py:258 Changing transaction state from "PROCESSING REPLY" to "TRANSACTION_COMPLETE"
INFO    2025-08-29 14:08:13,666  root:modbus_rtu_tcp.py:44 read_measurement ret is:ReadHoldingRegistersResponse (2)
INFO    2025-08-29 14:08:13,666  root:acudc260_modbus_get.py:201 read p2_power ret is:[15556, 46308]
DEBUG   2025-08-29 14:08:13,666  pymodbus.logging:transaction.py:184 Current transaction state - TRANSACTION_COMPLETE
DEBUG   2025-08-29 14:08:13,666  pymodbus.logging:transaction.py:193 Running transaction 0
DEBUG   2025-08-29 14:08:13,666  pymodbus.logging:transaction.py:293 SEND: 0x1 0x3 0x30 0xc 0x0 0x2 0xb 0x8
DEBUG   2025-08-29 14:08:13,666  pymodbus.logging:serial.py:271 Changing state to IDLE - Last Frame End - 1756447693.666086 Current Time stamp - 1756447693.666086
DEBUG   2025-08-29 14:08:13,666  pymodbus.logging:serial.py:279 Waiting for 3.5 char before next send - 1.823 ms
DEBUG   2025-08-29 14:08:13,668  pymodbus.logging:base.py:250 New Transaction state "SENDING"
DEBUG   2025-08-29 14:08:13,668  pymodbus.logging:transaction.py:317 Changing transaction state from "SENDING" to "WAITING FOR REPLY"
DEBUG   2025-08-29 14:08:13,698  pymodbus.logging:transaction.py:419 Changing transaction state from "WAITING FOR REPLY" to "PROCESSING REPLY"
DEBUG   2025-08-29 14:08:13,698  pymodbus.logging:transaction.py:324 RECV: 0x1 0x3 0x4 0x3d 0x46 0x52 0x9e 0xaa 0x82
DEBUG   2025-08-29 14:08:13,698  pymodbus.logging:base.py:92 Processing: 0x1 0x3 0x4 0x3d 0x46 0x52 0x9e 0xaa 0x82
DEBUG   2025-08-29 14:08:13,698  pymodbus.logging:decoders.py:103 decode PDU for 3
DEBUG   2025-08-29 14:08:13,698  pymodbus.logging:base.py:102 Frame advanced, resetting header!!
DEBUG   2025-08-29 14:08:13,698  pymodbus.logging:transaction.py:67 Adding transaction 0
DEBUG   2025-08-29 14:08:13,698  pymodbus.logging:transaction.py:78 Getting transaction 0
DEBUG   2025-08-29 14:08:13,698  pymodbus.logging:transaction.py:258 Changing transaction state from "PROCESSING REPLY" to "TRANSACTION_COMPLETE"
INFO    2025-08-29 14:08:13,698  root:modbus_rtu_tcp.py:44 read_measurement ret is:ReadHoldingRegistersResponse (2)
INFO    2025-08-29 14:08:13,698  root:acudc260_modbus_get.py:215 read p_sum_power ret is:[15686, 21150]
DEBUG   2025-08-29 14:08:13,800  pymodbus.logging:transaction.py:184 Current transaction state - TRANSACTION_COMPLETE
DEBUG   2025-08-29 14:08:13,800  pymodbus.logging:transaction.py:193 Running transaction 0
DEBUG   2025-08-29 14:08:13,800  pymodbus.logging:transaction.py:293 SEND: 0x1 0x3 0x30 0x0 0x0 0x2 0xcb 0xb
DEBUG   2025-08-29 14:08:13,800  pymodbus.logging:serial.py:271 Changing state to IDLE - Last Frame End - 1756447693.698653 Current Time stamp - 1756447693.800145
DEBUG   2025-08-29 14:08:13,800  pymodbus.logging:base.py:250 New Transaction state "SENDING"
DEBUG   2025-08-29 14:08:13,800  pymodbus.logging:transaction.py:317 Changing transaction state from "SENDING" to "WAITING FOR REPLY"
DEBUG   2025-08-29 14:08:13,827  pymodbus.logging:transaction.py:419 Changing transaction state from "WAITING FOR REPLY" to "PROCESSING REPLY"
DEBUG   2025-08-29 14:08:13,827  pymodbus.logging:transaction.py:324 RECV: 0x1 0x3 0x4 0x42 0x6f 0xfe 0xc1 0x5f 0xa6
DEBUG   2025-08-29 14:08:13,827  pymodbus.logging:base.py:92 Processing: 0x1 0x3 0x4 0x42 0x6f 0xfe 0xc1 0x5f 0xa6
DEBUG   2025-08-29 14:08:13,827  pymodbus.logging:decoders.py:103 decode PDU for 3
DEBUG   2025-08-29 14:08:13,827  pymodbus.logging:base.py:102 Frame advanced, resetting header!!
DEBUG   2025-08-29 14:08:13,827  pymodbus.logging:transaction.py:67 Adding transaction 0
DEBUG   2025-08-29 14:08:13,827  pymodbus.logging:transaction.py:78 Getting transaction 0
DEBUG   2025-08-29 14:08:13,827  pymodbus.logging:transaction.py:258 Changing transaction state from "PROCESSING REPLY" to "TRANSACTION_COMPLETE"
INFO    2025-08-29 14:08:13,827  root:modbus_rtu_tcp.py:44 read_measurement ret is:ReadHoldingRegistersResponse (2)
INFO    2025-08-29 14:08:13,827  root:acudc260_modbus_get.py:131 read u_voltage ret is:[17007, 65217]
DEBUG   2025-08-29 14:08:13,827  pymodbus.logging:transaction.py:184 Current transaction state - TRANSACTION_COMPLETE
DEBUG   2025-08-29 14:08:13,827  pymodbus.logging:transaction.py:193 Running transaction 0
DEBUG   2025-08-29 14:08:13,827  pymodbus.logging:transaction.py:293 SEND: 0x1 0x3 0x30 0x2 0x0 0x2 0x6a 0xcb
DEBUG   2025-08-29 14:08:13,827  pymodbus.logging:serial.py:271 Changing state to IDLE - Last Frame End - 1756447693.827472 Current Time stamp - 1756447693.827472
DEBUG   2025-08-29 14:08:13,827  pymodbus.logging:serial.py:279 Waiting for 3.5 char before next send - 1.823 ms
DEBUG   2025-08-29 14:08:13,830  pymodbus.logging:base.py:250 New Transaction state "SENDING"
DEBUG   2025-08-29 14:08:13,830  pymodbus.logging:transaction.py:317 Changing transaction state from "SENDING" to "WAITING FOR REPLY"
DEBUG   2025-08-29 14:08:13,859  pymodbus.logging:transaction.py:419 Changing transaction state from "WAITING FOR REPLY" to "PROCESSING REPLY"
DEBUG   2025-08-29 14:08:13,859  pymodbus.logging:transaction.py:324 RECV: 0x1 0x3 0x4 0x3e 0xcf 0x7a 0x5d 0x25 0x7d
DEBUG   2025-08-29 14:08:13,859  pymodbus.logging:base.py:92 Processing: 0x1 0x3 0x4 0x3e 0xcf 0x7a 0x5d 0x25 0x7d
DEBUG   2025-08-29 14:08:13,859  pymodbus.logging:decoders.py:103 decode PDU for 3
DEBUG   2025-08-29 14:08:13,859  pymodbus.logging:base.py:102 Frame advanced, resetting header!!
DEBUG   2025-08-29 14:08:13,859  pymodbus.logging:transaction.py:67 Adding transaction 0
DEBUG   2025-08-29 14:08:13,859  pymodbus.logging:transaction.py:78 Getting transaction 0
DEBUG   2025-08-29 14:08:13,859  pymodbus.logging:transaction.py:258 Changing transaction state from "PROCESSING REPLY" to "TRANSACTION_COMPLETE"
INFO    2025-08-29 14:08:13,859  root:modbus_rtu_tcp.py:44 read_measurement ret is:ReadHoldingRegistersResponse (2)
INFO    2025-08-29 14:08:13,859  root:acudc260_modbus_get.py:145 read i1_current ret is:[16079, 31325]
DEBUG   2025-08-29 14:08:13,859  pymodbus.logging:transaction.py:184 Current transaction state - TRANSACTION_COMPLETE
DEBUG   2025-08-29 14:08:13,859  pymodbus.logging:transaction.py:193 Running transaction 0
DEBUG   2025-08-29 14:08:13,859  pymodbus.logging:transaction.py:293 SEND: 0x1 0x3 0x30 0x4 0x0 0x2 0x8a 0xca
DEBUG   2025-08-29 14:08:13,859  pymodbus.logging:serial.py:271 Changing state to IDLE - Last Frame End - 1756447693.859724 Current Time stamp - 1756447693.859724
DEBUG   2025-08-29 14:08:13,859  pymodbus.logging:serial.py:279 Waiting for 3.5 char before next send - 1.823 ms
DEBUG   2025-08-29 14:08:13,862  pymodbus.logging:base.py:250 New Transaction state "SENDING"
DEBUG   2025-08-29 14:08:13,862  pymodbus.logging:transaction.py:317 Changing transaction state from "SENDING" to "WAITING FOR REPLY"
DEBUG   2025-08-29 14:08:13,890  pymodbus.logging:transaction.py:419 Changing transaction state from "WAITING FOR REPLY" to "PROCESSING REPLY"
DEBUG   2025-08-29 14:08:13,890  pymodbus.logging:transaction.py:324 RECV: 0x1 0x3 0x4 0x3e 0xce 0xa7 0x6d 0x2d 0xf9
DEBUG   2025-08-29 14:08:13,890  pymodbus.logging:base.py:92 Processing: 0x1 0x3 0x4 0x3e 0xce 0xa7 0x6d 0x2d 0xf9
DEBUG   2025-08-29 14:08:13,890  pymodbus.logging:decoders.py:103 decode PDU for 3
DEBUG   2025-08-29 14:08:13,890  pymodbus.logging:base.py:102 Frame advanced, resetting header!!
DEBUG   2025-08-29 14:08:13,890  pymodbus.logging:transaction.py:67 Adding transaction 0
DEBUG   2025-08-29 14:08:13,890  pymodbus.logging:transaction.py:78 Getting transaction 0
DEBUG   2025-08-29 14:08:13,890  pymodbus.logging:transaction.py:258 Changing transaction state from "PROCESSING REPLY" to "TRANSACTION_COMPLETE"
INFO    2025-08-29 14:08:13,890  root:modbus_rtu_tcp.py:44 read_measurement ret is:ReadHoldingRegistersResponse (2)
INFO    2025-08-29 14:08:13,890  root:acudc260_modbus_get.py:159 read i2_current ret is:[16078, 42861]
DEBUG   2025-08-29 14:08:13,890  pymodbus.logging:transaction.py:184 Current transaction state - TRANSACTION_COMPLETE
DEBUG   2025-08-29 14:08:13,890  pymodbus.logging:transaction.py:193 Running transaction 0
DEBUG   2025-08-29 14:08:13,890  pymodbus.logging:transaction.py:293 SEND: 0x1 0x3 0x30 0x6 0x0 0x2 0x2b 0xa
DEBUG   2025-08-29 14:08:13,890  pymodbus.logging:serial.py:271 Changing state to IDLE - Last Frame End - 1756447693.890604 Current Time stamp - 1756447693.890604
DEBUG   2025-08-29 14:08:13,890  pymodbus.logging:serial.py:279 Waiting for 3.5 char before next send - 1.823 ms
DEBUG   2025-08-29 14:08:13,893  pymodbus.logging:base.py:250 New Transaction state "SENDING"
