INFO    2025-08-28 18:58:58,831  root:acudc260_fast_test.py:363 测试进度:['test_case', 'Voltage', 'Current_1', 'Current_2', '等待时间(h)', 'voltage_accuracy', 'current_accuracy', 'power_accuracy', '采样次数', '采样间隔'],执行时间:2025_08_28 18:58:58
INFO    2025-08-28 18:58:58,831  root:source_control.py:26 <源输出>
    电压检定点:6.0%;
    电流检定点:0.10400000000000001%;
    电压纹波比例:0%;
    电流纹波比例:0%;
    电压纹波相位:0度;
    电流纹波相位:0度;
    纹波频率:300Hz;
    电能方向:正向;
    <End>
INFO    2025-08-28 18:59:00,438  root:source_control.py:30 recv_data ret is:<源输出应答>
电压总值:60.000000V;
电流总值:0.520000A;
功率总值:31.199999W;
电压直流:60.000000V;
电流直流:0.520000A;
功率直流:31.199999W;
电压纹波:0.000000V;
电流纹波:0.000000A;
功率纹波:0.000000W;
<End>
DEBUG   2025-08-28 18:59:10,540  pymodbus.logging:transaction.py:184 Current transaction state - IDLE
DEBUG   2025-08-28 18:59:10,540  pymodbus.logging:transaction.py:193 Running transaction 0
DEBUG   2025-08-28 18:59:10,540  pymodbus.logging:transaction.py:293 SEND: 0x1 0x3 0x30 0x0 0x0 0x2 0xcb 0xb
DEBUG   2025-08-28 18:59:10,540  pymodbus.logging:base.py:250 New Transaction state "SENDING"
DEBUG   2025-08-28 18:59:10,540  pymodbus.logging:transaction.py:317 Changing transaction state from "SENDING" to "WAITING FOR REPLY"
DEBUG   2025-08-28 18:59:10,559  pymodbus.logging:transaction.py:419 Changing transaction state from "WAITING FOR REPLY" to "PROCESSING REPLY"
DEBUG   2025-08-28 18:59:10,559  pymodbus.logging:transaction.py:324 RECV: 0x1 0x3 0x4 0x0 0x0 0x0 0x0 0xfa 0x33
DEBUG   2025-08-28 18:59:10,559  pymodbus.logging:base.py:92 Processing: 0x1 0x3 0x4 0x0 0x0 0x0 0x0 0xfa 0x33
DEBUG   2025-08-28 18:59:10,559  pymodbus.logging:decoders.py:103 decode PDU for 3
DEBUG   2025-08-28 18:59:10,559  pymodbus.logging:base.py:102 Frame advanced, resetting header!!
DEBUG   2025-08-28 18:59:10,560  pymodbus.logging:transaction.py:67 Adding transaction 0
DEBUG   2025-08-28 18:59:10,560  pymodbus.logging:transaction.py:78 Getting transaction 0
DEBUG   2025-08-28 18:59:10,560  pymodbus.logging:transaction.py:258 Changing transaction state from "PROCESSING REPLY" to "TRANSACTION_COMPLETE"
INFO    2025-08-28 18:59:10,560  root:modbus_rtu_tcp.py:44 read_measurement ret is:ReadHoldingRegistersResponse (2)
INFO    2025-08-28 18:59:10,560  root:acudc260_modbus_get.py:131 read ua_voltage ret is:[0, 0]
DEBUG   2025-08-28 18:59:10,560  pymodbus.logging:transaction.py:184 Current transaction state - TRANSACTION_COMPLETE
DEBUG   2025-08-28 18:59:10,560  pymodbus.logging:transaction.py:193 Running transaction 0
DEBUG   2025-08-28 18:59:10,560  pymodbus.logging:transaction.py:293 SEND: 0x1 0x3 0x30 0x2 0x0 0x2 0x6a 0xcb
DEBUG   2025-08-28 18:59:10,560  pymodbus.logging:serial.py:271 Changing state to IDLE - Last Frame End - 1756378750.559191 Current Time stamp - 1756378750.560207
DEBUG   2025-08-28 18:59:10,560  pymodbus.logging:serial.py:279 Waiting for 3.5 char before next send - 1.823 ms
DEBUG   2025-08-28 18:59:10,563  pymodbus.logging:base.py:250 New Transaction state "SENDING"
DEBUG   2025-08-28 18:59:10,563  pymodbus.logging:transaction.py:317 Changing transaction state from "SENDING" to "WAITING FOR REPLY"
DEBUG   2025-08-28 18:59:10,591  pymodbus.logging:transaction.py:419 Changing transaction state from "WAITING FOR REPLY" to "PROCESSING REPLY"
DEBUG   2025-08-28 18:59:10,591  pymodbus.logging:transaction.py:324 RECV: 0x1 0x3 0x4 0x3f 0x8 0xce 0x3e 0xa2 0x55
DEBUG   2025-08-28 18:59:10,591  pymodbus.logging:base.py:92 Processing: 0x1 0x3 0x4 0x3f 0x8 0xce 0x3e 0xa2 0x55
DEBUG   2025-08-28 18:59:10,591  pymodbus.logging:decoders.py:103 decode PDU for 3
DEBUG   2025-08-28 18:59:10,591  pymodbus.logging:base.py:102 Frame advanced, resetting header!!
DEBUG   2025-08-28 18:59:10,591  pymodbus.logging:transaction.py:67 Adding transaction 0
DEBUG   2025-08-28 18:59:10,591  pymodbus.logging:transaction.py:78 Getting transaction 0
DEBUG   2025-08-28 18:59:10,591  pymodbus.logging:transaction.py:258 Changing transaction state from "PROCESSING REPLY" to "TRANSACTION_COMPLETE"
INFO    2025-08-28 18:59:10,591  root:modbus_rtu_tcp.py:44 read_measurement ret is:ReadHoldingRegistersResponse (2)
INFO    2025-08-28 18:59:10,591  root:acudc260_modbus_get.py:145 read ia_current ret is:[16136, 52798]
DEBUG   2025-08-28 18:59:10,591  pymodbus.logging:transaction.py:184 Current transaction state - TRANSACTION_COMPLETE
DEBUG   2025-08-28 18:59:10,591  pymodbus.logging:transaction.py:193 Running transaction 0
DEBUG   2025-08-28 18:59:10,591  pymodbus.logging:transaction.py:293 SEND: 0x1 0x3 0x30 0x4 0x0 0x2 0x8a 0xca
DEBUG   2025-08-28 18:59:10,591  pymodbus.logging:serial.py:271 Changing state to IDLE - Last Frame End - 1756378750.591412 Current Time stamp - 1756378750.591412
DEBUG   2025-08-28 18:59:10,591  pymodbus.logging:serial.py:279 Waiting for 3.5 char before next send - 1.823 ms
DEBUG   2025-08-28 18:59:10,594  pymodbus.logging:base.py:250 New Transaction state "SENDING"
DEBUG   2025-08-28 18:59:10,594  pymodbus.logging:transaction.py:317 Changing transaction state from "SENDING" to "WAITING FOR REPLY"
DEBUG   2025-08-28 18:59:10,624  pymodbus.logging:transaction.py:419 Changing transaction state from "WAITING FOR REPLY" to "PROCESSING REPLY"
DEBUG   2025-08-28 18:59:10,624  pymodbus.logging:transaction.py:324 RECV: 0x1 0x3 0x4 0x3f 0x4 0x5a 0xa8 0x8c 0xf8
DEBUG   2025-08-28 18:59:10,624  pymodbus.logging:base.py:92 Processing: 0x1 0x3 0x4 0x3f 0x4 0x5a 0xa8 0x8c 0xf8
DEBUG   2025-08-28 18:59:10,624  pymodbus.logging:decoders.py:103 decode PDU for 3
DEBUG   2025-08-28 18:59:10,624  pymodbus.logging:base.py:102 Frame advanced, resetting header!!
DEBUG   2025-08-28 18:59:10,624  pymodbus.logging:transaction.py:67 Adding transaction 0
DEBUG   2025-08-28 18:59:10,624  pymodbus.logging:transaction.py:78 Getting transaction 0
DEBUG   2025-08-28 18:59:10,624  pymodbus.logging:transaction.py:258 Changing transaction state from "PROCESSING REPLY" to "TRANSACTION_COMPLETE"
INFO    2025-08-28 18:59:10,624  root:modbus_rtu_tcp.py:44 read_measurement ret is:ReadHoldingRegistersResponse (2)
INFO    2025-08-28 18:59:10,625  root:acudc260_modbus_get.py:159 read ia_current ret is:[16132, 23208]
DEBUG   2025-08-28 18:59:10,625  pymodbus.logging:transaction.py:184 Current transaction state - TRANSACTION_COMPLETE
DEBUG   2025-08-28 18:59:10,625  pymodbus.logging:transaction.py:193 Running transaction 0
DEBUG   2025-08-28 18:59:10,625  pymodbus.logging:transaction.py:293 SEND: 0x1 0x3 0x30 0x6 0x0 0x2 0x2b 0xa
DEBUG   2025-08-28 18:59:10,625  pymodbus.logging:serial.py:271 Changing state to IDLE - Last Frame End - 1756378750.624515 Current Time stamp - 1756378750.625534
DEBUG   2025-08-28 18:59:10,625  pymodbus.logging:serial.py:279 Waiting for 3.5 char before next send - 1.823 ms
DEBUG   2025-08-28 18:59:10,628  pymodbus.logging:base.py:250 New Transaction state "SENDING"
DEBUG   2025-08-28 18:59:10,628  pymodbus.logging:transaction.py:317 Changing transaction state from "SENDING" to "WAITING FOR REPLY"
DEBUG   2025-08-28 18:59:10,656  pymodbus.logging:transaction.py:419 Changing transaction state from "WAITING FOR REPLY" to "PROCESSING REPLY"
DEBUG   2025-08-28 18:59:10,656  pymodbus.logging:transaction.py:324 RECV: 0x1 0x3 0x4 0x3f 0x86 0x94 0x73 0x38 0xeb
DEBUG   2025-08-28 18:59:10,656  pymodbus.logging:base.py:92 Processing: 0x1 0x3 0x4 0x3f 0x86 0x94 0x73 0x38 0xeb
DEBUG   2025-08-28 18:59:10,656  pymodbus.logging:decoders.py:103 decode PDU for 3
DEBUG   2025-08-28 18:59:10,656  pymodbus.logging:base.py:102 Frame advanced, resetting header!!
DEBUG   2025-08-28 18:59:10,656  pymodbus.logging:transaction.py:67 Adding transaction 0
DEBUG   2025-08-28 18:59:10,656  pymodbus.logging:transaction.py:78 Getting transaction 0
DEBUG   2025-08-28 18:59:10,656  pymodbus.logging:transaction.py:258 Changing transaction state from "PROCESSING REPLY" to "TRANSACTION_COMPLETE"
INFO    2025-08-28 18:59:10,656  root:modbus_rtu_tcp.py:44 read_measurement ret is:ReadHoldingRegistersResponse (2)
INFO    2025-08-28 18:59:10,656  root:acudc260_modbus_get.py:173 read ia_current ret is:[16262, 38003]
DEBUG   2025-08-28 18:59:10,656  pymodbus.logging:transaction.py:184 Current transaction state - TRANSACTION_COMPLETE
DEBUG   2025-08-28 18:59:10,657  pymodbus.logging:transaction.py:193 Running transaction 0
DEBUG   2025-08-28 18:59:10,657  pymodbus.logging:transaction.py:293 SEND: 0x1 0x3 0x30 0x8 0x0 0x2 0x4a 0xc9
DEBUG   2025-08-28 18:59:10,657  pymodbus.logging:serial.py:271 Changing state to IDLE - Last Frame End - 1756378750.656706 Current Time stamp - 1756378750.657727
DEBUG   2025-08-28 18:59:10,657  pymodbus.logging:serial.py:279 Waiting for 3.5 char before next send - 1.823 ms
DEBUG   2025-08-28 18:59:10,660  pymodbus.logging:base.py:250 New Transaction state "SENDING"
DEBUG   2025-08-28 18:59:10,660  pymodbus.logging:transaction.py:317 Changing transaction state from "SENDING" to "WAITING FOR REPLY"
DEBUG   2025-08-28 18:59:10,686  pymodbus.logging:transaction.py:419 Changing transaction state from "WAITING FOR REPLY" to "PROCESSING REPLY"
DEBUG   2025-08-28 18:59:10,686  pymodbus.logging:transaction.py:324 RECV: 0x1 0x3 0x4 0x0 0x0 0x0 0x0 0xfa 0x33
DEBUG   2025-08-28 18:59:10,686  pymodbus.logging:base.py:92 Processing: 0x1 0x3 0x4 0x0 0x0 0x0 0x0 0xfa 0x33
DEBUG   2025-08-28 18:59:10,686  pymodbus.logging:decoders.py:103 decode PDU for 3
DEBUG   2025-08-28 18:59:10,686  pymodbus.logging:base.py:102 Frame advanced, resetting header!!
DEBUG   2025-08-28 18:59:10,686  pymodbus.logging:transaction.py:67 Adding transaction 0
DEBUG   2025-08-28 18:59:10,686  pymodbus.logging:transaction.py:78 Getting transaction 0
DEBUG   2025-08-28 18:59:10,686  pymodbus.logging:transaction.py:258 Changing transaction state from "PROCESSING REPLY" to "TRANSACTION_COMPLETE"
INFO    2025-08-28 18:59:10,686  root:modbus_rtu_tcp.py:44 read_measurement ret is:ReadHoldingRegistersResponse (2)
INFO    2025-08-28 18:59:10,686  root:acudc260_modbus_get.py:187 read pa_power ret is:[0, 0]
DEBUG   2025-08-28 18:59:10,686  pymodbus.logging:transaction.py:184 Current transaction state - TRANSACTION_COMPLETE
DEBUG   2025-08-28 18:59:10,686  pymodbus.logging:transaction.py:193 Running transaction 0
DEBUG   2025-08-28 18:59:10,687  pymodbus.logging:transaction.py:293 SEND: 0x1 0x3 0x30 0xa 0x0 0x2 0xeb 0x9
DEBUG   2025-08-28 18:59:10,687  pymodbus.logging:serial.py:271 Changing state to IDLE - Last Frame End - 1756378750.686657 Current Time stamp - 1756378750.687691
DEBUG   2025-08-28 18:59:10,687  pymodbus.logging:serial.py:279 Waiting for 3.5 char before next send - 1.823 ms
DEBUG   2025-08-28 18:59:10,689  pymodbus.logging:base.py:250 New Transaction state "SENDING"
DEBUG   2025-08-28 18:59:10,689  pymodbus.logging:transaction.py:317 Changing transaction state from "SENDING" to "WAITING FOR REPLY"
DEBUG   2025-08-28 18:59:10,718  pymodbus.logging:transaction.py:419 Changing transaction state from "WAITING FOR REPLY" to "PROCESSING REPLY"
DEBUG   2025-08-28 18:59:10,718  pymodbus.logging:transaction.py:324 RECV: 0x1 0x3 0x4 0x0 0x0 0x0 0x0 0xfa 0x33
DEBUG   2025-08-28 18:59:10,718  pymodbus.logging:base.py:92 Processing: 0x1 0x3 0x4 0x0 0x0 0x0 0x0 0xfa 0x33
DEBUG   2025-08-28 18:59:10,718  pymodbus.logging:decoders.py:103 decode PDU for 3
DEBUG   2025-08-28 18:59:10,718  pymodbus.logging:base.py:102 Frame advanced, resetting header!!
DEBUG   2025-08-28 18:59:10,718  pymodbus.logging:transaction.py:67 Adding transaction 0
DEBUG   2025-08-28 18:59:10,718  pymodbus.logging:transaction.py:78 Getting transaction 0
DEBUG   2025-08-28 18:59:10,718  pymodbus.logging:transaction.py:258 Changing transaction state from "PROCESSING REPLY" to "TRANSACTION_COMPLETE"
INFO    2025-08-28 18:59:10,718  root:modbus_rtu_tcp.py:44 read_measurement ret is:ReadHoldingRegistersResponse (2)
INFO    2025-08-28 18:59:10,718  root:acudc260_modbus_get.py:201 read pa_power ret is:[0, 0]
DEBUG   2025-08-28 18:59:10,718  pymodbus.logging:transaction.py:184 Current transaction state - TRANSACTION_COMPLETE
DEBUG   2025-08-28 18:59:10,718  pymodbus.logging:transaction.py:193 Running transaction 0
DEBUG   2025-08-28 18:59:10,718  pymodbus.logging:transaction.py:293 SEND: 0x1 0x3 0x30 0xc 0x0 0x2 0xb 0x8
DEBUG   2025-08-28 18:59:10,718  pymodbus.logging:serial.py:271 Changing state to IDLE - Last Frame End - 1756378750.718172 Current Time stamp - 1756378750.718172
DEBUG   2025-08-28 18:59:10,718  pymodbus.logging:serial.py:279 Waiting for 3.5 char before next send - 1.823 ms
DEBUG   2025-08-28 18:59:10,720  pymodbus.logging:base.py:250 New Transaction state "SENDING"
DEBUG   2025-08-28 18:59:10,720  pymodbus.logging:transaction.py:317 Changing transaction state from "SENDING" to "WAITING FOR REPLY"
DEBUG   2025-08-28 18:59:10,752  pymodbus.logging:transaction.py:419 Changing transaction state from "WAITING FOR REPLY" to "PROCESSING REPLY"
DEBUG   2025-08-28 18:59:10,752  pymodbus.logging:transaction.py:324 RECV: 0x1 0x3 0x4 0x0 0x0 0x0 0x0 0xfa 0x33
DEBUG   2025-08-28 18:59:10,752  pymodbus.logging:base.py:92 Processing: 0x1 0x3 0x4 0x0 0x0 0x0 0x0 0xfa 0x33
DEBUG   2025-08-28 18:59:10,752  pymodbus.logging:decoders.py:103 decode PDU for 3
DEBUG   2025-08-28 18:59:10,752  pymodbus.logging:base.py:102 Frame advanced, resetting header!!
DEBUG   2025-08-28 18:59:10,752  pymodbus.logging:transaction.py:67 Adding transaction 0
DEBUG   2025-08-28 18:59:10,753  pymodbus.logging:transaction.py:78 Getting transaction 0
DEBUG   2025-08-28 18:59:10,753  pymodbus.logging:transaction.py:258 Changing transaction state from "PROCESSING REPLY" to "TRANSACTION_COMPLETE"
INFO    2025-08-28 18:59:10,753  root:modbus_rtu_tcp.py:44 read_measurement ret is:ReadHoldingRegistersResponse (2)
INFO    2025-08-28 18:59:10,753  root:acudc260_modbus_get.py:215 read pa_power ret is:[0, 0]
INFO    2025-08-28 18:59:10,964  root:acudc260_fast_test.py:363 测试进度:['acudc260_case1', 60, 0.52, 0.52, 0, 0.001, 0.002, 0.005, 1, 0.1],执行时间:2025_08_28 18:59:10
INFO    2025-08-28 18:59:10,964  root:source_control.py:26 <源输出>
    电压检定点:10.0%;
    电流检定点:0.7799999999999999%;
    电压纹波比例:0%;
    电流纹波比例:0%;
    电压纹波相位:0度;
    电流纹波相位:0度;
    纹波频率:300Hz;
    电能方向:正向;
    <End>
INFO    2025-08-28 18:59:12,577  root:source_control.py:30 recv_data ret is:<源输出应答>
电压总值:100.000000V;
电流总值:3.900000A;
功率总值:389.999986W;
电压直流:100.000000V;
电流直流:3.900000A;
功率直流:389.999986W;
电压纹波:0.000000V;
电流纹波:0.000000A;
功率纹波:0.000000W;
<End>
DEBUG   2025-08-28 18:59:22,679  pymodbus.logging:transaction.py:184 Current transaction state - TRANSACTION_COMPLETE
DEBUG   2025-08-28 18:59:22,679  pymodbus.logging:transaction.py:193 Running transaction 0
DEBUG   2025-08-28 18:59:22,679  pymodbus.logging:transaction.py:293 SEND: 0x1 0x3 0x30 0x0 0x0 0x2 0xcb 0xb
DEBUG   2025-08-28 18:59:22,680  pymodbus.logging:serial.py:271 Changing state to IDLE - Last Frame End - 1756378750.752229 Current Time stamp - 1756378762.680408
DEBUG   2025-08-28 18:59:22,680  pymodbus.logging:base.py:250 New Transaction state "SENDING"
DEBUG   2025-08-28 18:59:22,680  pymodbus.logging:transaction.py:317 Changing transaction state from "SENDING" to "WAITING FOR REPLY"
DEBUG   2025-08-28 18:59:22,713  pymodbus.logging:transaction.py:419 Changing transaction state from "WAITING FOR REPLY" to "PROCESSING REPLY"
DEBUG   2025-08-28 18:59:22,713  pymodbus.logging:transaction.py:324 RECV: 0x1 0x3 0x4 0x0 0x0 0x0 0x0 0xfa 0x33
DEBUG   2025-08-28 18:59:22,713  pymodbus.logging:base.py:92 Processing: 0x1 0x3 0x4 0x0 0x0 0x0 0x0 0xfa 0x33
DEBUG   2025-08-28 18:59:22,713  pymodbus.logging:decoders.py:103 decode PDU for 3
DEBUG   2025-08-28 18:59:22,713  pymodbus.logging:base.py:102 Frame advanced, resetting header!!
DEBUG   2025-08-28 18:59:22,713  pymodbus.logging:transaction.py:67 Adding transaction 0
DEBUG   2025-08-28 18:59:22,713  pymodbus.logging:transaction.py:78 Getting transaction 0
DEBUG   2025-08-28 18:59:22,713  pymodbus.logging:transaction.py:258 Changing transaction state from "PROCESSING REPLY" to "TRANSACTION_COMPLETE"
INFO    2025-08-28 18:59:22,713  root:modbus_rtu_tcp.py:44 read_measurement ret is:ReadHoldingRegistersResponse (2)
INFO    2025-08-28 18:59:22,713  root:acudc260_modbus_get.py:131 read ua_voltage ret is:[0, 0]
DEBUG   2025-08-28 18:59:22,713  pymodbus.logging:transaction.py:184 Current transaction state - TRANSACTION_COMPLETE
DEBUG   2025-08-28 18:59:22,713  pymodbus.logging:transaction.py:193 Running transaction 0
DEBUG   2025-08-28 18:59:22,714  pymodbus.logging:transaction.py:293 SEND: 0x1 0x3 0x30 0x2 0x0 0x2 0x6a 0xcb
DEBUG   2025-08-28 18:59:22,714  pymodbus.logging:serial.py:271 Changing state to IDLE - Last Frame End - 1756378762.713011 Current Time stamp - 1756378762.714115
DEBUG   2025-08-28 18:59:22,714  pymodbus.logging:serial.py:279 Waiting for 3.5 char before next send - 1.823 ms
DEBUG   2025-08-28 18:59:22,716  pymodbus.logging:base.py:250 New Transaction state "SENDING"
DEBUG   2025-08-28 18:59:22,716  pymodbus.logging:transaction.py:317 Changing transaction state from "SENDING" to "WAITING FOR REPLY"
DEBUG   2025-08-28 18:59:22,748  pymodbus.logging:transaction.py:419 Changing transaction state from "WAITING FOR REPLY" to "PROCESSING REPLY"
DEBUG   2025-08-28 18:59:22,748  pymodbus.logging:transaction.py:324 RECV: 0x1 0x3 0x4 0x40 0x7a 0x85 0xdd 0x6c 0xe3
DEBUG   2025-08-28 18:59:22,748  pymodbus.logging:base.py:92 Processing: 0x1 0x3 0x4 0x40 0x7a 0x85 0xdd 0x6c 0xe3
DEBUG   2025-08-28 18:59:22,748  pymodbus.logging:decoders.py:103 decode PDU for 3
DEBUG   2025-08-28 18:59:22,748  pymodbus.logging:base.py:102 Frame advanced, resetting header!!
DEBUG   2025-08-28 18:59:22,748  pymodbus.logging:transaction.py:67 Adding transaction 0
DEBUG   2025-08-28 18:59:22,748  pymodbus.logging:transaction.py:78 Getting transaction 0
DEBUG   2025-08-28 18:59:22,748  pymodbus.logging:transaction.py:258 Changing transaction state from "PROCESSING REPLY" to "TRANSACTION_COMPLETE"
INFO    2025-08-28 18:59:22,748  root:modbus_rtu_tcp.py:44 read_measurement ret is:ReadHoldingRegistersResponse (2)
INFO    2025-08-28 18:59:22,748  root:acudc260_modbus_get.py:145 read ia_current ret is:[16506, 34269]
DEBUG   2025-08-28 18:59:22,748  pymodbus.logging:transaction.py:184 Current transaction state - TRANSACTION_COMPLETE
DEBUG   2025-08-28 18:59:22,748  pymodbus.logging:transaction.py:193 Running transaction 0
DEBUG   2025-08-28 18:59:22,748  pymodbus.logging:transaction.py:293 SEND: 0x1 0x3 0x30 0x4 0x0 0x2 0x8a 0xca
DEBUG   2025-08-28 18:59:22,748  pymodbus.logging:serial.py:271 Changing state to IDLE - Last Frame End - 1756378762.748065 Current Time stamp - 1756378762.748065
DEBUG   2025-08-28 18:59:22,748  pymodbus.logging:serial.py:279 Waiting for 3.5 char before next send - 1.823 ms
DEBUG   2025-08-28 18:59:22,750  pymodbus.logging:base.py:250 New Transaction state "SENDING"
DEBUG   2025-08-28 18:59:22,750  pymodbus.logging:transaction.py:317 Changing transaction state from "SENDING" to "WAITING FOR REPLY"
DEBUG   2025-08-28 18:59:22,781  pymodbus.logging:transaction.py:419 Changing transaction state from "WAITING FOR REPLY" to "PROCESSING REPLY"
DEBUG   2025-08-28 18:59:22,781  pymodbus.logging:transaction.py:324 RECV: 0x1 0x3 0x4 0x40 0x79 0xc1 0x68 0x6e 0x54
DEBUG   2025-08-28 18:59:22,781  pymodbus.logging:base.py:92 Processing: 0x1 0x3 0x4 0x40 0x79 0xc1 0x68 0x6e 0x54
DEBUG   2025-08-28 18:59:22,781  pymodbus.logging:decoders.py:103 decode PDU for 3
DEBUG   2025-08-28 18:59:22,781  pymodbus.logging:base.py:102 Frame advanced, resetting header!!
DEBUG   2025-08-28 18:59:22,781  pymodbus.logging:transaction.py:67 Adding transaction 0
DEBUG   2025-08-28 18:59:22,781  pymodbus.logging:transaction.py:78 Getting transaction 0
DEBUG   2025-08-28 18:59:22,781  pymodbus.logging:transaction.py:258 Changing transaction state from "PROCESSING REPLY" to "TRANSACTION_COMPLETE"
INFO    2025-08-28 18:59:22,781  root:modbus_rtu_tcp.py:44 read_measurement ret is:ReadHoldingRegistersResponse (2)
INFO    2025-08-28 18:59:22,781  root:acudc260_modbus_get.py:159 read ia_current ret is:[16505, 49512]
DEBUG   2025-08-28 18:59:22,781  pymodbus.logging:transaction.py:184 Current transaction state - TRANSACTION_COMPLETE
DEBUG   2025-08-28 18:59:22,781  pymodbus.logging:transaction.py:193 Running transaction 0
DEBUG   2025-08-28 18:59:22,781  pymodbus.logging:transaction.py:293 SEND: 0x1 0x3 0x30 0x6 0x0 0x2 0x2b 0xa
DEBUG   2025-08-28 18:59:22,781  pymodbus.logging:serial.py:271 Changing state to IDLE - Last Frame End - 1756378762.78108 Current Time stamp - 1756378762.78108
DEBUG   2025-08-28 18:59:22,781  pymodbus.logging:serial.py:279 Waiting for 3.5 char before next send - 1.823 ms
DEBUG   2025-08-28 18:59:22,783  pymodbus.logging:base.py:250 New Transaction state "SENDING"
DEBUG   2025-08-28 18:59:22,783  pymodbus.logging:transaction.py:317 Changing transaction state from "SENDING" to "WAITING FOR REPLY"
DEBUG   2025-08-28 18:59:22,808  pymodbus.logging:transaction.py:419 Changing transaction state from "WAITING FOR REPLY" to "PROCESSING REPLY"
DEBUG   2025-08-28 18:59:22,808  pymodbus.logging:transaction.py:324 RECV: 0x1 0x3 0x4 0x40 0xfa 0x72 0xda 0x6a 0xf9
DEBUG   2025-08-28 18:59:22,808  pymodbus.logging:base.py:92 Processing: 0x1 0x3 0x4 0x40 0xfa 0x72 0xda 0x6a 0xf9
DEBUG   2025-08-28 18:59:22,808  pymodbus.logging:decoders.py:103 decode PDU for 3
DEBUG   2025-08-28 18:59:22,808  pymodbus.logging:base.py:102 Frame advanced, resetting header!!
DEBUG   2025-08-28 18:59:22,808  pymodbus.logging:transaction.py:67 Adding transaction 0
DEBUG   2025-08-28 18:59:22,808  pymodbus.logging:transaction.py:78 Getting transaction 0
DEBUG   2025-08-28 18:59:22,808  pymodbus.logging:transaction.py:258 Changing transaction state from "PROCESSING REPLY" to "TRANSACTION_COMPLETE"
INFO    2025-08-28 18:59:22,808  root:modbus_rtu_tcp.py:44 read_measurement ret is:ReadHoldingRegistersResponse (2)
INFO    2025-08-28 18:59:22,808  root:acudc260_modbus_get.py:173 read ia_current ret is:[16634, 29402]
DEBUG   2025-08-28 18:59:22,808  pymodbus.logging:transaction.py:184 Current transaction state - TRANSACTION_COMPLETE
DEBUG   2025-08-28 18:59:22,808  pymodbus.logging:transaction.py:193 Running transaction 0
DEBUG   2025-08-28 18:59:22,808  pymodbus.logging:transaction.py:293 SEND: 0x1 0x3 0x30 0x8 0x0 0x2 0x4a 0xc9
DEBUG   2025-08-28 18:59:22,808  pymodbus.logging:serial.py:271 Changing state to IDLE - Last Frame End - 1756378762.808736 Current Time stamp - 1756378762.808736
DEBUG   2025-08-28 18:59:22,808  pymodbus.logging:serial.py:279 Waiting for 3.5 char before next send - 1.823 ms
DEBUG   2025-08-28 18:59:22,811  pymodbus.logging:base.py:250 New Transaction state "SENDING"
DEBUG   2025-08-28 18:59:22,811  pymodbus.logging:transaction.py:317 Changing transaction state from "SENDING" to "WAITING FOR REPLY"
DEBUG   2025-08-28 18:59:22,843  pymodbus.logging:transaction.py:419 Changing transaction state from "WAITING FOR REPLY" to "PROCESSING REPLY"
DEBUG   2025-08-28 18:59:22,843  pymodbus.logging:transaction.py:324 RECV: 0x1 0x3 0x4 0x0 0x0 0x0 0x0 0xfa 0x33
DEBUG   2025-08-28 18:59:22,843  pymodbus.logging:base.py:92 Processing: 0x1 0x3 0x4 0x0 0x0 0x0 0x0 0xfa 0x33
DEBUG   2025-08-28 18:59:22,843  pymodbus.logging:decoders.py:103 decode PDU for 3
DEBUG   2025-08-28 18:59:22,843  pymodbus.logging:base.py:102 Frame advanced, resetting header!!
DEBUG   2025-08-28 18:59:22,843  pymodbus.logging:transaction.py:67 Adding transaction 0
DEBUG   2025-08-28 18:59:22,843  pymodbus.logging:transaction.py:78 Getting transaction 0
DEBUG   2025-08-28 18:59:22,843  pymodbus.logging:transaction.py:258 Changing transaction state from "PROCESSING REPLY" to "TRANSACTION_COMPLETE"
INFO    2025-08-28 18:59:22,843  root:modbus_rtu_tcp.py:44 read_measurement ret is:ReadHoldingRegistersResponse (2)
INFO    2025-08-28 18:59:22,843  root:acudc260_modbus_get.py:187 read pa_power ret is:[0, 0]
DEBUG   2025-08-28 18:59:22,843  pymodbus.logging:transaction.py:184 Current transaction state - TRANSACTION_COMPLETE
DEBUG   2025-08-28 18:59:22,843  pymodbus.logging:transaction.py:193 Running transaction 0
DEBUG   2025-08-28 18:59:22,843  pymodbus.logging:transaction.py:293 SEND: 0x1 0x3 0x30 0xa 0x0 0x2 0xeb 0x9
DEBUG   2025-08-28 18:59:22,843  pymodbus.logging:serial.py:271 Changing state to IDLE - Last Frame End - 1756378762.843969 Current Time stamp - 1756378762.843969
DEBUG   2025-08-28 18:59:22,843  pymodbus.logging:serial.py:279 Waiting for 3.5 char before next send - 1.823 ms
DEBUG   2025-08-28 18:59:22,846  pymodbus.logging:base.py:250 New Transaction state "SENDING"
DEBUG   2025-08-28 18:59:22,846  pymodbus.logging:transaction.py:317 Changing transaction state from "SENDING" to "WAITING FOR REPLY"
DEBUG   2025-08-28 18:59:22,875  pymodbus.logging:transaction.py:419 Changing transaction state from "WAITING FOR REPLY" to "PROCESSING REPLY"
DEBUG   2025-08-28 18:59:22,875  pymodbus.logging:transaction.py:324 RECV: 0x1 0x3 0x4 0x0 0x0 0x0 0x0 0xfa 0x33
DEBUG   2025-08-28 18:59:22,875  pymodbus.logging:base.py:92 Processing: 0x1 0x3 0x4 0x0 0x0 0x0 0x0 0xfa 0x33
DEBUG   2025-08-28 18:59:22,875  pymodbus.logging:decoders.py:103 decode PDU for 3
DEBUG   2025-08-28 18:59:22,875  pymodbus.logging:base.py:102 Frame advanced, resetting header!!
DEBUG   2025-08-28 18:59:22,875  pymodbus.logging:transaction.py:67 Adding transaction 0
DEBUG   2025-08-28 18:59:22,875  pymodbus.logging:transaction.py:78 Getting transaction 0
DEBUG   2025-08-28 18:59:22,875  pymodbus.logging:transaction.py:258 Changing transaction state from "PROCESSING REPLY" to "TRANSACTION_COMPLETE"
INFO    2025-08-28 18:59:22,876  root:modbus_rtu_tcp.py:44 read_measurement ret is:ReadHoldingRegistersResponse (2)
INFO    2025-08-28 18:59:22,876  root:acudc260_modbus_get.py:201 read pa_power ret is:[0, 0]
DEBUG   2025-08-28 18:59:22,876  pymodbus.logging:transaction.py:184 Current transaction state - TRANSACTION_COMPLETE
DEBUG   2025-08-28 18:59:22,876  pymodbus.logging:transaction.py:193 Running transaction 0
DEBUG   2025-08-28 18:59:22,876  pymodbus.logging:transaction.py:293 SEND: 0x1 0x3 0x30 0xc 0x0 0x2 0xb 0x8
DEBUG   2025-08-28 18:59:22,876  pymodbus.logging:serial.py:271 Changing state to IDLE - Last Frame End - 1756378762.875859 Current Time stamp - 1756378762.876873
DEBUG   2025-08-28 18:59:22,876  pymodbus.logging:serial.py:279 Waiting for 3.5 char before next send - 1.823 ms
DEBUG   2025-08-28 18:59:22,879  pymodbus.logging:base.py:250 New Transaction state "SENDING"
DEBUG   2025-08-28 18:59:22,879  pymodbus.logging:transaction.py:317 Changing transaction state from "SENDING" to "WAITING FOR REPLY"
DEBUG   2025-08-28 18:59:22,908  pymodbus.logging:transaction.py:419 Changing transaction state from "WAITING FOR REPLY" to "PROCESSING REPLY"
DEBUG   2025-08-28 18:59:22,908  pymodbus.logging:transaction.py:324 RECV: 0x1 0x3 0x4 0x0 0x0 0x0 0x0 0xfa 0x33
DEBUG   2025-08-28 18:59:22,908  pymodbus.logging:base.py:92 Processing: 0x1 0x3 0x4 0x0 0x0 0x0 0x0 0xfa 0x33
DEBUG   2025-08-28 18:59:22,908  pymodbus.logging:decoders.py:103 decode PDU for 3
DEBUG   2025-08-28 18:59:22,908  pymodbus.logging:base.py:102 Frame advanced, resetting header!!
DEBUG   2025-08-28 18:59:22,908  pymodbus.logging:transaction.py:67 Adding transaction 0
DEBUG   2025-08-28 18:59:22,908  pymodbus.logging:transaction.py:78 Getting transaction 0
DEBUG   2025-08-28 18:59:22,908  pymodbus.logging:transaction.py:258 Changing transaction state from "PROCESSING REPLY" to "TRANSACTION_COMPLETE"
INFO    2025-08-28 18:59:22,908  root:modbus_rtu_tcp.py:44 read_measurement ret is:ReadHoldingRegistersResponse (2)
INFO    2025-08-28 18:59:22,908  root:acudc260_modbus_get.py:215 read pa_power ret is:[0, 0]
INFO    2025-08-28 18:59:23,099  root:acudc260_fast_test.py:363 测试进度:['acudc260_case2', 100, 3.9, 3.9, 0, 0.001, 0.002, 0.005, 1, 0.1],执行时间:2025_08_28 18:59:23
INFO    2025-08-28 18:59:23,099  root:source_control.py:26 <源输出>
    电压检定点:10.0%;
    电流检定点:1.0%;
    电压纹波比例:0%;
    电流纹波比例:0%;
    电压纹波相位:0度;
    电流纹波相位:0度;
    纹波频率:300Hz;
    电能方向:正向;
    <End>
INFO    2025-08-28 18:59:24,720  root:source_control.py:30 recv_data ret is:<源输出应答>
电压总值:100.000000V;
电流总值:5.000000A;
功率总值:500.000000W;
电压直流:100.000000V;
电流直流:5.000000A;
功率直流:500.000000W;
电压纹波:0.000000V;
电流纹波:0.000000A;
功率纹波:0.000000W;
<End>
DEBUG   2025-08-28 18:59:34,821  pymodbus.logging:transaction.py:184 Current transaction state - TRANSACTION_COMPLETE
DEBUG   2025-08-28 18:59:34,821  pymodbus.logging:transaction.py:193 Running transaction 0
DEBUG   2025-08-28 18:59:34,821  pymodbus.logging:transaction.py:293 SEND: 0x1 0x3 0x30 0x0 0x0 0x2 0xcb 0xb
DEBUG   2025-08-28 18:59:34,821  pymodbus.logging:serial.py:271 Changing state to IDLE - Last Frame End - 1756378762.9089 Current Time stamp - 1756378774.821853
DEBUG   2025-08-28 18:59:34,821  pymodbus.logging:base.py:250 New Transaction state "SENDING"
DEBUG   2025-08-28 18:59:34,821  pymodbus.logging:transaction.py:317 Changing transaction state from "SENDING" to "WAITING FOR REPLY"
DEBUG   2025-08-28 18:59:34,841  pymodbus.logging:transaction.py:419 Changing transaction state from "WAITING FOR REPLY" to "PROCESSING REPLY"
DEBUG   2025-08-28 18:59:34,841  pymodbus.logging:transaction.py:324 RECV: 0x1 0x3 0x4 0x0 0x0 0x0 0x0 0xfa 0x33
DEBUG   2025-08-28 18:59:34,841  pymodbus.logging:base.py:92 Processing: 0x1 0x3 0x4 0x0 0x0 0x0 0x0 0xfa 0x33
DEBUG   2025-08-28 18:59:34,841  pymodbus.logging:decoders.py:103 decode PDU for 3
DEBUG   2025-08-28 18:59:34,841  pymodbus.logging:base.py:102 Frame advanced, resetting header!!
DEBUG   2025-08-28 18:59:34,841  pymodbus.logging:transaction.py:67 Adding transaction 0
DEBUG   2025-08-28 18:59:34,841  pymodbus.logging:transaction.py:78 Getting transaction 0
DEBUG   2025-08-28 18:59:34,841  pymodbus.logging:transaction.py:258 Changing transaction state from "PROCESSING REPLY" to "TRANSACTION_COMPLETE"
INFO    2025-08-28 18:59:34,841  root:modbus_rtu_tcp.py:44 read_measurement ret is:ReadHoldingRegistersResponse (2)
INFO    2025-08-28 18:59:34,842  root:acudc260_modbus_get.py:131 read ua_voltage ret is:[0, 0]
DEBUG   2025-08-28 18:59:34,842  pymodbus.logging:transaction.py:184 Current transaction state - TRANSACTION_COMPLETE
DEBUG   2025-08-28 18:59:34,842  pymodbus.logging:transaction.py:193 Running transaction 0
DEBUG   2025-08-28 18:59:34,842  pymodbus.logging:transaction.py:293 SEND: 0x1 0x3 0x30 0x2 0x0 0x2 0x6a 0xcb
DEBUG   2025-08-28 18:59:34,842  pymodbus.logging:serial.py:271 Changing state to IDLE - Last Frame End - 1756378774.841033 Current Time stamp - 1756378774.842047
DEBUG   2025-08-28 18:59:34,842  pymodbus.logging:serial.py:279 Waiting for 3.5 char before next send - 1.823 ms
DEBUG   2025-08-28 18:59:34,844  pymodbus.logging:base.py:250 New Transaction state "SENDING"
DEBUG   2025-08-28 18:59:34,844  pymodbus.logging:transaction.py:317 Changing transaction state from "SENDING" to "WAITING FOR REPLY"
DEBUG   2025-08-28 18:59:34,870  pymodbus.logging:transaction.py:419 Changing transaction state from "WAITING FOR REPLY" to "PROCESSING REPLY"
DEBUG   2025-08-28 18:59:34,870  pymodbus.logging:transaction.py:324 RECV: 0x1 0x3 0x4 0x40 0xa0 0x80 0x96 0xe 0x7f
DEBUG   2025-08-28 18:59:34,870  pymodbus.logging:base.py:92 Processing: 0x1 0x3 0x4 0x40 0xa0 0x80 0x96 0xe 0x7f
DEBUG   2025-08-28 18:59:34,870  pymodbus.logging:decoders.py:103 decode PDU for 3
DEBUG   2025-08-28 18:59:34,870  pymodbus.logging:base.py:102 Frame advanced, resetting header!!
DEBUG   2025-08-28 18:59:34,870  pymodbus.logging:transaction.py:67 Adding transaction 0
DEBUG   2025-08-28 18:59:34,870  pymodbus.logging:transaction.py:78 Getting transaction 0
DEBUG   2025-08-28 18:59:34,870  pymodbus.logging:transaction.py:258 Changing transaction state from "PROCESSING REPLY" to "TRANSACTION_COMPLETE"
INFO    2025-08-28 18:59:34,870  root:modbus_rtu_tcp.py:44 read_measurement ret is:ReadHoldingRegistersResponse (2)
INFO    2025-08-28 18:59:34,870  root:acudc260_modbus_get.py:145 read ia_current ret is:[16544, 32918]
DEBUG   2025-08-28 18:59:34,870  pymodbus.logging:transaction.py:184 Current transaction state - TRANSACTION_COMPLETE
DEBUG   2025-08-28 18:59:34,870  pymodbus.logging:transaction.py:193 Running transaction 0
DEBUG   2025-08-28 18:59:34,870  pymodbus.logging:transaction.py:293 SEND: 0x1 0x3 0x30 0x4 0x0 0x2 0x8a 0xca
DEBUG   2025-08-28 18:59:34,870  pymodbus.logging:serial.py:271 Changing state to IDLE - Last Frame End - 1756378774.869199 Current Time stamp - 1756378774.870396
DEBUG   2025-08-28 18:59:34,870  pymodbus.logging:serial.py:279 Waiting for 3.5 char before next send - 1.823 ms
DEBUG   2025-08-28 18:59:34,872  pymodbus.logging:base.py:250 New Transaction state "SENDING"
DEBUG   2025-08-28 18:59:34,872  pymodbus.logging:transaction.py:317 Changing transaction state from "SENDING" to "WAITING FOR REPLY"
DEBUG   2025-08-28 18:59:34,907  pymodbus.logging:transaction.py:419 Changing transaction state from "WAITING FOR REPLY" to "PROCESSING REPLY"
DEBUG   2025-08-28 18:59:34,907  pymodbus.logging:transaction.py:324 RECV: 0x1 0x3 0x4 0x40 0xa0 0xf 0x80 0xeb 0x81
DEBUG   2025-08-28 18:59:34,907  pymodbus.logging:base.py:92 Processing: 0x1 0x3 0x4 0x40 0xa0 0xf 0x80 0xeb 0x81
DEBUG   2025-08-28 18:59:34,907  pymodbus.logging:decoders.py:103 decode PDU for 3
DEBUG   2025-08-28 18:59:34,907  pymodbus.logging:base.py:102 Frame advanced, resetting header!!
DEBUG   2025-08-28 18:59:34,907  pymodbus.logging:transaction.py:67 Adding transaction 0
DEBUG   2025-08-28 18:59:34,907  pymodbus.logging:transaction.py:78 Getting transaction 0
DEBUG   2025-08-28 18:59:34,907  pymodbus.logging:transaction.py:258 Changing transaction state from "PROCESSING REPLY" to "TRANSACTION_COMPLETE"
INFO    2025-08-28 18:59:34,907  root:modbus_rtu_tcp.py:44 read_measurement ret is:ReadHoldingRegistersResponse (2)
INFO    2025-08-28 18:59:34,908  root:acudc260_modbus_get.py:159 read ia_current ret is:[16544, 3968]
DEBUG   2025-08-28 18:59:34,908  pymodbus.logging:transaction.py:184 Current transaction state - TRANSACTION_COMPLETE
DEBUG   2025-08-28 18:59:34,908  pymodbus.logging:transaction.py:193 Running transaction 0
DEBUG   2025-08-28 18:59:34,908  pymodbus.logging:transaction.py:293 SEND: 0x1 0x3 0x30 0x6 0x0 0x2 0x2b 0xa
DEBUG   2025-08-28 18:59:34,908  pymodbus.logging:serial.py:271 Changing state to IDLE - Last Frame End - 1756378774.907481 Current Time stamp - 1756378774.908532
DEBUG   2025-08-28 18:59:34,908  pymodbus.logging:serial.py:279 Waiting for 3.5 char before next send - 1.823 ms
DEBUG   2025-08-28 18:59:34,911  pymodbus.logging:base.py:250 New Transaction state "SENDING"
DEBUG   2025-08-28 18:59:34,911  pymodbus.logging:transaction.py:317 Changing transaction state from "SENDING" to "WAITING FOR REPLY"
DEBUG   2025-08-28 18:59:34,937  pymodbus.logging:transaction.py:419 Changing transaction state from "WAITING FOR REPLY" to "PROCESSING REPLY"
DEBUG   2025-08-28 18:59:34,937  pymodbus.logging:transaction.py:324 RECV: 0x1 0x3 0x4 0x41 0x20 0x24 0x10 0xf5 0x9
DEBUG   2025-08-28 18:59:34,937  pymodbus.logging:base.py:92 Processing: 0x1 0x3 0x4 0x41 0x20 0x24 0x10 0xf5 0x9
DEBUG   2025-08-28 18:59:34,937  pymodbus.logging:decoders.py:103 decode PDU for 3
DEBUG   2025-08-28 18:59:34,937  pymodbus.logging:base.py:102 Frame advanced, resetting header!!
DEBUG   2025-08-28 18:59:34,937  pymodbus.logging:transaction.py:67 Adding transaction 0
DEBUG   2025-08-28 18:59:34,937  pymodbus.logging:transaction.py:78 Getting transaction 0
DEBUG   2025-08-28 18:59:34,937  pymodbus.logging:transaction.py:258 Changing transaction state from "PROCESSING REPLY" to "TRANSACTION_COMPLETE"
INFO    2025-08-28 18:59:34,937  root:modbus_rtu_tcp.py:44 read_measurement ret is:ReadHoldingRegistersResponse (2)
INFO    2025-08-28 18:59:34,937  root:acudc260_modbus_get.py:173 read ia_current ret is:[16672, 9232]
DEBUG   2025-08-28 18:59:34,939  pymodbus.logging:transaction.py:184 Current transaction state - TRANSACTION_COMPLETE
DEBUG   2025-08-28 18:59:34,939  pymodbus.logging:transaction.py:193 Running transaction 0
DEBUG   2025-08-28 18:59:34,939  pymodbus.logging:transaction.py:293 SEND: 0x1 0x3 0x30 0x8 0x0 0x2 0x4a 0xc9
DEBUG   2025-08-28 18:59:34,939  pymodbus.logging:serial.py:271 Changing state to IDLE - Last Frame End - 1756378774.937972 Current Time stamp - 1756378774.939015
DEBUG   2025-08-28 18:59:34,939  pymodbus.logging:serial.py:279 Waiting for 3.5 char before next send - 1.823 ms
DEBUG   2025-08-28 18:59:34,941  pymodbus.logging:base.py:250 New Transaction state "SENDING"
DEBUG   2025-08-28 18:59:34,942  pymodbus.logging:transaction.py:317 Changing transaction state from "SENDING" to "WAITING FOR REPLY"
DEBUG   2025-08-28 18:59:34,969  pymodbus.logging:transaction.py:419 Changing transaction state from "WAITING FOR REPLY" to "PROCESSING REPLY"
DEBUG   2025-08-28 18:59:34,969  pymodbus.logging:transaction.py:324 RECV: 0x1 0x3 0x4 0x0 0x0 0x0 0x0 0xfa 0x33
DEBUG   2025-08-28 18:59:34,969  pymodbus.logging:base.py:92 Processing: 0x1 0x3 0x4 0x0 0x0 0x0 0x0 0xfa 0x33
DEBUG   2025-08-28 18:59:34,969  pymodbus.logging:decoders.py:103 decode PDU for 3
DEBUG   2025-08-28 18:59:34,969  pymodbus.logging:base.py:102 Frame advanced, resetting header!!
DEBUG   2025-08-28 18:59:34,969  pymodbus.logging:transaction.py:67 Adding transaction 0
DEBUG   2025-08-28 18:59:34,969  pymodbus.logging:transaction.py:78 Getting transaction 0
DEBUG   2025-08-28 18:59:34,969  pymodbus.logging:transaction.py:258 Changing transaction state from "PROCESSING REPLY" to "TRANSACTION_COMPLETE"
INFO    2025-08-28 18:59:34,969  root:modbus_rtu_tcp.py:44 read_measurement ret is:ReadHoldingRegistersResponse (2)
INFO    2025-08-28 18:59:34,969  root:acudc260_modbus_get.py:187 read pa_power ret is:[0, 0]
DEBUG   2025-08-28 18:59:34,969  pymodbus.logging:transaction.py:184 Current transaction state - TRANSACTION_COMPLETE
DEBUG   2025-08-28 18:59:34,969  pymodbus.logging:transaction.py:193 Running transaction 0
DEBUG   2025-08-28 18:59:34,969  pymodbus.logging:transaction.py:293 SEND: 0x1 0x3 0x30 0xa 0x0 0x2 0xeb 0x9
DEBUG   2025-08-28 18:59:34,969  pymodbus.logging:serial.py:271 Changing state to IDLE - Last Frame End - 1756378774.969833 Current Time stamp - 1756378774.969833
DEBUG   2025-08-28 18:59:34,969  pymodbus.logging:serial.py:279 Waiting for 3.5 char before next send - 1.823 ms
DEBUG   2025-08-28 18:59:34,972  pymodbus.logging:base.py:250 New Transaction state "SENDING"
DEBUG   2025-08-28 18:59:34,972  pymodbus.logging:transaction.py:317 Changing transaction state from "SENDING" to "WAITING FOR REPLY"
DEBUG   2025-08-28 18:59:35,002  pymodbus.logging:transaction.py:419 Changing transaction state from "WAITING FOR REPLY" to "PROCESSING REPLY"
DEBUG   2025-08-28 18:59:35,002  pymodbus.logging:transaction.py:324 RECV: 0x1 0x3 0x4 0x0 0x0 0x0 0x0 0xfa 0x33
DEBUG   2025-08-28 18:59:35,002  pymodbus.logging:base.py:92 Processing: 0x1 0x3 0x4 0x0 0x0 0x0 0x0 0xfa 0x33
DEBUG   2025-08-28 18:59:35,002  pymodbus.logging:decoders.py:103 decode PDU for 3
DEBUG   2025-08-28 18:59:35,002  pymodbus.logging:base.py:102 Frame advanced, resetting header!!
DEBUG   2025-08-28 18:59:35,002  pymodbus.logging:transaction.py:67 Adding transaction 0
DEBUG   2025-08-28 18:59:35,002  pymodbus.logging:transaction.py:78 Getting transaction 0
DEBUG   2025-08-28 18:59:35,002  pymodbus.logging:transaction.py:258 Changing transaction state from "PROCESSING REPLY" to "TRANSACTION_COMPLETE"
INFO    2025-08-28 18:59:35,002  root:modbus_rtu_tcp.py:44 read_measurement ret is:ReadHoldingRegistersResponse (2)
INFO    2025-08-28 18:59:35,002  root:acudc260_modbus_get.py:201 read pa_power ret is:[0, 0]
DEBUG   2025-08-28 18:59:35,002  pymodbus.logging:transaction.py:184 Current transaction state - TRANSACTION_COMPLETE
DEBUG   2025-08-28 18:59:35,002  pymodbus.logging:transaction.py:193 Running transaction 0
DEBUG   2025-08-28 18:59:35,003  pymodbus.logging:transaction.py:293 SEND: 0x1 0x3 0x30 0xc 0x0 0x2 0xb 0x8
DEBUG   2025-08-28 18:59:35,003  pymodbus.logging:serial.py:271 Changing state to IDLE - Last Frame End - 1756378775.002563 Current Time stamp - 1756378775.003682
DEBUG   2025-08-28 18:59:35,003  pymodbus.logging:serial.py:279 Waiting for 3.5 char before next send - 1.823 ms
DEBUG   2025-08-28 18:59:35,006  pymodbus.logging:base.py:250 New Transaction state "SENDING"
DEBUG   2025-08-28 18:59:35,006  pymodbus.logging:transaction.py:317 Changing transaction state from "SENDING" to "WAITING FOR REPLY"
DEBUG   2025-08-28 18:59:35,034  pymodbus.logging:transaction.py:419 Changing transaction state from "WAITING FOR REPLY" to "PROCESSING REPLY"
DEBUG   2025-08-28 18:59:35,034  pymodbus.logging:transaction.py:324 RECV: 0x1 0x3 0x4 0x0 0x0 0x0 0x0 0xfa 0x33
DEBUG   2025-08-28 18:59:35,034  pymodbus.logging:base.py:92 Processing: 0x1 0x3 0x4 0x0 0x0 0x0 0x0 0xfa 0x33
DEBUG   2025-08-28 18:59:35,034  pymodbus.logging:decoders.py:103 decode PDU for 3
DEBUG   2025-08-28 18:59:35,034  pymodbus.logging:base.py:102 Frame advanced, resetting header!!
DEBUG   2025-08-28 18:59:35,034  pymodbus.logging:transaction.py:67 Adding transaction 0
DEBUG   2025-08-28 18:59:35,034  pymodbus.logging:transaction.py:78 Getting transaction 0
DEBUG   2025-08-28 18:59:35,035  pymodbus.logging:transaction.py:258 Changing transaction state from "PROCESSING REPLY" to "TRANSACTION_COMPLETE"
INFO    2025-08-28 18:59:35,035  root:modbus_rtu_tcp.py:44 read_measurement ret is:ReadHoldingRegistersResponse (2)
INFO    2025-08-28 18:59:35,035  root:acudc260_modbus_get.py:215 read pa_power ret is:[0, 0]
INFO    2025-08-28 18:59:35,278  root:acudc260_fast_test.py:363 测试进度:['acudc260_case3', 100, 5, 5, 0, 0.001, 0.002, 0.005, 1, 0.1],执行时间:2025_08_28 18:59:35
INFO    2025-08-28 18:59:35,279  root:source_control.py:26 <源输出>
    电压检定点:15.0%;
    电流检定点:1.3%;
    电压纹波比例:0%;
    电流纹波比例:0%;
    电压纹波相位:0度;
    电流纹波相位:0度;
    纹波频率:300Hz;
    电能方向:正向;
    <End>
INFO    2025-08-28 18:59:36,897  root:source_control.py:30 recv_data ret is:<源输出应答>
电压总值:150.000000V;
电流总值:6.500000A;
功率总值:975.000000W;
电压直流:150.000000V;
电流直流:6.500000A;
功率直流:975.000000W;
电压纹波:0.000000V;
电流纹波:0.000000A;
功率纹波:0.000000W;
<End>
DEBUG   2025-08-28 18:59:46,999  pymodbus.logging:transaction.py:184 Current transaction state - TRANSACTION_COMPLETE
DEBUG   2025-08-28 18:59:46,999  pymodbus.logging:transaction.py:193 Running transaction 0
DEBUG   2025-08-28 18:59:46,999  pymodbus.logging:transaction.py:293 SEND: 0x1 0x3 0x30 0x0 0x0 0x2 0xcb 0xb
DEBUG   2025-08-28 18:59:46,999  pymodbus.logging:serial.py:271 Changing state to IDLE - Last Frame End - 1756378775.034494 Current Time stamp - 1756378786.999836
DEBUG   2025-08-28 18:59:46,999  pymodbus.logging:base.py:250 New Transaction state "SENDING"
DEBUG   2025-08-28 18:59:46,999  pymodbus.logging:transaction.py:317 Changing transaction state from "SENDING" to "WAITING FOR REPLY"
DEBUG   2025-08-28 18:59:47,031  pymodbus.logging:transaction.py:419 Changing transaction state from "WAITING FOR REPLY" to "PROCESSING REPLY"
DEBUG   2025-08-28 18:59:47,031  pymodbus.logging:transaction.py:324 RECV: 0x1 0x3 0x4 0x0 0x0 0x0 0x0 0xfa 0x33
DEBUG   2025-08-28 18:59:47,031  pymodbus.logging:base.py:92 Processing: 0x1 0x3 0x4 0x0 0x0 0x0 0x0 0xfa 0x33
DEBUG   2025-08-28 18:59:47,031  pymodbus.logging:decoders.py:103 decode PDU for 3
DEBUG   2025-08-28 18:59:47,031  pymodbus.logging:base.py:102 Frame advanced, resetting header!!
DEBUG   2025-08-28 18:59:47,031  pymodbus.logging:transaction.py:67 Adding transaction 0
DEBUG   2025-08-28 18:59:47,031  pymodbus.logging:transaction.py:78 Getting transaction 0
DEBUG   2025-08-28 18:59:47,031  pymodbus.logging:transaction.py:258 Changing transaction state from "PROCESSING REPLY" to "TRANSACTION_COMPLETE"
INFO    2025-08-28 18:59:47,031  root:modbus_rtu_tcp.py:44 read_measurement ret is:ReadHoldingRegistersResponse (2)
INFO    2025-08-28 18:59:47,031  root:acudc260_modbus_get.py:131 read ua_voltage ret is:[0, 0]
DEBUG   2025-08-28 18:59:47,031  pymodbus.logging:transaction.py:184 Current transaction state - TRANSACTION_COMPLETE
DEBUG   2025-08-28 18:59:47,031  pymodbus.logging:transaction.py:193 Running transaction 0
DEBUG   2025-08-28 18:59:47,031  pymodbus.logging:transaction.py:293 SEND: 0x1 0x3 0x30 0x2 0x0 0x2 0x6a 0xcb
DEBUG   2025-08-28 18:59:47,031  pymodbus.logging:serial.py:271 Changing state to IDLE - Last Frame End - 1756378787.031468 Current Time stamp - 1756378787.031468
DEBUG   2025-08-28 18:59:47,031  pymodbus.logging:serial.py:279 Waiting for 3.5 char before next send - 1.823 ms
DEBUG   2025-08-28 18:59:47,034  pymodbus.logging:base.py:250 New Transaction state "SENDING"
DEBUG   2025-08-28 18:59:47,034  pymodbus.logging:transaction.py:317 Changing transaction state from "SENDING" to "WAITING FOR REPLY"
DEBUG   2025-08-28 18:59:47,062  pymodbus.logging:transaction.py:419 Changing transaction state from "WAITING FOR REPLY" to "PROCESSING REPLY"
DEBUG   2025-08-28 18:59:47,062  pymodbus.logging:transaction.py:324 RECV: 0x1 0x3 0x4 0x40 0xd0 0xb4 0xf1 0x58 0x8e
DEBUG   2025-08-28 18:59:47,062  pymodbus.logging:base.py:92 Processing: 0x1 0x3 0x4 0x40 0xd0 0xb4 0xf1 0x58 0x8e
DEBUG   2025-08-28 18:59:47,062  pymodbus.logging:decoders.py:103 decode PDU for 3
DEBUG   2025-08-28 18:59:47,062  pymodbus.logging:base.py:102 Frame advanced, resetting header!!
DEBUG   2025-08-28 18:59:47,062  pymodbus.logging:transaction.py:67 Adding transaction 0
DEBUG   2025-08-28 18:59:47,062  pymodbus.logging:transaction.py:78 Getting transaction 0
DEBUG   2025-08-28 18:59:47,062  pymodbus.logging:transaction.py:258 Changing transaction state from "PROCESSING REPLY" to "TRANSACTION_COMPLETE"
INFO    2025-08-28 18:59:47,062  root:modbus_rtu_tcp.py:44 read_measurement ret is:ReadHoldingRegistersResponse (2)
INFO    2025-08-28 18:59:47,062  root:acudc260_modbus_get.py:145 read ia_current ret is:[16592, 46321]
DEBUG   2025-08-28 18:59:47,062  pymodbus.logging:transaction.py:184 Current transaction state - TRANSACTION_COMPLETE
DEBUG   2025-08-28 18:59:47,062  pymodbus.logging:transaction.py:193 Running transaction 0
DEBUG   2025-08-28 18:59:47,062  pymodbus.logging:transaction.py:293 SEND: 0x1 0x3 0x30 0x4 0x0 0x2 0x8a 0xca
DEBUG   2025-08-28 18:59:47,063  pymodbus.logging:serial.py:271 Changing state to IDLE - Last Frame End - 1756378787.062645 Current Time stamp - 1756378787.062645
DEBUG   2025-08-28 18:59:47,063  pymodbus.logging:serial.py:279 Waiting for 3.5 char before next send - 1.823 ms
DEBUG   2025-08-28 18:59:47,065  pymodbus.logging:base.py:250 New Transaction state "SENDING"
DEBUG   2025-08-28 18:59:47,065  pymodbus.logging:transaction.py:317 Changing transaction state from "SENDING" to "WAITING FOR REPLY"
DEBUG   2025-08-28 18:59:47,094  pymodbus.logging:transaction.py:419 Changing transaction state from "WAITING FOR REPLY" to "PROCESSING REPLY"
DEBUG   2025-08-28 18:59:47,094  pymodbus.logging:transaction.py:324 RECV: 0x1 0x3 0x4 0x40 0xd0 0x71 0x40 0xcb 0xaa
DEBUG   2025-08-28 18:59:47,094  pymodbus.logging:base.py:92 Processing: 0x1 0x3 0x4 0x40 0xd0 0x71 0x40 0xcb 0xaa
DEBUG   2025-08-28 18:59:47,094  pymodbus.logging:decoders.py:103 decode PDU for 3
DEBUG   2025-08-28 18:59:47,094  pymodbus.logging:base.py:102 Frame advanced, resetting header!!
DEBUG   2025-08-28 18:59:47,094  pymodbus.logging:transaction.py:67 Adding transaction 0
DEBUG   2025-08-28 18:59:47,094  pymodbus.logging:transaction.py:78 Getting transaction 0
DEBUG   2025-08-28 18:59:47,094  pymodbus.logging:transaction.py:258 Changing transaction state from "PROCESSING REPLY" to "TRANSACTION_COMPLETE"
INFO    2025-08-28 18:59:47,094  root:modbus_rtu_tcp.py:44 read_measurement ret is:ReadHoldingRegistersResponse (2)
INFO    2025-08-28 18:59:47,094  root:acudc260_modbus_get.py:159 read ia_current ret is:[16592, 28992]
DEBUG   2025-08-28 18:59:47,094  pymodbus.logging:transaction.py:184 Current transaction state - TRANSACTION_COMPLETE
DEBUG   2025-08-28 18:59:47,094  pymodbus.logging:transaction.py:193 Running transaction 0
DEBUG   2025-08-28 18:59:47,094  pymodbus.logging:transaction.py:293 SEND: 0x1 0x3 0x30 0x6 0x0 0x2 0x2b 0xa
DEBUG   2025-08-28 18:59:47,095  pymodbus.logging:serial.py:271 Changing state to IDLE - Last Frame End - 1756378787.094728 Current Time stamp - 1756378787.095735
DEBUG   2025-08-28 18:59:47,095  pymodbus.logging:serial.py:279 Waiting for 3.5 char before next send - 1.823 ms
DEBUG   2025-08-28 18:59:47,097  pymodbus.logging:base.py:250 New Transaction state "SENDING"
DEBUG   2025-08-28 18:59:47,097  pymodbus.logging:transaction.py:317 Changing transaction state from "SENDING" to "WAITING FOR REPLY"
DEBUG   2025-08-28 18:59:47,122  pymodbus.logging:transaction.py:419 Changing transaction state from "WAITING FOR REPLY" to "PROCESSING REPLY"
DEBUG   2025-08-28 18:59:47,122  pymodbus.logging:transaction.py:324 RECV: 0x1 0x3 0x4 0x41 0x50 0x7b 0xf9 0xc 0xac
DEBUG   2025-08-28 18:59:47,122  pymodbus.logging:base.py:92 Processing: 0x1 0x3 0x4 0x41 0x50 0x7b 0xf9 0xc 0xac
DEBUG   2025-08-28 18:59:47,123  pymodbus.logging:decoders.py:103 decode PDU for 3
DEBUG   2025-08-28 18:59:47,123  pymodbus.logging:base.py:102 Frame advanced, resetting header!!
DEBUG   2025-08-28 18:59:47,123  pymodbus.logging:transaction.py:67 Adding transaction 0
DEBUG   2025-08-28 18:59:47,123  pymodbus.logging:transaction.py:78 Getting transaction 0
DEBUG   2025-08-28 18:59:47,123  pymodbus.logging:transaction.py:258 Changing transaction state from "PROCESSING REPLY" to "TRANSACTION_COMPLETE"
INFO    2025-08-28 18:59:47,123  root:modbus_rtu_tcp.py:44 read_measurement ret is:ReadHoldingRegistersResponse (2)
INFO    2025-08-28 18:59:47,123  root:acudc260_modbus_get.py:173 read ia_current ret is:[16720, 31737]
DEBUG   2025-08-28 18:59:47,123  pymodbus.logging:transaction.py:184 Current transaction state - TRANSACTION_COMPLETE
DEBUG   2025-08-28 18:59:47,123  pymodbus.logging:transaction.py:193 Running transaction 0
DEBUG   2025-08-28 18:59:47,123  pymodbus.logging:transaction.py:293 SEND: 0x1 0x3 0x30 0x8 0x0 0x2 0x4a 0xc9
DEBUG   2025-08-28 18:59:47,123  pymodbus.logging:serial.py:271 Changing state to IDLE - Last Frame End - 1756378787.122898 Current Time stamp - 1756378787.123886
DEBUG   2025-08-28 18:59:47,123  pymodbus.logging:serial.py:279 Waiting for 3.5 char before next send - 1.823 ms
DEBUG   2025-08-28 18:59:47,126  pymodbus.logging:base.py:250 New Transaction state "SENDING"
DEBUG   2025-08-28 18:59:47,126  pymodbus.logging:transaction.py:317 Changing transaction state from "SENDING" to "WAITING FOR REPLY"
DEBUG   2025-08-28 18:59:47,155  pymodbus.logging:transaction.py:419 Changing transaction state from "WAITING FOR REPLY" to "PROCESSING REPLY"
DEBUG   2025-08-28 18:59:47,155  pymodbus.logging:transaction.py:324 RECV: 0x1 0x3 0x4 0x0 0x0 0x0 0x0 0xfa 0x33
DEBUG   2025-08-28 18:59:47,155  pymodbus.logging:base.py:92 Processing: 0x1 0x3 0x4 0x0 0x0 0x0 0x0 0xfa 0x33
DEBUG   2025-08-28 18:59:47,155  pymodbus.logging:decoders.py:103 decode PDU for 3
DEBUG   2025-08-28 18:59:47,155  pymodbus.logging:base.py:102 Frame advanced, resetting header!!
DEBUG   2025-08-28 18:59:47,155  pymodbus.logging:transaction.py:67 Adding transaction 0
DEBUG   2025-08-28 18:59:47,155  pymodbus.logging:transaction.py:78 Getting transaction 0
DEBUG   2025-08-28 18:59:47,155  pymodbus.logging:transaction.py:258 Changing transaction state from "PROCESSING REPLY" to "TRANSACTION_COMPLETE"
INFO    2025-08-28 18:59:47,155  root:modbus_rtu_tcp.py:44 read_measurement ret is:ReadHoldingRegistersResponse (2)
INFO    2025-08-28 18:59:47,155  root:acudc260_modbus_get.py:187 read pa_power ret is:[0, 0]
DEBUG   2025-08-28 18:59:47,155  pymodbus.logging:transaction.py:184 Current transaction state - TRANSACTION_COMPLETE
DEBUG   2025-08-28 18:59:47,156  pymodbus.logging:transaction.py:193 Running transaction 0
DEBUG   2025-08-28 18:59:47,156  pymodbus.logging:transaction.py:293 SEND: 0x1 0x3 0x30 0xa 0x0 0x2 0xeb 0x9
DEBUG   2025-08-28 18:59:47,156  pymodbus.logging:serial.py:271 Changing state to IDLE - Last Frame End - 1756378787.1553 Current Time stamp - 1756378787.156303
DEBUG   2025-08-28 18:59:47,156  pymodbus.logging:serial.py:279 Waiting for 3.5 char before next send - 1.823 ms
DEBUG   2025-08-28 18:59:47,159  pymodbus.logging:base.py:250 New Transaction state "SENDING"
DEBUG   2025-08-28 18:59:47,159  pymodbus.logging:transaction.py:317 Changing transaction state from "SENDING" to "WAITING FOR REPLY"
DEBUG   2025-08-28 18:59:47,187  pymodbus.logging:transaction.py:419 Changing transaction state from "WAITING FOR REPLY" to "PROCESSING REPLY"
DEBUG   2025-08-28 18:59:47,187  pymodbus.logging:transaction.py:324 RECV: 0x1 0x3 0x4 0x0 0x0 0x0 0x0 0xfa 0x33
DEBUG   2025-08-28 18:59:47,187  pymodbus.logging:base.py:92 Processing: 0x1 0x3 0x4 0x0 0x0 0x0 0x0 0xfa 0x33
DEBUG   2025-08-28 18:59:47,187  pymodbus.logging:decoders.py:103 decode PDU for 3
DEBUG   2025-08-28 18:59:47,187  pymodbus.logging:base.py:102 Frame advanced, resetting header!!
DEBUG   2025-08-28 18:59:47,187  pymodbus.logging:transaction.py:67 Adding transaction 0
DEBUG   2025-08-28 18:59:47,187  pymodbus.logging:transaction.py:78 Getting transaction 0
DEBUG   2025-08-28 18:59:47,187  pymodbus.logging:transaction.py:258 Changing transaction state from "PROCESSING REPLY" to "TRANSACTION_COMPLETE"
INFO    2025-08-28 18:59:47,188  root:modbus_rtu_tcp.py:44 read_measurement ret is:ReadHoldingRegistersResponse (2)
INFO    2025-08-28 18:59:47,188  root:acudc260_modbus_get.py:201 read pa_power ret is:[0, 0]
DEBUG   2025-08-28 18:59:47,188  pymodbus.logging:transaction.py:184 Current transaction state - TRANSACTION_COMPLETE
DEBUG   2025-08-28 18:59:47,188  pymodbus.logging:transaction.py:193 Running transaction 0
DEBUG   2025-08-28 18:59:47,188  pymodbus.logging:transaction.py:293 SEND: 0x1 0x3 0x30 0xc 0x0 0x2 0xb 0x8
DEBUG   2025-08-28 18:59:47,188  pymodbus.logging:serial.py:271 Changing state to IDLE - Last Frame End - 1756378787.187702 Current Time stamp - 1756378787.188701
DEBUG   2025-08-28 18:59:47,188  pymodbus.logging:serial.py:279 Waiting for 3.5 char before next send - 1.823 ms
DEBUG   2025-08-28 18:59:47,191  pymodbus.logging:base.py:250 New Transaction state "SENDING"
DEBUG   2025-08-28 18:59:47,191  pymodbus.logging:transaction.py:317 Changing transaction state from "SENDING" to "WAITING FOR REPLY"
DEBUG   2025-08-28 18:59:47,219  pymodbus.logging:transaction.py:419 Changing transaction state from "WAITING FOR REPLY" to "PROCESSING REPLY"
DEBUG   2025-08-28 18:59:47,219  pymodbus.logging:transaction.py:324 RECV: 0x1 0x3 0x4 0x0 0x0 0x0 0x0 0xfa 0x33
DEBUG   2025-08-28 18:59:47,219  pymodbus.logging:base.py:92 Processing: 0x1 0x3 0x4 0x0 0x0 0x0 0x0 0xfa 0x33
DEBUG   2025-08-28 18:59:47,219  pymodbus.logging:decoders.py:103 decode PDU for 3
DEBUG   2025-08-28 18:59:47,219  pymodbus.logging:base.py:102 Frame advanced, resetting header!!
DEBUG   2025-08-28 18:59:47,219  pymodbus.logging:transaction.py:67 Adding transaction 0
DEBUG   2025-08-28 18:59:47,220  pymodbus.logging:transaction.py:78 Getting transaction 0
DEBUG   2025-08-28 18:59:47,220  pymodbus.logging:transaction.py:258 Changing transaction state from "PROCESSING REPLY" to "TRANSACTION_COMPLETE"
INFO    2025-08-28 18:59:47,220  root:modbus_rtu_tcp.py:44 read_measurement ret is:ReadHoldingRegistersResponse (2)
INFO    2025-08-28 18:59:47,220  root:acudc260_modbus_get.py:215 read pa_power ret is:[0, 0]
INFO    2025-08-28 18:59:47,441  root:acudc260_fast_test.py:363 测试进度:['acudc260_case4', 150, 6.5, 6.5, 0, 0.001, 0.002, 0.005, 1, 0.1],执行时间:2025_08_28 18:59:47
INFO    2025-08-28 18:59:47,441  root:source_control.py:26 <源输出>
    电压检定点:20.0%;
    电流检定点:2.0%;
    电压纹波比例:0%;
    电流纹波比例:0%;
    电压纹波相位:0度;
    电流纹波相位:0度;
    纹波频率:300Hz;
    电能方向:正向;
    <End>
INFO    2025-08-28 18:59:49,047  root:source_control.py:30 recv_data ret is:<源输出应答>
电压总值:200.000000V;
电流总值:10.000000A;
功率总值:2000.000000W;
电压直流:200.000000V;
电流直流:10.000000A;
功率直流:2000.000000W;
电压纹波:0.000000V;
电流纹波:0.000000A;
功率纹波:0.000000W;
<End>
DEBUG   2025-08-28 18:59:59,148  pymodbus.logging:transaction.py:184 Current transaction state - TRANSACTION_COMPLETE
DEBUG   2025-08-28 18:59:59,148  pymodbus.logging:transaction.py:193 Running transaction 0
DEBUG   2025-08-28 18:59:59,148  pymodbus.logging:transaction.py:293 SEND: 0x1 0x3 0x30 0x0 0x0 0x2 0xcb 0xb
DEBUG   2025-08-28 18:59:59,148  pymodbus.logging:serial.py:271 Changing state to IDLE - Last Frame End - 1756378787.219008 Current Time stamp - 1756378799.148709
DEBUG   2025-08-28 18:59:59,148  pymodbus.logging:base.py:250 New Transaction state "SENDING"
DEBUG   2025-08-28 18:59:59,149  pymodbus.logging:transaction.py:317 Changing transaction state from "SENDING" to "WAITING FOR REPLY"
DEBUG   2025-08-28 18:59:59,173  pymodbus.logging:transaction.py:419 Changing transaction state from "WAITING FOR REPLY" to "PROCESSING REPLY"
DEBUG   2025-08-28 18:59:59,173  pymodbus.logging:transaction.py:324 RECV: 0x1 0x3 0x4 0x0 0x0 0x0 0x0 0xfa 0x33
DEBUG   2025-08-28 18:59:59,173  pymodbus.logging:base.py:92 Processing: 0x1 0x3 0x4 0x0 0x0 0x0 0x0 0xfa 0x33
DEBUG   2025-08-28 18:59:59,173  pymodbus.logging:decoders.py:103 decode PDU for 3
DEBUG   2025-08-28 18:59:59,173  pymodbus.logging:base.py:102 Frame advanced, resetting header!!
DEBUG   2025-08-28 18:59:59,173  pymodbus.logging:transaction.py:67 Adding transaction 0
DEBUG   2025-08-28 18:59:59,173  pymodbus.logging:transaction.py:78 Getting transaction 0
DEBUG   2025-08-28 18:59:59,173  pymodbus.logging:transaction.py:258 Changing transaction state from "PROCESSING REPLY" to "TRANSACTION_COMPLETE"
INFO    2025-08-28 18:59:59,174  root:modbus_rtu_tcp.py:44 read_measurement ret is:ReadHoldingRegistersResponse (2)
INFO    2025-08-28 18:59:59,174  root:acudc260_modbus_get.py:131 read ua_voltage ret is:[0, 0]
DEBUG   2025-08-28 18:59:59,174  pymodbus.logging:transaction.py:184 Current transaction state - TRANSACTION_COMPLETE
DEBUG   2025-08-28 18:59:59,174  pymodbus.logging:transaction.py:193 Running transaction 0
DEBUG   2025-08-28 18:59:59,174  pymodbus.logging:transaction.py:293 SEND: 0x1 0x3 0x30 0x2 0x0 0x2 0x6a 0xcb
DEBUG   2025-08-28 18:59:59,174  pymodbus.logging:serial.py:271 Changing state to IDLE - Last Frame End - 1756378799.173079 Current Time stamp - 1756378799.174243
DEBUG   2025-08-28 18:59:59,174  pymodbus.logging:serial.py:279 Waiting for 3.5 char before next send - 1.823 ms
DEBUG   2025-08-28 18:59:59,176  pymodbus.logging:base.py:250 New Transaction state "SENDING"
DEBUG   2025-08-28 18:59:59,176  pymodbus.logging:transaction.py:317 Changing transaction state from "SENDING" to "WAITING FOR REPLY"
DEBUG   2025-08-28 18:59:59,205  pymodbus.logging:transaction.py:419 Changing transaction state from "WAITING FOR REPLY" to "PROCESSING REPLY"
DEBUG   2025-08-28 18:59:59,205  pymodbus.logging:transaction.py:324 RECV: 0x1 0x3 0x4 0x41 0x20 0x5b 0x28 0xd4 0xeb
DEBUG   2025-08-28 18:59:59,205  pymodbus.logging:base.py:92 Processing: 0x1 0x3 0x4 0x41 0x20 0x5b 0x28 0xd4 0xeb
DEBUG   2025-08-28 18:59:59,205  pymodbus.logging:decoders.py:103 decode PDU for 3
DEBUG   2025-08-28 18:59:59,205  pymodbus.logging:base.py:102 Frame advanced, resetting header!!
DEBUG   2025-08-28 18:59:59,205  pymodbus.logging:transaction.py:67 Adding transaction 0
DEBUG   2025-08-28 18:59:59,205  pymodbus.logging:transaction.py:78 Getting transaction 0
DEBUG   2025-08-28 18:59:59,205  pymodbus.logging:transaction.py:258 Changing transaction state from "PROCESSING REPLY" to "TRANSACTION_COMPLETE"
INFO    2025-08-28 18:59:59,205  root:modbus_rtu_tcp.py:44 read_measurement ret is:ReadHoldingRegistersResponse (2)
INFO    2025-08-28 18:59:59,205  root:acudc260_modbus_get.py:145 read ia_current ret is:[16672, 23336]
DEBUG   2025-08-28 18:59:59,205  pymodbus.logging:transaction.py:184 Current transaction state - TRANSACTION_COMPLETE
DEBUG   2025-08-28 18:59:59,205  pymodbus.logging:transaction.py:193 Running transaction 0
DEBUG   2025-08-28 18:59:59,205  pymodbus.logging:transaction.py:293 SEND: 0x1 0x3 0x30 0x4 0x0 0x2 0x8a 0xca
DEBUG   2025-08-28 18:59:59,205  pymodbus.logging:serial.py:271 Changing state to IDLE - Last Frame End - 1756378799.205598 Current Time stamp - 1756378799.205598
DEBUG   2025-08-28 18:59:59,205  pymodbus.logging:serial.py:279 Waiting for 3.5 char before next send - 1.823 ms
DEBUG   2025-08-28 18:59:59,208  pymodbus.logging:base.py:250 New Transaction state "SENDING"
DEBUG   2025-08-28 18:59:59,208  pymodbus.logging:transaction.py:317 Changing transaction state from "SENDING" to "WAITING FOR REPLY"
DEBUG   2025-08-28 18:59:59,235  pymodbus.logging:transaction.py:419 Changing transaction state from "WAITING FOR REPLY" to "PROCESSING REPLY"
DEBUG   2025-08-28 18:59:59,235  pymodbus.logging:transaction.py:324 RECV: 0x1 0x3 0x4 0x41 0x20 0x32 0x3d 0x3b 0x74
DEBUG   2025-08-28 18:59:59,235  pymodbus.logging:base.py:92 Processing: 0x1 0x3 0x4 0x41 0x20 0x32 0x3d 0x3b 0x74
DEBUG   2025-08-28 18:59:59,235  pymodbus.logging:decoders.py:103 decode PDU for 3
DEBUG   2025-08-28 18:59:59,235  pymodbus.logging:base.py:102 Frame advanced, resetting header!!
DEBUG   2025-08-28 18:59:59,235  pymodbus.logging:transaction.py:67 Adding transaction 0
DEBUG   2025-08-28 18:59:59,235  pymodbus.logging:transaction.py:78 Getting transaction 0
DEBUG   2025-08-28 18:59:59,235  pymodbus.logging:transaction.py:258 Changing transaction state from "PROCESSING REPLY" to "TRANSACTION_COMPLETE"
INFO    2025-08-28 18:59:59,235  root:modbus_rtu_tcp.py:44 read_measurement ret is:ReadHoldingRegistersResponse (2)
INFO    2025-08-28 18:59:59,235  root:acudc260_modbus_get.py:159 read ia_current ret is:[16672, 12861]
DEBUG   2025-08-28 18:59:59,235  pymodbus.logging:transaction.py:184 Current transaction state - TRANSACTION_COMPLETE
DEBUG   2025-08-28 18:59:59,235  pymodbus.logging:transaction.py:193 Running transaction 0
DEBUG   2025-08-28 18:59:59,235  pymodbus.logging:transaction.py:293 SEND: 0x1 0x3 0x30 0x6 0x0 0x2 0x2b 0xa
DEBUG   2025-08-28 18:59:59,235  pymodbus.logging:serial.py:271 Changing state to IDLE - Last Frame End - 1756378799.235612 Current Time stamp - 1756378799.235612
DEBUG   2025-08-28 18:59:59,235  pymodbus.logging:serial.py:279 Waiting for 3.5 char before next send - 1.823 ms
DEBUG   2025-08-28 18:59:59,238  pymodbus.logging:base.py:250 New Transaction state "SENDING"
DEBUG   2025-08-28 18:59:59,238  pymodbus.logging:transaction.py:317 Changing transaction state from "SENDING" to "WAITING FOR REPLY"
DEBUG   2025-08-28 18:59:59,264  pymodbus.logging:transaction.py:419 Changing transaction state from "WAITING FOR REPLY" to "PROCESSING REPLY"
DEBUG   2025-08-28 18:59:59,264  pymodbus.logging:transaction.py:324 RECV: 0x1 0x3 0x4 0x41 0xa0 0x46 0xb2 0x5c 0x38
DEBUG   2025-08-28 18:59:59,264  pymodbus.logging:base.py:92 Processing: 0x1 0x3 0x4 0x41 0xa0 0x46 0xb2 0x5c 0x38
DEBUG   2025-08-28 18:59:59,264  pymodbus.logging:decoders.py:103 decode PDU for 3
DEBUG   2025-08-28 18:59:59,264  pymodbus.logging:base.py:102 Frame advanced, resetting header!!
DEBUG   2025-08-28 18:59:59,264  pymodbus.logging:transaction.py:67 Adding transaction 0
DEBUG   2025-08-28 18:59:59,264  pymodbus.logging:transaction.py:78 Getting transaction 0
DEBUG   2025-08-28 18:59:59,264  pymodbus.logging:transaction.py:258 Changing transaction state from "PROCESSING REPLY" to "TRANSACTION_COMPLETE"
INFO    2025-08-28 18:59:59,264  root:modbus_rtu_tcp.py:44 read_measurement ret is:ReadHoldingRegistersResponse (2)
INFO    2025-08-28 18:59:59,264  root:acudc260_modbus_get.py:173 read ia_current ret is:[16800, 18098]
DEBUG   2025-08-28 18:59:59,264  pymodbus.logging:transaction.py:184 Current transaction state - TRANSACTION_COMPLETE
DEBUG   2025-08-28 18:59:59,264  pymodbus.logging:transaction.py:193 Running transaction 0
DEBUG   2025-08-28 18:59:59,265  pymodbus.logging:transaction.py:293 SEND: 0x1 0x3 0x30 0x8 0x0 0x2 0x4a 0xc9
DEBUG   2025-08-28 18:59:59,265  pymodbus.logging:serial.py:271 Changing state to IDLE - Last Frame End - 1756378799.264822 Current Time stamp - 1756378799.265822
DEBUG   2025-08-28 18:59:59,265  pymodbus.logging:serial.py:279 Waiting for 3.5 char before next send - 1.823 ms
DEBUG   2025-08-28 18:59:59,268  pymodbus.logging:base.py:250 New Transaction state "SENDING"
DEBUG   2025-08-28 18:59:59,268  pymodbus.logging:transaction.py:317 Changing transaction state from "SENDING" to "WAITING FOR REPLY"
DEBUG   2025-08-28 18:59:59,300  pymodbus.logging:transaction.py:419 Changing transaction state from "WAITING FOR REPLY" to "PROCESSING REPLY"
DEBUG   2025-08-28 18:59:59,300  pymodbus.logging:transaction.py:324 RECV: 0x1 0x3 0x4 0x0 0x0 0x0 0x0 0xfa 0x33
DEBUG   2025-08-28 18:59:59,300  pymodbus.logging:base.py:92 Processing: 0x1 0x3 0x4 0x0 0x0 0x0 0x0 0xfa 0x33
DEBUG   2025-08-28 18:59:59,300  pymodbus.logging:decoders.py:103 decode PDU for 3
DEBUG   2025-08-28 18:59:59,300  pymodbus.logging:base.py:102 Frame advanced, resetting header!!
DEBUG   2025-08-28 18:59:59,300  pymodbus.logging:transaction.py:67 Adding transaction 0
DEBUG   2025-08-28 18:59:59,300  pymodbus.logging:transaction.py:78 Getting transaction 0
DEBUG   2025-08-28 18:59:59,300  pymodbus.logging:transaction.py:258 Changing transaction state from "PROCESSING REPLY" to "TRANSACTION_COMPLETE"
INFO    2025-08-28 18:59:59,300  root:modbus_rtu_tcp.py:44 read_measurement ret is:ReadHoldingRegistersResponse (2)
INFO    2025-08-28 18:59:59,301  root:acudc260_modbus_get.py:187 read pa_power ret is:[0, 0]
DEBUG   2025-08-28 18:59:59,301  pymodbus.logging:transaction.py:184 Current transaction state - TRANSACTION_COMPLETE
DEBUG   2025-08-28 18:59:59,301  pymodbus.logging:transaction.py:193 Running transaction 0
DEBUG   2025-08-28 18:59:59,301  pymodbus.logging:transaction.py:293 SEND: 0x1 0x3 0x30 0xa 0x0 0x2 0xeb 0x9
DEBUG   2025-08-28 18:59:59,301  pymodbus.logging:serial.py:271 Changing state to IDLE - Last Frame End - 1756378799.300417 Current Time stamp - 1756378799.301564
DEBUG   2025-08-28 18:59:59,301  pymodbus.logging:serial.py:279 Waiting for 3.5 char before next send - 1.823 ms
DEBUG   2025-08-28 18:59:59,304  pymodbus.logging:base.py:250 New Transaction state "SENDING"
DEBUG   2025-08-28 18:59:59,304  pymodbus.logging:transaction.py:317 Changing transaction state from "SENDING" to "WAITING FOR REPLY"
DEBUG   2025-08-28 18:59:59,331  pymodbus.logging:transaction.py:419 Changing transaction state from "WAITING FOR REPLY" to "PROCESSING REPLY"
DEBUG   2025-08-28 18:59:59,331  pymodbus.logging:transaction.py:324 RECV: 0x1 0x3 0x4 0x0 0x0 0x0 0x0 0xfa 0x33
DEBUG   2025-08-28 18:59:59,332  pymodbus.logging:base.py:92 Processing: 0x1 0x3 0x4 0x0 0x0 0x0 0x0 0xfa 0x33
DEBUG   2025-08-28 18:59:59,332  pymodbus.logging:decoders.py:103 decode PDU for 3
DEBUG   2025-08-28 18:59:59,332  pymodbus.logging:base.py:102 Frame advanced, resetting header!!
DEBUG   2025-08-28 18:59:59,332  pymodbus.logging:transaction.py:67 Adding transaction 0
DEBUG   2025-08-28 18:59:59,332  pymodbus.logging:transaction.py:78 Getting transaction 0
DEBUG   2025-08-28 18:59:59,332  pymodbus.logging:transaction.py:258 Changing transaction state from "PROCESSING REPLY" to "TRANSACTION_COMPLETE"
INFO    2025-08-28 18:59:59,332  root:modbus_rtu_tcp.py:44 read_measurement ret is:ReadHoldingRegistersResponse (2)
INFO    2025-08-28 18:59:59,332  root:acudc260_modbus_get.py:201 read pa_power ret is:[0, 0]
DEBUG   2025-08-28 18:59:59,332  pymodbus.logging:transaction.py:184 Current transaction state - TRANSACTION_COMPLETE
DEBUG   2025-08-28 18:59:59,332  pymodbus.logging:transaction.py:193 Running transaction 0
DEBUG   2025-08-28 18:59:59,332  pymodbus.logging:transaction.py:293 SEND: 0x1 0x3 0x30 0xc 0x0 0x2 0xb 0x8
DEBUG   2025-08-28 18:59:59,332  pymodbus.logging:serial.py:271 Changing state to IDLE - Last Frame End - 1756378799.331896 Current Time stamp - 1756378799.332433
DEBUG   2025-08-28 18:59:59,332  pymodbus.logging:serial.py:279 Waiting for 3.5 char before next send - 1.823 ms
DEBUG   2025-08-28 18:59:59,334  pymodbus.logging:base.py:250 New Transaction state "SENDING"
DEBUG   2025-08-28 18:59:59,334  pymodbus.logging:transaction.py:317 Changing transaction state from "SENDING" to "WAITING FOR REPLY"
DEBUG   2025-08-28 18:59:59,363  pymodbus.logging:transaction.py:419 Changing transaction state from "WAITING FOR REPLY" to "PROCESSING REPLY"
DEBUG   2025-08-28 18:59:59,363  pymodbus.logging:transaction.py:324 RECV: 0x1 0x3 0x4 0x0 0x0 0x0 0x0 0xfa 0x33
DEBUG   2025-08-28 18:59:59,363  pymodbus.logging:base.py:92 Processing: 0x1 0x3 0x4 0x0 0x0 0x0 0x0 0xfa 0x33
DEBUG   2025-08-28 18:59:59,363  pymodbus.logging:decoders.py:103 decode PDU for 3
DEBUG   2025-08-28 18:59:59,363  pymodbus.logging:base.py:102 Frame advanced, resetting header!!
DEBUG   2025-08-28 18:59:59,363  pymodbus.logging:transaction.py:67 Adding transaction 0
DEBUG   2025-08-28 18:59:59,363  pymodbus.logging:transaction.py:78 Getting transaction 0
DEBUG   2025-08-28 18:59:59,363  pymodbus.logging:transaction.py:258 Changing transaction state from "PROCESSING REPLY" to "TRANSACTION_COMPLETE"
INFO    2025-08-28 18:59:59,363  root:modbus_rtu_tcp.py:44 read_measurement ret is:ReadHoldingRegistersResponse (2)
INFO    2025-08-28 18:59:59,363  root:acudc260_modbus_get.py:215 read pa_power ret is:[0, 0]
INFO    2025-08-28 18:59:59,611  root:acudc260_fast_test.py:363 测试进度:['acudc260_case5', 200, 10, 10, 0, 0.001, 0.002, 0.005, 1, 0.1],执行时间:2025_08_28 18:59:59
INFO    2025-08-28 18:59:59,611  root:source_control.py:26 <源输出>
    电压检定点:50.0%;
    电流检定点:2.6%;
    电压纹波比例:0%;
    电流纹波比例:0%;
    电压纹波相位:0度;
    电流纹波相位:0度;
    纹波频率:300Hz;
    电能方向:正向;
    <End>
INFO    2025-08-28 19:00:01,216  root:source_control.py:30 recv_data ret is:<源输出应答>
电压总值:500.000000V;
电流总值:13.000000A;
功率总值:6500.000000W;
电压直流:500.000000V;
电流直流:13.000000A;
功率直流:6500.000000W;
电压纹波:0.000000V;
电流纹波:0.000000A;
功率纹波:0.000000W;
<End>
DEBUG   2025-08-28 19:00:11,317  pymodbus.logging:transaction.py:184 Current transaction state - TRANSACTION_COMPLETE
DEBUG   2025-08-28 19:00:11,317  pymodbus.logging:transaction.py:193 Running transaction 0
DEBUG   2025-08-28 19:00:11,318  pymodbus.logging:transaction.py:293 SEND: 0x1 0x3 0x30 0x0 0x0 0x2 0xcb 0xb
DEBUG   2025-08-28 19:00:11,318  pymodbus.logging:serial.py:271 Changing state to IDLE - Last Frame End - 1756378799.363292 Current Time stamp - 1756378811.31833
DEBUG   2025-08-28 19:00:11,318  pymodbus.logging:base.py:250 New Transaction state "SENDING"
DEBUG   2025-08-28 19:00:11,318  pymodbus.logging:transaction.py:317 Changing transaction state from "SENDING" to "WAITING FOR REPLY"
DEBUG   2025-08-28 19:00:11,342  pymodbus.logging:transaction.py:419 Changing transaction state from "WAITING FOR REPLY" to "PROCESSING REPLY"
DEBUG   2025-08-28 19:00:11,342  pymodbus.logging:transaction.py:324 RECV: 0x1 0x3 0x4 0x0 0x0 0x0 0x0 0xfa 0x33
DEBUG   2025-08-28 19:00:11,342  pymodbus.logging:base.py:92 Processing: 0x1 0x3 0x4 0x0 0x0 0x0 0x0 0xfa 0x33
DEBUG   2025-08-28 19:00:11,342  pymodbus.logging:decoders.py:103 decode PDU for 3
DEBUG   2025-08-28 19:00:11,342  pymodbus.logging:base.py:102 Frame advanced, resetting header!!
DEBUG   2025-08-28 19:00:11,342  pymodbus.logging:transaction.py:67 Adding transaction 0
DEBUG   2025-08-28 19:00:11,343  pymodbus.logging:transaction.py:78 Getting transaction 0
DEBUG   2025-08-28 19:00:11,343  pymodbus.logging:transaction.py:258 Changing transaction state from "PROCESSING REPLY" to "TRANSACTION_COMPLETE"
INFO    2025-08-28 19:00:11,343  root:modbus_rtu_tcp.py:44 read_measurement ret is:ReadHoldingRegistersResponse (2)
INFO    2025-08-28 19:00:11,343  root:acudc260_modbus_get.py:131 read ua_voltage ret is:[0, 0]
DEBUG   2025-08-28 19:00:11,343  pymodbus.logging:transaction.py:184 Current transaction state - TRANSACTION_COMPLETE
DEBUG   2025-08-28 19:00:11,343  pymodbus.logging:transaction.py:193 Running transaction 0
DEBUG   2025-08-28 19:00:11,343  pymodbus.logging:transaction.py:293 SEND: 0x1 0x3 0x30 0x2 0x0 0x2 0x6a 0xcb
DEBUG   2025-08-28 19:00:11,343  pymodbus.logging:serial.py:271 Changing state to IDLE - Last Frame End - 1756378811.342278 Current Time stamp - 1756378811.343379
DEBUG   2025-08-28 19:00:11,343  pymodbus.logging:serial.py:279 Waiting for 3.5 char before next send - 1.823 ms
DEBUG   2025-08-28 19:00:11,346  pymodbus.logging:base.py:250 New Transaction state "SENDING"
DEBUG   2025-08-28 19:00:11,346  pymodbus.logging:transaction.py:317 Changing transaction state from "SENDING" to "WAITING FOR REPLY"
DEBUG   2025-08-28 19:00:11,373  pymodbus.logging:transaction.py:419 Changing transaction state from "WAITING FOR REPLY" to "PROCESSING REPLY"
DEBUG   2025-08-28 19:00:11,374  pymodbus.logging:transaction.py:324 RECV: 0x1 0x3 0x4 0x41 0x50 0x66 0xa5 0x5 0xc5
DEBUG   2025-08-28 19:00:11,374  pymodbus.logging:base.py:92 Processing: 0x1 0x3 0x4 0x41 0x50 0x66 0xa5 0x5 0xc5
DEBUG   2025-08-28 19:00:11,374  pymodbus.logging:decoders.py:103 decode PDU for 3
DEBUG   2025-08-28 19:00:11,374  pymodbus.logging:base.py:102 Frame advanced, resetting header!!
DEBUG   2025-08-28 19:00:11,374  pymodbus.logging:transaction.py:67 Adding transaction 0
DEBUG   2025-08-28 19:00:11,374  pymodbus.logging:transaction.py:78 Getting transaction 0
DEBUG   2025-08-28 19:00:11,374  pymodbus.logging:transaction.py:258 Changing transaction state from "PROCESSING REPLY" to "TRANSACTION_COMPLETE"
INFO    2025-08-28 19:00:11,374  root:modbus_rtu_tcp.py:44 read_measurement ret is:ReadHoldingRegistersResponse (2)
INFO    2025-08-28 19:00:11,374  root:acudc260_modbus_get.py:145 read ia_current ret is:[16720, 26277]
DEBUG   2025-08-28 19:00:11,374  pymodbus.logging:transaction.py:184 Current transaction state - TRANSACTION_COMPLETE
DEBUG   2025-08-28 19:00:11,374  pymodbus.logging:transaction.py:193 Running transaction 0
DEBUG   2025-08-28 19:00:11,374  pymodbus.logging:transaction.py:293 SEND: 0x1 0x3 0x30 0x4 0x0 0x2 0x8a 0xca
DEBUG   2025-08-28 19:00:11,374  pymodbus.logging:serial.py:271 Changing state to IDLE - Last Frame End - 1756378811.373468 Current Time stamp - 1756378811.374471
DEBUG   2025-08-28 19:00:11,374  pymodbus.logging:serial.py:279 Waiting for 3.5 char before next send - 1.823 ms
DEBUG   2025-08-28 19:00:11,377  pymodbus.logging:base.py:250 New Transaction state "SENDING"
DEBUG   2025-08-28 19:00:11,377  pymodbus.logging:transaction.py:317 Changing transaction state from "SENDING" to "WAITING FOR REPLY"
DEBUG   2025-08-28 19:00:11,408  pymodbus.logging:transaction.py:419 Changing transaction state from "WAITING FOR REPLY" to "PROCESSING REPLY"
DEBUG   2025-08-28 19:00:11,408  pymodbus.logging:transaction.py:324 RECV: 0x1 0x3 0x4 0x41 0x50 0x59 0x6a 0x54 0x61
DEBUG   2025-08-28 19:00:11,408  pymodbus.logging:base.py:92 Processing: 0x1 0x3 0x4 0x41 0x50 0x59 0x6a 0x54 0x61
DEBUG   2025-08-28 19:00:11,408  pymodbus.logging:decoders.py:103 decode PDU for 3
DEBUG   2025-08-28 19:00:11,408  pymodbus.logging:base.py:102 Frame advanced, resetting header!!
DEBUG   2025-08-28 19:00:11,408  pymodbus.logging:transaction.py:67 Adding transaction 0
DEBUG   2025-08-28 19:00:11,408  pymodbus.logging:transaction.py:78 Getting transaction 0
DEBUG   2025-08-28 19:00:11,408  pymodbus.logging:transaction.py:258 Changing transaction state from "PROCESSING REPLY" to "TRANSACTION_COMPLETE"
INFO    2025-08-28 19:00:11,409  root:modbus_rtu_tcp.py:44 read_measurement ret is:ReadHoldingRegistersResponse (2)
INFO    2025-08-28 19:00:11,409  root:acudc260_modbus_get.py:159 read ia_current ret is:[16720, 22890]
DEBUG   2025-08-28 19:00:11,409  pymodbus.logging:transaction.py:184 Current transaction state - TRANSACTION_COMPLETE
DEBUG   2025-08-28 19:00:11,409  pymodbus.logging:transaction.py:193 Running transaction 0
DEBUG   2025-08-28 19:00:11,409  pymodbus.logging:transaction.py:293 SEND: 0x1 0x3 0x30 0x6 0x0 0x2 0x2b 0xa
DEBUG   2025-08-28 19:00:11,409  pymodbus.logging:serial.py:271 Changing state to IDLE - Last Frame End - 1756378811.408701 Current Time stamp - 1756378811.409731
DEBUG   2025-08-28 19:00:11,409  pymodbus.logging:serial.py:279 Waiting for 3.5 char before next send - 1.823 ms
DEBUG   2025-08-28 19:00:11,412  pymodbus.logging:base.py:250 New Transaction state "SENDING"
DEBUG   2025-08-28 19:00:11,412  pymodbus.logging:transaction.py:317 Changing transaction state from "SENDING" to "WAITING FOR REPLY"
DEBUG   2025-08-28 19:00:11,441  pymodbus.logging:transaction.py:419 Changing transaction state from "WAITING FOR REPLY" to "PROCESSING REPLY"
DEBUG   2025-08-28 19:00:11,441  pymodbus.logging:transaction.py:324 RECV: 0x1 0x3 0x4 0x41 0xd0 0x67 0xa6 0x45 0xbc
DEBUG   2025-08-28 19:00:11,441  pymodbus.logging:base.py:92 Processing: 0x1 0x3 0x4 0x41 0xd0 0x67 0xa6 0x45 0xbc
DEBUG   2025-08-28 19:00:11,441  pymodbus.logging:decoders.py:103 decode PDU for 3
DEBUG   2025-08-28 19:00:11,441  pymodbus.logging:base.py:102 Frame advanced, resetting header!!
DEBUG   2025-08-28 19:00:11,441  pymodbus.logging:transaction.py:67 Adding transaction 0
DEBUG   2025-08-28 19:00:11,441  pymodbus.logging:transaction.py:78 Getting transaction 0
DEBUG   2025-08-28 19:00:11,441  pymodbus.logging:transaction.py:258 Changing transaction state from "PROCESSING REPLY" to "TRANSACTION_COMPLETE"
INFO    2025-08-28 19:00:11,442  root:modbus_rtu_tcp.py:44 read_measurement ret is:ReadHoldingRegistersResponse (2)
INFO    2025-08-28 19:00:11,442  root:acudc260_modbus_get.py:173 read ia_current ret is:[16848, 26534]
DEBUG   2025-08-28 19:00:11,442  pymodbus.logging:transaction.py:184 Current transaction state - TRANSACTION_COMPLETE
DEBUG   2025-08-28 19:00:11,442  pymodbus.logging:transaction.py:193 Running transaction 0
DEBUG   2025-08-28 19:00:11,442  pymodbus.logging:transaction.py:293 SEND: 0x1 0x3 0x30 0x8 0x0 0x2 0x4a 0xc9
DEBUG   2025-08-28 19:00:11,442  pymodbus.logging:serial.py:271 Changing state to IDLE - Last Frame End - 1756378811.441362 Current Time stamp - 1756378811.442376
DEBUG   2025-08-28 19:00:11,442  pymodbus.logging:serial.py:279 Waiting for 3.5 char before next send - 1.823 ms
DEBUG   2025-08-28 19:00:11,444  pymodbus.logging:base.py:250 New Transaction state "SENDING"
DEBUG   2025-08-28 19:00:11,444  pymodbus.logging:transaction.py:317 Changing transaction state from "SENDING" to "WAITING FOR REPLY"
DEBUG   2025-08-28 19:00:11,473  pymodbus.logging:transaction.py:419 Changing transaction state from "WAITING FOR REPLY" to "PROCESSING REPLY"
DEBUG   2025-08-28 19:00:11,473  pymodbus.logging:transaction.py:324 RECV: 0x1 0x3 0x4 0x0 0x0 0x0 0x0 0xfa 0x33
DEBUG   2025-08-28 19:00:11,473  pymodbus.logging:base.py:92 Processing: 0x1 0x3 0x4 0x0 0x0 0x0 0x0 0xfa 0x33
DEBUG   2025-08-28 19:00:11,473  pymodbus.logging:decoders.py:103 decode PDU for 3
DEBUG   2025-08-28 19:00:11,473  pymodbus.logging:base.py:102 Frame advanced, resetting header!!
DEBUG   2025-08-28 19:00:11,473  pymodbus.logging:transaction.py:67 Adding transaction 0
DEBUG   2025-08-28 19:00:11,473  pymodbus.logging:transaction.py:78 Getting transaction 0
DEBUG   2025-08-28 19:00:11,473  pymodbus.logging:transaction.py:258 Changing transaction state from "PROCESSING REPLY" to "TRANSACTION_COMPLETE"
INFO    2025-08-28 19:00:11,473  root:modbus_rtu_tcp.py:44 read_measurement ret is:ReadHoldingRegistersResponse (2)
INFO    2025-08-28 19:00:11,473  root:acudc260_modbus_get.py:187 read pa_power ret is:[0, 0]
DEBUG   2025-08-28 19:00:11,474  pymodbus.logging:transaction.py:184 Current transaction state - TRANSACTION_COMPLETE
DEBUG   2025-08-28 19:00:11,474  pymodbus.logging:transaction.py:193 Running transaction 0
DEBUG   2025-08-28 19:00:11,474  pymodbus.logging:transaction.py:293 SEND: 0x1 0x3 0x30 0xa 0x0 0x2 0xeb 0x9
DEBUG   2025-08-28 19:00:11,474  pymodbus.logging:serial.py:271 Changing state to IDLE - Last Frame End - 1756378811.473495 Current Time stamp - 1756378811.474511
DEBUG   2025-08-28 19:00:11,474  pymodbus.logging:serial.py:279 Waiting for 3.5 char before next send - 1.823 ms
DEBUG   2025-08-28 19:00:11,477  pymodbus.logging:base.py:250 New Transaction state "SENDING"
DEBUG   2025-08-28 19:00:11,477  pymodbus.logging:transaction.py:317 Changing transaction state from "SENDING" to "WAITING FOR REPLY"
DEBUG   2025-08-28 19:00:11,505  pymodbus.logging:transaction.py:419 Changing transaction state from "WAITING FOR REPLY" to "PROCESSING REPLY"
DEBUG   2025-08-28 19:00:11,505  pymodbus.logging:transaction.py:324 RECV: 0x1 0x3 0x4 0x0 0x0 0x0 0x0 0xfa 0x33
DEBUG   2025-08-28 19:00:11,505  pymodbus.logging:base.py:92 Processing: 0x1 0x3 0x4 0x0 0x0 0x0 0x0 0xfa 0x33
DEBUG   2025-08-28 19:00:11,505  pymodbus.logging:decoders.py:103 decode PDU for 3
DEBUG   2025-08-28 19:00:11,505  pymodbus.logging:base.py:102 Frame advanced, resetting header!!
DEBUG   2025-08-28 19:00:11,505  pymodbus.logging:transaction.py:67 Adding transaction 0
DEBUG   2025-08-28 19:00:11,505  pymodbus.logging:transaction.py:78 Getting transaction 0
DEBUG   2025-08-28 19:00:11,505  pymodbus.logging:transaction.py:258 Changing transaction state from "PROCESSING REPLY" to "TRANSACTION_COMPLETE"
INFO    2025-08-28 19:00:11,505  root:modbus_rtu_tcp.py:44 read_measurement ret is:ReadHoldingRegistersResponse (2)
INFO    2025-08-28 19:00:11,505  root:acudc260_modbus_get.py:201 read pa_power ret is:[0, 0]
DEBUG   2025-08-28 19:00:11,505  pymodbus.logging:transaction.py:184 Current transaction state - TRANSACTION_COMPLETE
DEBUG   2025-08-28 19:00:11,505  pymodbus.logging:transaction.py:193 Running transaction 0
DEBUG   2025-08-28 19:00:11,505  pymodbus.logging:transaction.py:293 SEND: 0x1 0x3 0x30 0xc 0x0 0x2 0xb 0x8
DEBUG   2025-08-28 19:00:11,505  pymodbus.logging:serial.py:271 Changing state to IDLE - Last Frame End - 1756378811.505614 Current Time stamp - 1756378811.505614
DEBUG   2025-08-28 19:00:11,505  pymodbus.logging:serial.py:279 Waiting for 3.5 char before next send - 1.823 ms
DEBUG   2025-08-28 19:00:11,508  pymodbus.logging:base.py:250 New Transaction state "SENDING"
DEBUG   2025-08-28 19:00:11,508  pymodbus.logging:transaction.py:317 Changing transaction state from "SENDING" to "WAITING FOR REPLY"
DEBUG   2025-08-28 19:00:11,537  pymodbus.logging:transaction.py:419 Changing transaction state from "WAITING FOR REPLY" to "PROCESSING REPLY"
DEBUG   2025-08-28 19:00:11,537  pymodbus.logging:transaction.py:324 RECV: 0x1 0x3 0x4 0x0 0x0 0x0 0x0 0xfa 0x33
DEBUG   2025-08-28 19:00:11,537  pymodbus.logging:base.py:92 Processing: 0x1 0x3 0x4 0x0 0x0 0x0 0x0 0xfa 0x33
DEBUG   2025-08-28 19:00:11,537  pymodbus.logging:decoders.py:103 decode PDU for 3
DEBUG   2025-08-28 19:00:11,537  pymodbus.logging:base.py:102 Frame advanced, resetting header!!
DEBUG   2025-08-28 19:00:11,537  pymodbus.logging:transaction.py:67 Adding transaction 0
DEBUG   2025-08-28 19:00:11,537  pymodbus.logging:transaction.py:78 Getting transaction 0
DEBUG   2025-08-28 19:00:11,537  pymodbus.logging:transaction.py:258 Changing transaction state from "PROCESSING REPLY" to "TRANSACTION_COMPLETE"
INFO    2025-08-28 19:00:11,537  root:modbus_rtu_tcp.py:44 read_measurement ret is:ReadHoldingRegistersResponse (2)
INFO    2025-08-28 19:00:11,537  root:acudc260_modbus_get.py:215 read pa_power ret is:[0, 0]
INFO    2025-08-28 19:00:11,760  root:acudc260_fast_test.py:359 测试进度:['acudc260_case6', 500, 13, 13, 0, 0.001, 0.002, 0.005, 1, 0.1],执行时间:2025_08_28 19:00:11
INFO    2025-08-28 19:00:11,886  root:source_control.py:26 <源输出>
    电压检定点:0.0%;
    电流检定点:0.0%;
    电压纹波比例:0%;
    电流纹波比例:0%;
    电压纹波相位:0度;
    电流纹波相位:0度;
    纹波频率:300Hz;
    电能方向:正向;
    <End>
INFO    2025-08-28 19:00:14,325  root:source_control.py:30 recv_data ret is:<源输出应答>
电压总值:0.000000V;
电流总值:0.000000A;
功率总值:0.000000W;
电压直流:0.000000V;
电流直流:0.000000A;
功率直流:0.000000W;
电压纹波:0.000000V;
电流纹波:0.000000A;
功率纹波:0.000000W;
<End>
INFO    2025-08-28 19:00:24,326  root:source_control.py:26 <源停止>
    <End>
INFO    2025-08-28 19:00:26,165  root:source_control.py:30 recv_data ret is:<源停止应答>
<End>
