INFO    2025-08-28 19:39:46,505  root:acudc260_fast_test.py:363 测试进度:['test_case', 'Voltage', 'Current_1', 'Current_2', '等待时间(h)', 'voltage_accuracy', 'current_accuracy', 'power_accuracy', '采样次数', '采样间隔'],执行时间:2025_08_28 19:39:46
INFO    2025-08-28 19:39:46,508  root:source_control.py:26 <源输出>
    电压检定点:6.0%;
    电流检定点:0.10400000000000001%;
    电压纹波比例:0%;
    电流纹波比例:0%;
    电压纹波相位:0度;
    电流纹波相位:0度;
    纹波频率:300Hz;
    电能方向:正向;
    <End>
INFO    2025-08-28 19:39:48,122  root:source_control.py:30 recv_data ret is:<源输出应答>
电压总值:60.000000V;
电流总值:0.520000A;
功率总值:31.199999W;
电压直流:60.000000V;
电流直流:0.520000A;
功率直流:31.199999W;
电压纹波:0.000000V;
电流纹波:0.000000A;
功率纹波:0.000000W;
<End>
DEBUG   2025-08-28 19:39:58,223  pymodbus.logging:transaction.py:184 Current transaction state - IDLE
DEBUG   2025-08-28 19:39:58,223  pymodbus.logging:transaction.py:193 Running transaction 0
DEBUG   2025-08-28 19:39:58,223  pymodbus.logging:transaction.py:293 SEND: 0x1 0x3 0x30 0x0 0x0 0x2 0xcb 0xb
DEBUG   2025-08-28 19:39:58,223  pymodbus.logging:base.py:250 New Transaction state "SENDING"
DEBUG   2025-08-28 19:39:58,224  pymodbus.logging:transaction.py:317 Changing transaction state from "SENDING" to "WAITING FOR REPLY"
DEBUG   2025-08-28 19:39:58,249  pymodbus.logging:transaction.py:419 Changing transaction state from "WAITING FOR REPLY" to "PROCESSING REPLY"
DEBUG   2025-08-28 19:39:58,249  pymodbus.logging:transaction.py:324 RECV: 0x1 0x3 0x4 0x42 0x70 0x6 0xe1 0x2c 0x78
DEBUG   2025-08-28 19:39:58,249  pymodbus.logging:base.py:92 Processing: 0x1 0x3 0x4 0x42 0x70 0x6 0xe1 0x2c 0x78
DEBUG   2025-08-28 19:39:58,249  pymodbus.logging:decoders.py:103 decode PDU for 3
DEBUG   2025-08-28 19:39:58,249  pymodbus.logging:base.py:102 Frame advanced, resetting header!!
DEBUG   2025-08-28 19:39:58,249  pymodbus.logging:transaction.py:67 Adding transaction 0
DEBUG   2025-08-28 19:39:58,249  pymodbus.logging:transaction.py:78 Getting transaction 0
DEBUG   2025-08-28 19:39:58,249  pymodbus.logging:transaction.py:258 Changing transaction state from "PROCESSING REPLY" to "TRANSACTION_COMPLETE"
INFO    2025-08-28 19:39:58,249  root:modbus_rtu_tcp.py:44 read_measurement ret is:ReadHoldingRegistersResponse (2)
INFO    2025-08-28 19:39:58,250  root:acudc260_modbus_get.py:131 read u_voltage ret is:[17008, 1761]
DEBUG   2025-08-28 19:39:58,250  pymodbus.logging:transaction.py:184 Current transaction state - TRANSACTION_COMPLETE
DEBUG   2025-08-28 19:39:58,250  pymodbus.logging:transaction.py:193 Running transaction 0
DEBUG   2025-08-28 19:39:58,250  pymodbus.logging:transaction.py:293 SEND: 0x1 0x3 0x30 0x2 0x0 0x2 0x6a 0xcb
DEBUG   2025-08-28 19:39:58,250  pymodbus.logging:serial.py:271 Changing state to IDLE - Last Frame End - 1756381198.249672 Current Time stamp - 1756381198.250765
DEBUG   2025-08-28 19:39:58,250  pymodbus.logging:serial.py:279 Waiting for 3.5 char before next send - 1.823 ms
DEBUG   2025-08-28 19:39:58,253  pymodbus.logging:base.py:250 New Transaction state "SENDING"
DEBUG   2025-08-28 19:39:58,253  pymodbus.logging:transaction.py:317 Changing transaction state from "SENDING" to "WAITING FOR REPLY"
DEBUG   2025-08-28 19:39:58,281  pymodbus.logging:transaction.py:419 Changing transaction state from "WAITING FOR REPLY" to "PROCESSING REPLY"
DEBUG   2025-08-28 19:39:58,281  pymodbus.logging:transaction.py:324 RECV: 0x1 0x3 0x4 0x3f 0x5 0xdb 0xba 0x3d 0x65
DEBUG   2025-08-28 19:39:58,281  pymodbus.logging:base.py:92 Processing: 0x1 0x3 0x4 0x3f 0x5 0xdb 0xba 0x3d 0x65
DEBUG   2025-08-28 19:39:58,281  pymodbus.logging:decoders.py:103 decode PDU for 3
DEBUG   2025-08-28 19:39:58,281  pymodbus.logging:base.py:102 Frame advanced, resetting header!!
DEBUG   2025-08-28 19:39:58,281  pymodbus.logging:transaction.py:67 Adding transaction 0
DEBUG   2025-08-28 19:39:58,281  pymodbus.logging:transaction.py:78 Getting transaction 0
DEBUG   2025-08-28 19:39:58,281  pymodbus.logging:transaction.py:258 Changing transaction state from "PROCESSING REPLY" to "TRANSACTION_COMPLETE"
INFO    2025-08-28 19:39:58,281  root:modbus_rtu_tcp.py:44 read_measurement ret is:ReadHoldingRegistersResponse (2)
INFO    2025-08-28 19:39:58,281  root:acudc260_modbus_get.py:145 read i1_current ret is:[16133, 56250]
DEBUG   2025-08-28 19:39:58,283  pymodbus.logging:transaction.py:184 Current transaction state - TRANSACTION_COMPLETE
DEBUG   2025-08-28 19:39:58,283  pymodbus.logging:transaction.py:193 Running transaction 0
DEBUG   2025-08-28 19:39:58,283  pymodbus.logging:transaction.py:293 SEND: 0x1 0x3 0x30 0x4 0x0 0x2 0x8a 0xca
DEBUG   2025-08-28 19:39:58,283  pymodbus.logging:serial.py:271 Changing state to IDLE - Last Frame End - 1756381198.281981 Current Time stamp - 1756381198.283104
DEBUG   2025-08-28 19:39:58,283  pymodbus.logging:serial.py:279 Waiting for 3.5 char before next send - 1.823 ms
DEBUG   2025-08-28 19:39:58,285  pymodbus.logging:base.py:250 New Transaction state "SENDING"
DEBUG   2025-08-28 19:39:58,285  pymodbus.logging:transaction.py:317 Changing transaction state from "SENDING" to "WAITING FOR REPLY"
DEBUG   2025-08-28 19:39:58,314  pymodbus.logging:transaction.py:419 Changing transaction state from "WAITING FOR REPLY" to "PROCESSING REPLY"
DEBUG   2025-08-28 19:39:58,314  pymodbus.logging:transaction.py:324 RECV: 0x1 0x3 0x4 0x3f 0x7 0x3f 0x48 0x56 0x20
DEBUG   2025-08-28 19:39:58,314  pymodbus.logging:base.py:92 Processing: 0x1 0x3 0x4 0x3f 0x7 0x3f 0x48 0x56 0x20
DEBUG   2025-08-28 19:39:58,314  pymodbus.logging:decoders.py:103 decode PDU for 3
DEBUG   2025-08-28 19:39:58,314  pymodbus.logging:base.py:102 Frame advanced, resetting header!!
DEBUG   2025-08-28 19:39:58,314  pymodbus.logging:transaction.py:67 Adding transaction 0
DEBUG   2025-08-28 19:39:58,314  pymodbus.logging:transaction.py:78 Getting transaction 0
DEBUG   2025-08-28 19:39:58,314  pymodbus.logging:transaction.py:258 Changing transaction state from "PROCESSING REPLY" to "TRANSACTION_COMPLETE"
INFO    2025-08-28 19:39:58,314  root:modbus_rtu_tcp.py:44 read_measurement ret is:ReadHoldingRegistersResponse (2)
INFO    2025-08-28 19:39:58,314  root:acudc260_modbus_get.py:159 read i2_current ret is:[16135, 16200]
DEBUG   2025-08-28 19:39:58,314  pymodbus.logging:transaction.py:184 Current transaction state - TRANSACTION_COMPLETE
DEBUG   2025-08-28 19:39:58,314  pymodbus.logging:transaction.py:193 Running transaction 0
DEBUG   2025-08-28 19:39:58,314  pymodbus.logging:transaction.py:293 SEND: 0x1 0x3 0x30 0x6 0x0 0x2 0x2b 0xa
DEBUG   2025-08-28 19:39:58,314  pymodbus.logging:serial.py:271 Changing state to IDLE - Last Frame End - 1756381198.31439 Current Time stamp - 1756381198.31439
DEBUG   2025-08-28 19:39:58,314  pymodbus.logging:serial.py:279 Waiting for 3.5 char before next send - 1.823 ms
DEBUG   2025-08-28 19:39:58,317  pymodbus.logging:base.py:250 New Transaction state "SENDING"
DEBUG   2025-08-28 19:39:58,317  pymodbus.logging:transaction.py:317 Changing transaction state from "SENDING" to "WAITING FOR REPLY"
DEBUG   2025-08-28 19:39:58,346  pymodbus.logging:transaction.py:419 Changing transaction state from "WAITING FOR REPLY" to "PROCESSING REPLY"
DEBUG   2025-08-28 19:39:58,346  pymodbus.logging:transaction.py:324 RECV: 0x1 0x3 0x4 0x3f 0x86 0x8d 0x81 0xb2 0xfe
DEBUG   2025-08-28 19:39:58,346  pymodbus.logging:base.py:92 Processing: 0x1 0x3 0x4 0x3f 0x86 0x8d 0x81 0xb2 0xfe
DEBUG   2025-08-28 19:39:58,346  pymodbus.logging:decoders.py:103 decode PDU for 3
DEBUG   2025-08-28 19:39:58,346  pymodbus.logging:base.py:102 Frame advanced, resetting header!!
DEBUG   2025-08-28 19:39:58,346  pymodbus.logging:transaction.py:67 Adding transaction 0
DEBUG   2025-08-28 19:39:58,346  pymodbus.logging:transaction.py:78 Getting transaction 0
DEBUG   2025-08-28 19:39:58,346  pymodbus.logging:transaction.py:258 Changing transaction state from "PROCESSING REPLY" to "TRANSACTION_COMPLETE"
INFO    2025-08-28 19:39:58,346  root:modbus_rtu_tcp.py:44 read_measurement ret is:ReadHoldingRegistersResponse (2)
INFO    2025-08-28 19:39:58,346  root:acudc260_modbus_get.py:173 read i_sum_current ret is:[16262, 36225]
DEBUG   2025-08-28 19:39:58,346  pymodbus.logging:transaction.py:184 Current transaction state - TRANSACTION_COMPLETE
DEBUG   2025-08-28 19:39:58,346  pymodbus.logging:transaction.py:193 Running transaction 0
DEBUG   2025-08-28 19:39:58,346  pymodbus.logging:transaction.py:293 SEND: 0x1 0x3 0x30 0x8 0x0 0x2 0x4a 0xc9
DEBUG   2025-08-28 19:39:58,346  pymodbus.logging:serial.py:271 Changing state to IDLE - Last Frame End - 1756381198.346467 Current Time stamp - 1756381198.346467
DEBUG   2025-08-28 19:39:58,346  pymodbus.logging:serial.py:279 Waiting for 3.5 char before next send - 1.823 ms
DEBUG   2025-08-28 19:39:58,349  pymodbus.logging:base.py:250 New Transaction state "SENDING"
DEBUG   2025-08-28 19:39:58,349  pymodbus.logging:transaction.py:317 Changing transaction state from "SENDING" to "WAITING FOR REPLY"
DEBUG   2025-08-28 19:39:58,378  pymodbus.logging:transaction.py:419 Changing transaction state from "WAITING FOR REPLY" to "PROCESSING REPLY"
DEBUG   2025-08-28 19:39:58,378  pymodbus.logging:transaction.py:324 RECV: 0x1 0x3 0x4 0x3d 0x1 0xc1 0xe8 0xf7 0x81
DEBUG   2025-08-28 19:39:58,378  pymodbus.logging:base.py:92 Processing: 0x1 0x3 0x4 0x3d 0x1 0xc1 0xe8 0xf7 0x81
DEBUG   2025-08-28 19:39:58,378  pymodbus.logging:decoders.py:103 decode PDU for 3
DEBUG   2025-08-28 19:39:58,378  pymodbus.logging:base.py:102 Frame advanced, resetting header!!
DEBUG   2025-08-28 19:39:58,378  pymodbus.logging:transaction.py:67 Adding transaction 0
DEBUG   2025-08-28 19:39:58,378  pymodbus.logging:transaction.py:78 Getting transaction 0
DEBUG   2025-08-28 19:39:58,378  pymodbus.logging:transaction.py:258 Changing transaction state from "PROCESSING REPLY" to "TRANSACTION_COMPLETE"
INFO    2025-08-28 19:39:58,378  root:modbus_rtu_tcp.py:44 read_measurement ret is:ReadHoldingRegistersResponse (2)
INFO    2025-08-28 19:39:58,378  root:acudc260_modbus_get.py:187 read p1_power ret is:[15617, 49640]
DEBUG   2025-08-28 19:39:58,379  pymodbus.logging:transaction.py:184 Current transaction state - TRANSACTION_COMPLETE
DEBUG   2025-08-28 19:39:58,379  pymodbus.logging:transaction.py:193 Running transaction 0
DEBUG   2025-08-28 19:39:58,379  pymodbus.logging:transaction.py:293 SEND: 0x1 0x3 0x30 0xa 0x0 0x2 0xeb 0x9
DEBUG   2025-08-28 19:39:58,379  pymodbus.logging:serial.py:271 Changing state to IDLE - Last Frame End - 1756381198.37813 Current Time stamp - 1756381198.379163
DEBUG   2025-08-28 19:39:58,379  pymodbus.logging:serial.py:279 Waiting for 3.5 char before next send - 1.823 ms
DEBUG   2025-08-28 19:39:58,381  pymodbus.logging:base.py:250 New Transaction state "SENDING"
DEBUG   2025-08-28 19:39:58,381  pymodbus.logging:transaction.py:317 Changing transaction state from "SENDING" to "WAITING FOR REPLY"
DEBUG   2025-08-28 19:39:58,410  pymodbus.logging:transaction.py:419 Changing transaction state from "WAITING FOR REPLY" to "PROCESSING REPLY"
DEBUG   2025-08-28 19:39:58,410  pymodbus.logging:transaction.py:324 RECV: 0x1 0x3 0x4 0x3c 0xff 0x54 0x8f 0xb9 0x37
DEBUG   2025-08-28 19:39:58,410  pymodbus.logging:base.py:92 Processing: 0x1 0x3 0x4 0x3c 0xff 0x54 0x8f 0xb9 0x37
DEBUG   2025-08-28 19:39:58,410  pymodbus.logging:decoders.py:103 decode PDU for 3
DEBUG   2025-08-28 19:39:58,410  pymodbus.logging:base.py:102 Frame advanced, resetting header!!
DEBUG   2025-08-28 19:39:58,410  pymodbus.logging:transaction.py:67 Adding transaction 0
DEBUG   2025-08-28 19:39:58,410  pymodbus.logging:transaction.py:78 Getting transaction 0
DEBUG   2025-08-28 19:39:58,410  pymodbus.logging:transaction.py:258 Changing transaction state from "PROCESSING REPLY" to "TRANSACTION_COMPLETE"
INFO    2025-08-28 19:39:58,410  root:modbus_rtu_tcp.py:44 read_measurement ret is:ReadHoldingRegistersResponse (2)
INFO    2025-08-28 19:39:58,411  root:acudc260_modbus_get.py:201 read p2_power ret is:[15615, 21647]
DEBUG   2025-08-28 19:39:58,411  pymodbus.logging:transaction.py:184 Current transaction state - TRANSACTION_COMPLETE
DEBUG   2025-08-28 19:39:58,411  pymodbus.logging:transaction.py:193 Running transaction 0
DEBUG   2025-08-28 19:39:58,411  pymodbus.logging:transaction.py:293 SEND: 0x1 0x3 0x30 0xc 0x0 0x2 0xb 0x8
DEBUG   2025-08-28 19:39:58,411  pymodbus.logging:serial.py:271 Changing state to IDLE - Last Frame End - 1756381198.410556 Current Time stamp - 1756381198.411562
DEBUG   2025-08-28 19:39:58,411  pymodbus.logging:serial.py:279 Waiting for 3.5 char before next send - 1.823 ms
DEBUG   2025-08-28 19:39:58,414  pymodbus.logging:base.py:250 New Transaction state "SENDING"
DEBUG   2025-08-28 19:39:58,414  pymodbus.logging:transaction.py:317 Changing transaction state from "SENDING" to "WAITING FOR REPLY"
DEBUG   2025-08-28 19:39:58,442  pymodbus.logging:transaction.py:419 Changing transaction state from "WAITING FOR REPLY" to "PROCESSING REPLY"
DEBUG   2025-08-28 19:39:58,442  pymodbus.logging:transaction.py:324 RECV: 0x1 0x3 0x4 0x3d 0x80 0xb6 0x18 0x80 0x1d
DEBUG   2025-08-28 19:39:58,442  pymodbus.logging:base.py:92 Processing: 0x1 0x3 0x4 0x3d 0x80 0xb6 0x18 0x80 0x1d
DEBUG   2025-08-28 19:39:58,442  pymodbus.logging:decoders.py:103 decode PDU for 3
DEBUG   2025-08-28 19:39:58,442  pymodbus.logging:base.py:102 Frame advanced, resetting header!!
DEBUG   2025-08-28 19:39:58,442  pymodbus.logging:transaction.py:67 Adding transaction 0
DEBUG   2025-08-28 19:39:58,442  pymodbus.logging:transaction.py:78 Getting transaction 0
DEBUG   2025-08-28 19:39:58,442  pymodbus.logging:transaction.py:258 Changing transaction state from "PROCESSING REPLY" to "TRANSACTION_COMPLETE"
INFO    2025-08-28 19:39:58,442  root:modbus_rtu_tcp.py:44 read_measurement ret is:ReadHoldingRegistersResponse (2)
INFO    2025-08-28 19:39:58,442  root:acudc260_modbus_get.py:215 read p_sum_power ret is:[15744, 46616]
DEBUG   2025-08-28 19:39:58,543  pymodbus.logging:transaction.py:184 Current transaction state - TRANSACTION_COMPLETE
DEBUG   2025-08-28 19:39:58,543  pymodbus.logging:transaction.py:193 Running transaction 0
DEBUG   2025-08-28 19:39:58,543  pymodbus.logging:transaction.py:293 SEND: 0x1 0x3 0x30 0x0 0x0 0x2 0xcb 0xb
DEBUG   2025-08-28 19:39:58,543  pymodbus.logging:serial.py:271 Changing state to IDLE - Last Frame End - 1756381198.442319 Current Time stamp - 1756381198.543217
DEBUG   2025-08-28 19:39:58,543  pymodbus.logging:base.py:250 New Transaction state "SENDING"
DEBUG   2025-08-28 19:39:58,543  pymodbus.logging:transaction.py:317 Changing transaction state from "SENDING" to "WAITING FOR REPLY"
DEBUG   2025-08-28 19:39:58,571  pymodbus.logging:transaction.py:419 Changing transaction state from "WAITING FOR REPLY" to "PROCESSING REPLY"
DEBUG   2025-08-28 19:39:58,571  pymodbus.logging:transaction.py:324 RECV: 0x1 0x3 0x4 0x42 0x70 0x5 0x58 0xed 0x3a
DEBUG   2025-08-28 19:39:58,571  pymodbus.logging:base.py:92 Processing: 0x1 0x3 0x4 0x42 0x70 0x5 0x58 0xed 0x3a
DEBUG   2025-08-28 19:39:58,571  pymodbus.logging:decoders.py:103 decode PDU for 3
DEBUG   2025-08-28 19:39:58,571  pymodbus.logging:base.py:102 Frame advanced, resetting header!!
DEBUG   2025-08-28 19:39:58,571  pymodbus.logging:transaction.py:67 Adding transaction 0
DEBUG   2025-08-28 19:39:58,571  pymodbus.logging:transaction.py:78 Getting transaction 0
DEBUG   2025-08-28 19:39:58,571  pymodbus.logging:transaction.py:258 Changing transaction state from "PROCESSING REPLY" to "TRANSACTION_COMPLETE"
INFO    2025-08-28 19:39:58,572  root:modbus_rtu_tcp.py:44 read_measurement ret is:ReadHoldingRegistersResponse (2)
INFO    2025-08-28 19:39:58,572  root:acudc260_modbus_get.py:131 read u_voltage ret is:[17008, 1368]
DEBUG   2025-08-28 19:39:58,572  pymodbus.logging:transaction.py:184 Current transaction state - TRANSACTION_COMPLETE
DEBUG   2025-08-28 19:39:58,572  pymodbus.logging:transaction.py:193 Running transaction 0
DEBUG   2025-08-28 19:39:58,572  pymodbus.logging:transaction.py:293 SEND: 0x1 0x3 0x30 0x2 0x0 0x2 0x6a 0xcb
DEBUG   2025-08-28 19:39:58,572  pymodbus.logging:serial.py:271 Changing state to IDLE - Last Frame End - 1756381198.571793 Current Time stamp - 1756381198.572403
DEBUG   2025-08-28 19:39:58,572  pymodbus.logging:serial.py:279 Waiting for 3.5 char before next send - 1.823 ms
DEBUG   2025-08-28 19:39:58,574  pymodbus.logging:base.py:250 New Transaction state "SENDING"
DEBUG   2025-08-28 19:39:58,574  pymodbus.logging:transaction.py:317 Changing transaction state from "SENDING" to "WAITING FOR REPLY"
DEBUG   2025-08-28 19:39:58,598  pymodbus.logging:transaction.py:419 Changing transaction state from "WAITING FOR REPLY" to "PROCESSING REPLY"
DEBUG   2025-08-28 19:39:58,599  pymodbus.logging:transaction.py:324 RECV: 0x1 0x3 0x4 0x3f 0x6 0x2e 0xb6 0x8a 0x30
DEBUG   2025-08-28 19:39:58,599  pymodbus.logging:base.py:92 Processing: 0x1 0x3 0x4 0x3f 0x6 0x2e 0xb6 0x8a 0x30
DEBUG   2025-08-28 19:39:58,599  pymodbus.logging:decoders.py:103 decode PDU for 3
DEBUG   2025-08-28 19:39:58,599  pymodbus.logging:base.py:102 Frame advanced, resetting header!!
DEBUG   2025-08-28 19:39:58,599  pymodbus.logging:transaction.py:67 Adding transaction 0
DEBUG   2025-08-28 19:39:58,599  pymodbus.logging:transaction.py:78 Getting transaction 0
DEBUG   2025-08-28 19:39:58,599  pymodbus.logging:transaction.py:258 Changing transaction state from "PROCESSING REPLY" to "TRANSACTION_COMPLETE"
INFO    2025-08-28 19:39:58,599  root:modbus_rtu_tcp.py:44 read_measurement ret is:ReadHoldingRegistersResponse (2)
INFO    2025-08-28 19:39:58,599  root:acudc260_modbus_get.py:145 read i1_current ret is:[16134, 11958]
DEBUG   2025-08-28 19:39:58,599  pymodbus.logging:transaction.py:184 Current transaction state - TRANSACTION_COMPLETE
DEBUG   2025-08-28 19:39:58,599  pymodbus.logging:transaction.py:193 Running transaction 0
DEBUG   2025-08-28 19:39:58,599  pymodbus.logging:transaction.py:293 SEND: 0x1 0x3 0x30 0x4 0x0 0x2 0x8a 0xca
DEBUG   2025-08-28 19:39:58,599  pymodbus.logging:serial.py:271 Changing state to IDLE - Last Frame End - 1756381198.598655 Current Time stamp - 1756381198.599604
DEBUG   2025-08-28 19:39:58,599  pymodbus.logging:serial.py:279 Waiting for 3.5 char before next send - 1.823 ms
DEBUG   2025-08-28 19:39:58,602  pymodbus.logging:base.py:250 New Transaction state "SENDING"
DEBUG   2025-08-28 19:39:58,602  pymodbus.logging:transaction.py:317 Changing transaction state from "SENDING" to "WAITING FOR REPLY"
DEBUG   2025-08-28 19:39:58,635  pymodbus.logging:transaction.py:419 Changing transaction state from "WAITING FOR REPLY" to "PROCESSING REPLY"
DEBUG   2025-08-28 19:39:58,635  pymodbus.logging:transaction.py:324 RECV: 0x1 0x3 0x4 0x3f 0x2 0x1a 0x5 0x9c 0x84
DEBUG   2025-08-28 19:39:58,635  pymodbus.logging:base.py:92 Processing: 0x1 0x3 0x4 0x3f 0x2 0x1a 0x5 0x9c 0x84
DEBUG   2025-08-28 19:39:58,635  pymodbus.logging:decoders.py:103 decode PDU for 3
DEBUG   2025-08-28 19:39:58,635  pymodbus.logging:base.py:102 Frame advanced, resetting header!!
DEBUG   2025-08-28 19:39:58,635  pymodbus.logging:transaction.py:67 Adding transaction 0
DEBUG   2025-08-28 19:39:58,635  pymodbus.logging:transaction.py:78 Getting transaction 0
DEBUG   2025-08-28 19:39:58,635  pymodbus.logging:transaction.py:258 Changing transaction state from "PROCESSING REPLY" to "TRANSACTION_COMPLETE"
INFO    2025-08-28 19:39:58,635  root:modbus_rtu_tcp.py:44 read_measurement ret is:ReadHoldingRegistersResponse (2)
INFO    2025-08-28 19:39:58,635  root:acudc260_modbus_get.py:159 read i2_current ret is:[16130, 6661]
DEBUG   2025-08-28 19:39:58,635  pymodbus.logging:transaction.py:184 Current transaction state - TRANSACTION_COMPLETE
DEBUG   2025-08-28 19:39:58,635  pymodbus.logging:transaction.py:193 Running transaction 0
DEBUG   2025-08-28 19:39:58,635  pymodbus.logging:transaction.py:293 SEND: 0x1 0x3 0x30 0x6 0x0 0x2 0x2b 0xa
DEBUG   2025-08-28 19:39:58,635  pymodbus.logging:serial.py:271 Changing state to IDLE - Last Frame End - 1756381198.635591 Current Time stamp - 1756381198.635591
DEBUG   2025-08-28 19:39:58,635  pymodbus.logging:serial.py:279 Waiting for 3.5 char before next send - 1.823 ms
DEBUG   2025-08-28 19:39:58,638  pymodbus.logging:base.py:250 New Transaction state "SENDING"
DEBUG   2025-08-28 19:39:58,638  pymodbus.logging:transaction.py:317 Changing transaction state from "SENDING" to "WAITING FOR REPLY"
DEBUG   2025-08-28 19:39:58,668  pymodbus.logging:transaction.py:419 Changing transaction state from "WAITING FOR REPLY" to "PROCESSING REPLY"
DEBUG   2025-08-28 19:39:58,668  pymodbus.logging:transaction.py:324 RECV: 0x1 0x3 0x4 0x3f 0x84 0x24 0x5e 0x2c 0xf6
DEBUG   2025-08-28 19:39:58,668  pymodbus.logging:base.py:92 Processing: 0x1 0x3 0x4 0x3f 0x84 0x24 0x5e 0x2c 0xf6
DEBUG   2025-08-28 19:39:58,668  pymodbus.logging:decoders.py:103 decode PDU for 3
DEBUG   2025-08-28 19:39:58,668  pymodbus.logging:base.py:102 Frame advanced, resetting header!!
DEBUG   2025-08-28 19:39:58,668  pymodbus.logging:transaction.py:67 Adding transaction 0
DEBUG   2025-08-28 19:39:58,668  pymodbus.logging:transaction.py:78 Getting transaction 0
DEBUG   2025-08-28 19:39:58,668  pymodbus.logging:transaction.py:258 Changing transaction state from "PROCESSING REPLY" to "TRANSACTION_COMPLETE"
INFO    2025-08-28 19:39:58,668  root:modbus_rtu_tcp.py:44 read_measurement ret is:ReadHoldingRegistersResponse (2)
INFO    2025-08-28 19:39:58,668  root:acudc260_modbus_get.py:173 read i_sum_current ret is:[16260, 9310]
DEBUG   2025-08-28 19:39:58,668  pymodbus.logging:transaction.py:184 Current transaction state - TRANSACTION_COMPLETE
DEBUG   2025-08-28 19:39:58,668  pymodbus.logging:transaction.py:193 Running transaction 0
DEBUG   2025-08-28 19:39:58,668  pymodbus.logging:transaction.py:293 SEND: 0x1 0x3 0x30 0x8 0x0 0x2 0x4a 0xc9
DEBUG   2025-08-28 19:39:58,668  pymodbus.logging:serial.py:271 Changing state to IDLE - Last Frame End - 1756381198.66791 Current Time stamp - 1756381198.668334
DEBUG   2025-08-28 19:39:58,668  pymodbus.logging:serial.py:279 Waiting for 3.5 char before next send - 1.823 ms
DEBUG   2025-08-28 19:39:58,671  pymodbus.logging:base.py:250 New Transaction state "SENDING"
DEBUG   2025-08-28 19:39:58,671  pymodbus.logging:transaction.py:317 Changing transaction state from "SENDING" to "WAITING FOR REPLY"
DEBUG   2025-08-28 19:39:58,698  pymodbus.logging:transaction.py:419 Changing transaction state from "WAITING FOR REPLY" to "PROCESSING REPLY"
DEBUG   2025-08-28 19:39:58,698  pymodbus.logging:transaction.py:324 RECV: 0x1 0x3 0x4 0x3d 0x4 0x6 0x17 0xf5 0xf0
DEBUG   2025-08-28 19:39:58,698  pymodbus.logging:base.py:92 Processing: 0x1 0x3 0x4 0x3d 0x4 0x6 0x17 0xf5 0xf0
DEBUG   2025-08-28 19:39:58,698  pymodbus.logging:decoders.py:103 decode PDU for 3
DEBUG   2025-08-28 19:39:58,698  pymodbus.logging:base.py:102 Frame advanced, resetting header!!
DEBUG   2025-08-28 19:39:58,698  pymodbus.logging:transaction.py:67 Adding transaction 0
DEBUG   2025-08-28 19:39:58,698  pymodbus.logging:transaction.py:78 Getting transaction 0
DEBUG   2025-08-28 19:39:58,698  pymodbus.logging:transaction.py:258 Changing transaction state from "PROCESSING REPLY" to "TRANSACTION_COMPLETE"
INFO    2025-08-28 19:39:58,698  root:modbus_rtu_tcp.py:44 read_measurement ret is:ReadHoldingRegistersResponse (2)
INFO    2025-08-28 19:39:58,698  root:acudc260_modbus_get.py:187 read p1_power ret is:[15620, 1559]
DEBUG   2025-08-28 19:39:58,698  pymodbus.logging:transaction.py:184 Current transaction state - TRANSACTION_COMPLETE
DEBUG   2025-08-28 19:39:58,698  pymodbus.logging:transaction.py:193 Running transaction 0
DEBUG   2025-08-28 19:39:58,698  pymodbus.logging:transaction.py:293 SEND: 0x1 0x3 0x30 0xa 0x0 0x2 0xeb 0x9
DEBUG   2025-08-28 19:39:58,698  pymodbus.logging:serial.py:271 Changing state to IDLE - Last Frame End - 1756381198.698047 Current Time stamp - 1756381198.698047
DEBUG   2025-08-28 19:39:58,698  pymodbus.logging:serial.py:279 Waiting for 3.5 char before next send - 1.823 ms
DEBUG   2025-08-28 19:39:58,701  pymodbus.logging:base.py:250 New Transaction state "SENDING"
DEBUG   2025-08-28 19:39:58,701  pymodbus.logging:transaction.py:317 Changing transaction state from "SENDING" to "WAITING FOR REPLY"
DEBUG   2025-08-28 19:39:58,730  pymodbus.logging:transaction.py:419 Changing transaction state from "WAITING FOR REPLY" to "PROCESSING REPLY"
DEBUG   2025-08-28 19:39:58,730  pymodbus.logging:transaction.py:324 RECV: 0x1 0x3 0x4 0x3c 0xfb 0x78 0xab 0xe4 0x2d
DEBUG   2025-08-28 19:39:58,730  pymodbus.logging:base.py:92 Processing: 0x1 0x3 0x4 0x3c 0xfb 0x78 0xab 0xe4 0x2d
DEBUG   2025-08-28 19:39:58,730  pymodbus.logging:decoders.py:103 decode PDU for 3
DEBUG   2025-08-28 19:39:58,730  pymodbus.logging:base.py:102 Frame advanced, resetting header!!
DEBUG   2025-08-28 19:39:58,730  pymodbus.logging:transaction.py:67 Adding transaction 0
DEBUG   2025-08-28 19:39:58,730  pymodbus.logging:transaction.py:78 Getting transaction 0
DEBUG   2025-08-28 19:39:58,730  pymodbus.logging:transaction.py:258 Changing transaction state from "PROCESSING REPLY" to "TRANSACTION_COMPLETE"
INFO    2025-08-28 19:39:58,730  root:modbus_rtu_tcp.py:44 read_measurement ret is:ReadHoldingRegistersResponse (2)
INFO    2025-08-28 19:39:58,730  root:acudc260_modbus_get.py:201 read p2_power ret is:[15611, 30891]
DEBUG   2025-08-28 19:39:58,730  pymodbus.logging:transaction.py:184 Current transaction state - TRANSACTION_COMPLETE
DEBUG   2025-08-28 19:39:58,730  pymodbus.logging:transaction.py:193 Running transaction 0
DEBUG   2025-08-28 19:39:58,730  pymodbus.logging:transaction.py:293 SEND: 0x1 0x3 0x30 0xc 0x0 0x2 0xb 0x8
DEBUG   2025-08-28 19:39:58,730  pymodbus.logging:serial.py:271 Changing state to IDLE - Last Frame End - 1756381198.73033 Current Time stamp - 1756381198.73033
DEBUG   2025-08-28 19:39:58,730  pymodbus.logging:serial.py:279 Waiting for 3.5 char before next send - 1.823 ms
DEBUG   2025-08-28 19:39:58,733  pymodbus.logging:base.py:250 New Transaction state "SENDING"
DEBUG   2025-08-28 19:39:58,733  pymodbus.logging:transaction.py:317 Changing transaction state from "SENDING" to "WAITING FOR REPLY"
DEBUG   2025-08-28 19:39:58,762  pymodbus.logging:transaction.py:419 Changing transaction state from "WAITING FOR REPLY" to "PROCESSING REPLY"
DEBUG   2025-08-28 19:39:58,762  pymodbus.logging:transaction.py:324 RECV: 0x1 0x3 0x4 0x3d 0x80 0xe1 0x36 0x3e 0x31
DEBUG   2025-08-28 19:39:58,762  pymodbus.logging:base.py:92 Processing: 0x1 0x3 0x4 0x3d 0x80 0xe1 0x36 0x3e 0x31
DEBUG   2025-08-28 19:39:58,762  pymodbus.logging:decoders.py:103 decode PDU for 3
DEBUG   2025-08-28 19:39:58,762  pymodbus.logging:base.py:102 Frame advanced, resetting header!!
DEBUG   2025-08-28 19:39:58,762  pymodbus.logging:transaction.py:67 Adding transaction 0
DEBUG   2025-08-28 19:39:58,762  pymodbus.logging:transaction.py:78 Getting transaction 0
DEBUG   2025-08-28 19:39:58,762  pymodbus.logging:transaction.py:258 Changing transaction state from "PROCESSING REPLY" to "TRANSACTION_COMPLETE"
INFO    2025-08-28 19:39:58,762  root:modbus_rtu_tcp.py:44 read_measurement ret is:ReadHoldingRegistersResponse (2)
INFO    2025-08-28 19:39:58,762  root:acudc260_modbus_get.py:215 read p_sum_power ret is:[15744, 57654]
DEBUG   2025-08-28 19:39:58,863  pymodbus.logging:transaction.py:184 Current transaction state - TRANSACTION_COMPLETE
DEBUG   2025-08-28 19:39:58,863  pymodbus.logging:transaction.py:193 Running transaction 0
DEBUG   2025-08-28 19:39:58,863  pymodbus.logging:transaction.py:293 SEND: 0x1 0x3 0x30 0x0 0x0 0x2 0xcb 0xb
DEBUG   2025-08-28 19:39:58,863  pymodbus.logging:serial.py:271 Changing state to IDLE - Last Frame End - 1756381198.762419 Current Time stamp - 1756381198.863208
DEBUG   2025-08-28 19:39:58,863  pymodbus.logging:base.py:250 New Transaction state "SENDING"
DEBUG   2025-08-28 19:39:58,863  pymodbus.logging:transaction.py:317 Changing transaction state from "SENDING" to "WAITING FOR REPLY"
DEBUG   2025-08-28 19:39:58,889  pymodbus.logging:transaction.py:419 Changing transaction state from "WAITING FOR REPLY" to "PROCESSING REPLY"
DEBUG   2025-08-28 19:39:58,889  pymodbus.logging:transaction.py:324 RECV: 0x1 0x3 0x4 0x42 0x70 0x4 0xa 0x6d 0x57
DEBUG   2025-08-28 19:39:58,889  pymodbus.logging:base.py:92 Processing: 0x1 0x3 0x4 0x42 0x70 0x4 0xa 0x6d 0x57
DEBUG   2025-08-28 19:39:58,889  pymodbus.logging:decoders.py:103 decode PDU for 3
DEBUG   2025-08-28 19:39:58,889  pymodbus.logging:base.py:102 Frame advanced, resetting header!!
DEBUG   2025-08-28 19:39:58,889  pymodbus.logging:transaction.py:67 Adding transaction 0
DEBUG   2025-08-28 19:39:58,889  pymodbus.logging:transaction.py:78 Getting transaction 0
DEBUG   2025-08-28 19:39:58,889  pymodbus.logging:transaction.py:258 Changing transaction state from "PROCESSING REPLY" to "TRANSACTION_COMPLETE"
INFO    2025-08-28 19:39:58,889  root:modbus_rtu_tcp.py:44 read_measurement ret is:ReadHoldingRegistersResponse (2)
INFO    2025-08-28 19:39:58,889  root:acudc260_modbus_get.py:131 read u_voltage ret is:[17008, 1034]
DEBUG   2025-08-28 19:39:58,889  pymodbus.logging:transaction.py:184 Current transaction state - TRANSACTION_COMPLETE
DEBUG   2025-08-28 19:39:58,889  pymodbus.logging:transaction.py:193 Running transaction 0
DEBUG   2025-08-28 19:39:58,889  pymodbus.logging:transaction.py:293 SEND: 0x1 0x3 0x30 0x2 0x0 0x2 0x6a 0xcb
DEBUG   2025-08-28 19:39:58,889  pymodbus.logging:serial.py:271 Changing state to IDLE - Last Frame End - 1756381198.88966 Current Time stamp - 1756381198.88966
DEBUG   2025-08-28 19:39:58,889  pymodbus.logging:serial.py:279 Waiting for 3.5 char before next send - 1.823 ms
DEBUG   2025-08-28 19:39:58,892  pymodbus.logging:base.py:250 New Transaction state "SENDING"
DEBUG   2025-08-28 19:39:58,892  pymodbus.logging:transaction.py:317 Changing transaction state from "SENDING" to "WAITING FOR REPLY"
DEBUG   2025-08-28 19:39:58,923  pymodbus.logging:transaction.py:419 Changing transaction state from "WAITING FOR REPLY" to "PROCESSING REPLY"
DEBUG   2025-08-28 19:39:58,923  pymodbus.logging:transaction.py:324 RECV: 0x1 0x3 0x4 0x3f 0x5 0x7f 0xcb 0x87 0x81
DEBUG   2025-08-28 19:39:58,923  pymodbus.logging:base.py:92 Processing: 0x1 0x3 0x4 0x3f 0x5 0x7f 0xcb 0x87 0x81
DEBUG   2025-08-28 19:39:58,923  pymodbus.logging:decoders.py:103 decode PDU for 3
DEBUG   2025-08-28 19:39:58,923  pymodbus.logging:base.py:102 Frame advanced, resetting header!!
DEBUG   2025-08-28 19:39:58,923  pymodbus.logging:transaction.py:67 Adding transaction 0
DEBUG   2025-08-28 19:39:58,923  pymodbus.logging:transaction.py:78 Getting transaction 0
DEBUG   2025-08-28 19:39:58,923  pymodbus.logging:transaction.py:258 Changing transaction state from "PROCESSING REPLY" to "TRANSACTION_COMPLETE"
INFO    2025-08-28 19:39:58,923  root:modbus_rtu_tcp.py:44 read_measurement ret is:ReadHoldingRegistersResponse (2)
INFO    2025-08-28 19:39:58,923  root:acudc260_modbus_get.py:145 read i1_current ret is:[16133, 32715]
DEBUG   2025-08-28 19:39:58,923  pymodbus.logging:transaction.py:184 Current transaction state - TRANSACTION_COMPLETE
DEBUG   2025-08-28 19:39:58,923  pymodbus.logging:transaction.py:193 Running transaction 0
DEBUG   2025-08-28 19:39:58,923  pymodbus.logging:transaction.py:293 SEND: 0x1 0x3 0x30 0x4 0x0 0x2 0x8a 0xca
DEBUG   2025-08-28 19:39:58,923  pymodbus.logging:serial.py:271 Changing state to IDLE - Last Frame End - 1756381198.923829 Current Time stamp - 1756381198.923829
DEBUG   2025-08-28 19:39:58,923  pymodbus.logging:serial.py:279 Waiting for 3.5 char before next send - 1.823 ms
DEBUG   2025-08-28 19:39:58,926  pymodbus.logging:base.py:250 New Transaction state "SENDING"
DEBUG   2025-08-28 19:39:58,926  pymodbus.logging:transaction.py:317 Changing transaction state from "SENDING" to "WAITING FOR REPLY"
DEBUG   2025-08-28 19:39:58,955  pymodbus.logging:transaction.py:419 Changing transaction state from "WAITING FOR REPLY" to "PROCESSING REPLY"
DEBUG   2025-08-28 19:39:58,955  pymodbus.logging:transaction.py:324 RECV: 0x1 0x3 0x4 0x3f 0x5 0xdd 0x4d 0x7f 0x43
DEBUG   2025-08-28 19:39:58,955  pymodbus.logging:base.py:92 Processing: 0x1 0x3 0x4 0x3f 0x5 0xdd 0x4d 0x7f 0x43
DEBUG   2025-08-28 19:39:58,955  pymodbus.logging:decoders.py:103 decode PDU for 3
DEBUG   2025-08-28 19:39:58,955  pymodbus.logging:base.py:102 Frame advanced, resetting header!!
DEBUG   2025-08-28 19:39:58,955  pymodbus.logging:transaction.py:67 Adding transaction 0
DEBUG   2025-08-28 19:39:58,955  pymodbus.logging:transaction.py:78 Getting transaction 0
DEBUG   2025-08-28 19:39:58,955  pymodbus.logging:transaction.py:258 Changing transaction state from "PROCESSING REPLY" to "TRANSACTION_COMPLETE"
INFO    2025-08-28 19:39:58,955  root:modbus_rtu_tcp.py:44 read_measurement ret is:ReadHoldingRegistersResponse (2)
INFO    2025-08-28 19:39:58,955  root:acudc260_modbus_get.py:159 read i2_current ret is:[16133, 56653]
DEBUG   2025-08-28 19:39:58,955  pymodbus.logging:transaction.py:184 Current transaction state - TRANSACTION_COMPLETE
DEBUG   2025-08-28 19:39:58,955  pymodbus.logging:transaction.py:193 Running transaction 0
DEBUG   2025-08-28 19:39:58,955  pymodbus.logging:transaction.py:293 SEND: 0x1 0x3 0x30 0x6 0x0 0x2 0x2b 0xa
DEBUG   2025-08-28 19:39:58,955  pymodbus.logging:serial.py:271 Changing state to IDLE - Last Frame End - 1756381198.955186 Current Time stamp - 1756381198.955186
DEBUG   2025-08-28 19:39:58,955  pymodbus.logging:serial.py:279 Waiting for 3.5 char before next send - 1.823 ms
DEBUG   2025-08-28 19:39:58,958  pymodbus.logging:base.py:250 New Transaction state "SENDING"
DEBUG   2025-08-28 19:39:58,958  pymodbus.logging:transaction.py:317 Changing transaction state from "SENDING" to "WAITING FOR REPLY"
DEBUG   2025-08-28 19:39:58,986  pymodbus.logging:transaction.py:419 Changing transaction state from "WAITING FOR REPLY" to "PROCESSING REPLY"
DEBUG   2025-08-28 19:39:58,986  pymodbus.logging:transaction.py:324 RECV: 0x1 0x3 0x4 0x3f 0x84 0x7d 0xf6 0x17 0x18
DEBUG   2025-08-28 19:39:58,986  pymodbus.logging:base.py:92 Processing: 0x1 0x3 0x4 0x3f 0x84 0x7d 0xf6 0x17 0x18
DEBUG   2025-08-28 19:39:58,986  pymodbus.logging:decoders.py:103 decode PDU for 3
DEBUG   2025-08-28 19:39:58,986  pymodbus.logging:base.py:102 Frame advanced, resetting header!!
DEBUG   2025-08-28 19:39:58,986  pymodbus.logging:transaction.py:67 Adding transaction 0
DEBUG   2025-08-28 19:39:58,986  pymodbus.logging:transaction.py:78 Getting transaction 0
DEBUG   2025-08-28 19:39:58,986  pymodbus.logging:transaction.py:258 Changing transaction state from "PROCESSING REPLY" to "TRANSACTION_COMPLETE"
INFO    2025-08-28 19:39:58,986  root:modbus_rtu_tcp.py:44 read_measurement ret is:ReadHoldingRegistersResponse (2)
INFO    2025-08-28 19:39:58,986  root:acudc260_modbus_get.py:173 read i_sum_current ret is:[16260, 32246]
DEBUG   2025-08-28 19:39:58,986  pymodbus.logging:transaction.py:184 Current transaction state - TRANSACTION_COMPLETE
DEBUG   2025-08-28 19:39:58,986  pymodbus.logging:transaction.py:193 Running transaction 0
DEBUG   2025-08-28 19:39:58,986  pymodbus.logging:transaction.py:293 SEND: 0x1 0x3 0x30 0x8 0x0 0x2 0x4a 0xc9
DEBUG   2025-08-28 19:39:58,986  pymodbus.logging:serial.py:271 Changing state to IDLE - Last Frame End - 1756381198.986382 Current Time stamp - 1756381198.986382
DEBUG   2025-08-28 19:39:58,986  pymodbus.logging:serial.py:279 Waiting for 3.5 char before next send - 1.823 ms
DEBUG   2025-08-28 19:39:58,989  pymodbus.logging:base.py:250 New Transaction state "SENDING"
DEBUG   2025-08-28 19:39:58,989  pymodbus.logging:transaction.py:317 Changing transaction state from "SENDING" to "WAITING FOR REPLY"
DEBUG   2025-08-28 19:39:59,018  pymodbus.logging:transaction.py:419 Changing transaction state from "WAITING FOR REPLY" to "PROCESSING REPLY"
DEBUG   2025-08-28 19:39:59,018  pymodbus.logging:transaction.py:324 RECV: 0x1 0x3 0x4 0x3d 0x1 0x2b 0x34 0xb9 0x78
DEBUG   2025-08-28 19:39:59,018  pymodbus.logging:base.py:92 Processing: 0x1 0x3 0x4 0x3d 0x1 0x2b 0x34 0xb9 0x78
DEBUG   2025-08-28 19:39:59,018  pymodbus.logging:decoders.py:103 decode PDU for 3
DEBUG   2025-08-28 19:39:59,018  pymodbus.logging:base.py:102 Frame advanced, resetting header!!
DEBUG   2025-08-28 19:39:59,018  pymodbus.logging:transaction.py:67 Adding transaction 0
DEBUG   2025-08-28 19:39:59,018  pymodbus.logging:transaction.py:78 Getting transaction 0
DEBUG   2025-08-28 19:39:59,018  pymodbus.logging:transaction.py:258 Changing transaction state from "PROCESSING REPLY" to "TRANSACTION_COMPLETE"
INFO    2025-08-28 19:39:59,018  root:modbus_rtu_tcp.py:44 read_measurement ret is:ReadHoldingRegistersResponse (2)
INFO    2025-08-28 19:39:59,018  root:acudc260_modbus_get.py:187 read p1_power ret is:[15617, 11060]
DEBUG   2025-08-28 19:39:59,018  pymodbus.logging:transaction.py:184 Current transaction state - TRANSACTION_COMPLETE
DEBUG   2025-08-28 19:39:59,018  pymodbus.logging:transaction.py:193 Running transaction 0
DEBUG   2025-08-28 19:39:59,018  pymodbus.logging:transaction.py:293 SEND: 0x1 0x3 0x30 0xa 0x0 0x2 0xeb 0x9
DEBUG   2025-08-28 19:39:59,018  pymodbus.logging:serial.py:271 Changing state to IDLE - Last Frame End - 1756381199.018476 Current Time stamp - 1756381199.018476
DEBUG   2025-08-28 19:39:59,018  pymodbus.logging:serial.py:279 Waiting for 3.5 char before next send - 1.823 ms
DEBUG   2025-08-28 19:39:59,021  pymodbus.logging:base.py:250 New Transaction state "SENDING"
DEBUG   2025-08-28 19:39:59,021  pymodbus.logging:transaction.py:317 Changing transaction state from "SENDING" to "WAITING FOR REPLY"
DEBUG   2025-08-28 19:39:59,046  pymodbus.logging:transaction.py:419 Changing transaction state from "WAITING FOR REPLY" to "PROCESSING REPLY"
DEBUG   2025-08-28 19:39:59,046  pymodbus.logging:transaction.py:324 RECV: 0x1 0x3 0x4 0x3c 0xfa 0x92 0xfc 0xbb 0x73
DEBUG   2025-08-28 19:39:59,046  pymodbus.logging:base.py:92 Processing: 0x1 0x3 0x4 0x3c 0xfa 0x92 0xfc 0xbb 0x73
DEBUG   2025-08-28 19:39:59,046  pymodbus.logging:decoders.py:103 decode PDU for 3
DEBUG   2025-08-28 19:39:59,046  pymodbus.logging:base.py:102 Frame advanced, resetting header!!
DEBUG   2025-08-28 19:39:59,047  pymodbus.logging:transaction.py:67 Adding transaction 0
DEBUG   2025-08-28 19:39:59,047  pymodbus.logging:transaction.py:78 Getting transaction 0
DEBUG   2025-08-28 19:39:59,047  pymodbus.logging:transaction.py:258 Changing transaction state from "PROCESSING REPLY" to "TRANSACTION_COMPLETE"
INFO    2025-08-28 19:39:59,047  root:modbus_rtu_tcp.py:44 read_measurement ret is:ReadHoldingRegistersResponse (2)
INFO    2025-08-28 19:39:59,047  root:acudc260_modbus_get.py:201 read p2_power ret is:[15610, 37628]
DEBUG   2025-08-28 19:39:59,047  pymodbus.logging:transaction.py:184 Current transaction state - TRANSACTION_COMPLETE
DEBUG   2025-08-28 19:39:59,047  pymodbus.logging:transaction.py:193 Running transaction 0
DEBUG   2025-08-28 19:39:59,047  pymodbus.logging:transaction.py:293 SEND: 0x1 0x3 0x30 0xc 0x0 0x2 0xb 0x8
DEBUG   2025-08-28 19:39:59,047  pymodbus.logging:serial.py:271 Changing state to IDLE - Last Frame End - 1756381199.046192 Current Time stamp - 1756381199.04718
DEBUG   2025-08-28 19:39:59,047  pymodbus.logging:serial.py:279 Waiting for 3.5 char before next send - 1.823 ms
DEBUG   2025-08-28 19:39:59,049  pymodbus.logging:base.py:250 New Transaction state "SENDING"
DEBUG   2025-08-28 19:39:59,049  pymodbus.logging:transaction.py:317 Changing transaction state from "SENDING" to "WAITING FOR REPLY"
DEBUG   2025-08-28 19:39:59,083  pymodbus.logging:transaction.py:419 Changing transaction state from "WAITING FOR REPLY" to "PROCESSING REPLY"
DEBUG   2025-08-28 19:39:59,083  pymodbus.logging:transaction.py:324 RECV: 0x1 0x3 0x4 0x3d 0x80 0x27 0x37 0xac 0x51
DEBUG   2025-08-28 19:39:59,083  pymodbus.logging:base.py:92 Processing: 0x1 0x3 0x4 0x3d 0x80 0x27 0x37 0xac 0x51
DEBUG   2025-08-28 19:39:59,083  pymodbus.logging:decoders.py:103 decode PDU for 3
DEBUG   2025-08-28 19:39:59,083  pymodbus.logging:base.py:102 Frame advanced, resetting header!!
DEBUG   2025-08-28 19:39:59,083  pymodbus.logging:transaction.py:67 Adding transaction 0
DEBUG   2025-08-28 19:39:59,083  pymodbus.logging:transaction.py:78 Getting transaction 0
DEBUG   2025-08-28 19:39:59,083  pymodbus.logging:transaction.py:258 Changing transaction state from "PROCESSING REPLY" to "TRANSACTION_COMPLETE"
INFO    2025-08-28 19:39:59,083  root:modbus_rtu_tcp.py:44 read_measurement ret is:ReadHoldingRegistersResponse (2)
INFO    2025-08-28 19:39:59,083  root:acudc260_modbus_get.py:215 read p_sum_power ret is:[15744, 10039]
DEBUG   2025-08-28 19:39:59,184  pymodbus.logging:transaction.py:184 Current transaction state - TRANSACTION_COMPLETE
DEBUG   2025-08-28 19:39:59,184  pymodbus.logging:transaction.py:193 Running transaction 0
DEBUG   2025-08-28 19:39:59,184  pymodbus.logging:transaction.py:293 SEND: 0x1 0x3 0x30 0x0 0x0 0x2 0xcb 0xb
DEBUG   2025-08-28 19:39:59,184  pymodbus.logging:serial.py:271 Changing state to IDLE - Last Frame End - 1756381199.083853 Current Time stamp - 1756381199.184741
DEBUG   2025-08-28 19:39:59,184  pymodbus.logging:base.py:250 New Transaction state "SENDING"
DEBUG   2025-08-28 19:39:59,184  pymodbus.logging:transaction.py:317 Changing transaction state from "SENDING" to "WAITING FOR REPLY"
DEBUG   2025-08-28 19:39:59,210  pymodbus.logging:transaction.py:419 Changing transaction state from "WAITING FOR REPLY" to "PROCESSING REPLY"
DEBUG   2025-08-28 19:39:59,210  pymodbus.logging:transaction.py:324 RECV: 0x1 0x3 0x4 0x42 0x70 0x7 0x5f 0xad 0x98
DEBUG   2025-08-28 19:39:59,210  pymodbus.logging:base.py:92 Processing: 0x1 0x3 0x4 0x42 0x70 0x7 0x5f 0xad 0x98
DEBUG   2025-08-28 19:39:59,210  pymodbus.logging:decoders.py:103 decode PDU for 3
DEBUG   2025-08-28 19:39:59,210  pymodbus.logging:base.py:102 Frame advanced, resetting header!!
DEBUG   2025-08-28 19:39:59,210  pymodbus.logging:transaction.py:67 Adding transaction 0
DEBUG   2025-08-28 19:39:59,210  pymodbus.logging:transaction.py:78 Getting transaction 0
DEBUG   2025-08-28 19:39:59,210  pymodbus.logging:transaction.py:258 Changing transaction state from "PROCESSING REPLY" to "TRANSACTION_COMPLETE"
INFO    2025-08-28 19:39:59,210  root:modbus_rtu_tcp.py:44 read_measurement ret is:ReadHoldingRegistersResponse (2)
INFO    2025-08-28 19:39:59,210  root:acudc260_modbus_get.py:131 read u_voltage ret is:[17008, 1887]
DEBUG   2025-08-28 19:39:59,210  pymodbus.logging:transaction.py:184 Current transaction state - TRANSACTION_COMPLETE
DEBUG   2025-08-28 19:39:59,210  pymodbus.logging:transaction.py:193 Running transaction 0
DEBUG   2025-08-28 19:39:59,210  pymodbus.logging:transaction.py:293 SEND: 0x1 0x3 0x30 0x2 0x0 0x2 0x6a 0xcb
DEBUG   2025-08-28 19:39:59,210  pymodbus.logging:serial.py:271 Changing state to IDLE - Last Frame End - 1756381199.210482 Current Time stamp - 1756381199.210482
DEBUG   2025-08-28 19:39:59,210  pymodbus.logging:serial.py:279 Waiting for 3.5 char before next send - 1.823 ms
DEBUG   2025-08-28 19:39:59,213  pymodbus.logging:base.py:250 New Transaction state "SENDING"
DEBUG   2025-08-28 19:39:59,213  pymodbus.logging:transaction.py:317 Changing transaction state from "SENDING" to "WAITING FOR REPLY"
DEBUG   2025-08-28 19:39:59,237  pymodbus.logging:transaction.py:419 Changing transaction state from "WAITING FOR REPLY" to "PROCESSING REPLY"
DEBUG   2025-08-28 19:39:59,237  pymodbus.logging:transaction.py:324 RECV: 0x1 0x3 0x4 0x3f 0x8 0x56 0xe6 0xc9 0xcf
DEBUG   2025-08-28 19:39:59,237  pymodbus.logging:base.py:92 Processing: 0x1 0x3 0x4 0x3f 0x8 0x56 0xe6 0xc9 0xcf
DEBUG   2025-08-28 19:39:59,237  pymodbus.logging:decoders.py:103 decode PDU for 3
DEBUG   2025-08-28 19:39:59,239  pymodbus.logging:base.py:102 Frame advanced, resetting header!!
DEBUG   2025-08-28 19:39:59,239  pymodbus.logging:transaction.py:67 Adding transaction 0
DEBUG   2025-08-28 19:39:59,239  pymodbus.logging:transaction.py:78 Getting transaction 0
DEBUG   2025-08-28 19:39:59,239  pymodbus.logging:transaction.py:258 Changing transaction state from "PROCESSING REPLY" to "TRANSACTION_COMPLETE"
INFO    2025-08-28 19:39:59,239  root:modbus_rtu_tcp.py:44 read_measurement ret is:ReadHoldingRegistersResponse (2)
INFO    2025-08-28 19:39:59,239  root:acudc260_modbus_get.py:145 read i1_current ret is:[16136, 22246]
DEBUG   2025-08-28 19:39:59,239  pymodbus.logging:transaction.py:184 Current transaction state - TRANSACTION_COMPLETE
DEBUG   2025-08-28 19:39:59,239  pymodbus.logging:transaction.py:193 Running transaction 0
DEBUG   2025-08-28 19:39:59,239  pymodbus.logging:transaction.py:293 SEND: 0x1 0x3 0x30 0x4 0x0 0x2 0x8a 0xca
DEBUG   2025-08-28 19:39:59,239  pymodbus.logging:serial.py:271 Changing state to IDLE - Last Frame End - 1756381199.237334 Current Time stamp - 1756381199.239128
DEBUG   2025-08-28 19:39:59,239  pymodbus.logging:serial.py:279 Waiting for 3.5 char before next send - 1.823 ms
DEBUG   2025-08-28 19:39:59,241  pymodbus.logging:base.py:250 New Transaction state "SENDING"
DEBUG   2025-08-28 19:39:59,241  pymodbus.logging:transaction.py:317 Changing transaction state from "SENDING" to "WAITING FOR REPLY"
DEBUG   2025-08-28 19:39:59,271  pymodbus.logging:transaction.py:419 Changing transaction state from "WAITING FOR REPLY" to "PROCESSING REPLY"
DEBUG   2025-08-28 19:39:59,271  pymodbus.logging:transaction.py:324 RECV: 0x1 0x3 0x4 0x3f 0x5 0xd3 0x15 0x7a 0xd9
DEBUG   2025-08-28 19:39:59,271  pymodbus.logging:base.py:92 Processing: 0x1 0x3 0x4 0x3f 0x5 0xd3 0x15 0x7a 0xd9
DEBUG   2025-08-28 19:39:59,271  pymodbus.logging:decoders.py:103 decode PDU for 3
DEBUG   2025-08-28 19:39:59,271  pymodbus.logging:base.py:102 Frame advanced, resetting header!!
DEBUG   2025-08-28 19:39:59,271  pymodbus.logging:transaction.py:67 Adding transaction 0
DEBUG   2025-08-28 19:39:59,271  pymodbus.logging:transaction.py:78 Getting transaction 0
DEBUG   2025-08-28 19:39:59,271  pymodbus.logging:transaction.py:258 Changing transaction state from "PROCESSING REPLY" to "TRANSACTION_COMPLETE"
INFO    2025-08-28 19:39:59,271  root:modbus_rtu_tcp.py:44 read_measurement ret is:ReadHoldingRegistersResponse (2)
INFO    2025-08-28 19:39:59,271  root:acudc260_modbus_get.py:159 read i2_current ret is:[16133, 54037]
DEBUG   2025-08-28 19:39:59,271  pymodbus.logging:transaction.py:184 Current transaction state - TRANSACTION_COMPLETE
DEBUG   2025-08-28 19:39:59,271  pymodbus.logging:transaction.py:193 Running transaction 0
DEBUG   2025-08-28 19:39:59,271  pymodbus.logging:transaction.py:293 SEND: 0x1 0x3 0x30 0x6 0x0 0x2 0x2b 0xa
DEBUG   2025-08-28 19:39:59,272  pymodbus.logging:serial.py:271 Changing state to IDLE - Last Frame End - 1756381199.27011 Current Time stamp - 1756381199.27215
DEBUG   2025-08-28 19:39:59,272  pymodbus.logging:serial.py:279 Waiting for 3.5 char before next send - 1.823 ms
DEBUG   2025-08-28 19:39:59,274  pymodbus.logging:base.py:250 New Transaction state "SENDING"
DEBUG   2025-08-28 19:39:59,274  pymodbus.logging:transaction.py:317 Changing transaction state from "SENDING" to "WAITING FOR REPLY"
DEBUG   2025-08-28 19:39:59,306  pymodbus.logging:transaction.py:419 Changing transaction state from "WAITING FOR REPLY" to "PROCESSING REPLY"
DEBUG   2025-08-28 19:39:59,306  pymodbus.logging:transaction.py:324 RECV: 0x1 0x3 0x4 0x3f 0x81 0xfd 0xf8 0xe7 0x1d
DEBUG   2025-08-28 19:39:59,306  pymodbus.logging:base.py:92 Processing: 0x1 0x3 0x4 0x3f 0x81 0xfd 0xf8 0xe7 0x1d
DEBUG   2025-08-28 19:39:59,306  pymodbus.logging:decoders.py:103 decode PDU for 3
DEBUG   2025-08-28 19:39:59,306  pymodbus.logging:base.py:102 Frame advanced, resetting header!!
DEBUG   2025-08-28 19:39:59,306  pymodbus.logging:transaction.py:67 Adding transaction 0
DEBUG   2025-08-28 19:39:59,306  pymodbus.logging:transaction.py:78 Getting transaction 0
DEBUG   2025-08-28 19:39:59,306  pymodbus.logging:transaction.py:258 Changing transaction state from "PROCESSING REPLY" to "TRANSACTION_COMPLETE"
INFO    2025-08-28 19:39:59,306  root:modbus_rtu_tcp.py:44 read_measurement ret is:ReadHoldingRegistersResponse (2)
INFO    2025-08-28 19:39:59,306  root:acudc260_modbus_get.py:173 read i_sum_current ret is:[16257, 65016]
DEBUG   2025-08-28 19:39:59,306  pymodbus.logging:transaction.py:184 Current transaction state - TRANSACTION_COMPLETE
DEBUG   2025-08-28 19:39:59,306  pymodbus.logging:transaction.py:193 Running transaction 0
DEBUG   2025-08-28 19:39:59,306  pymodbus.logging:transaction.py:293 SEND: 0x1 0x3 0x30 0x8 0x0 0x2 0x4a 0xc9
DEBUG   2025-08-28 19:39:59,306  pymodbus.logging:serial.py:271 Changing state to IDLE - Last Frame End - 1756381199.306895 Current Time stamp - 1756381199.306895
DEBUG   2025-08-28 19:39:59,306  pymodbus.logging:serial.py:279 Waiting for 3.5 char before next send - 1.823 ms
DEBUG   2025-08-28 19:39:59,309  pymodbus.logging:base.py:250 New Transaction state "SENDING"
DEBUG   2025-08-28 19:39:59,309  pymodbus.logging:transaction.py:317 Changing transaction state from "SENDING" to "WAITING FOR REPLY"
DEBUG   2025-08-28 19:39:59,338  pymodbus.logging:transaction.py:419 Changing transaction state from "WAITING FOR REPLY" to "PROCESSING REPLY"
DEBUG   2025-08-28 19:39:59,338  pymodbus.logging:transaction.py:324 RECV: 0x1 0x3 0x4 0x3c 0xfa 0xa4 0x2f 0xed 0x4e
DEBUG   2025-08-28 19:39:59,338  pymodbus.logging:base.py:92 Processing: 0x1 0x3 0x4 0x3c 0xfa 0xa4 0x2f 0xed 0x4e
DEBUG   2025-08-28 19:39:59,339  pymodbus.logging:decoders.py:103 decode PDU for 3
DEBUG   2025-08-28 19:39:59,339  pymodbus.logging:base.py:102 Frame advanced, resetting header!!
DEBUG   2025-08-28 19:39:59,339  pymodbus.logging:transaction.py:67 Adding transaction 0
DEBUG   2025-08-28 19:39:59,339  pymodbus.logging:transaction.py:78 Getting transaction 0
DEBUG   2025-08-28 19:39:59,339  pymodbus.logging:transaction.py:258 Changing transaction state from "PROCESSING REPLY" to "TRANSACTION_COMPLETE"
INFO    2025-08-28 19:39:59,339  root:modbus_rtu_tcp.py:44 read_measurement ret is:ReadHoldingRegistersResponse (2)
INFO    2025-08-28 19:39:59,339  root:acudc260_modbus_get.py:187 read p1_power ret is:[15610, 42031]
DEBUG   2025-08-28 19:39:59,339  pymodbus.logging:transaction.py:184 Current transaction state - TRANSACTION_COMPLETE
DEBUG   2025-08-28 19:39:59,339  pymodbus.logging:transaction.py:193 Running transaction 0
DEBUG   2025-08-28 19:39:59,339  pymodbus.logging:transaction.py:293 SEND: 0x1 0x3 0x30 0xa 0x0 0x2 0xeb 0x9
DEBUG   2025-08-28 19:39:59,339  pymodbus.logging:serial.py:271 Changing state to IDLE - Last Frame End - 1756381199.33875 Current Time stamp - 1756381199.339439
DEBUG   2025-08-28 19:39:59,339  pymodbus.logging:serial.py:279 Waiting for 3.5 char before next send - 1.823 ms
DEBUG   2025-08-28 19:39:59,342  pymodbus.logging:base.py:250 New Transaction state "SENDING"
DEBUG   2025-08-28 19:39:59,342  pymodbus.logging:transaction.py:317 Changing transaction state from "SENDING" to "WAITING FOR REPLY"
DEBUG   2025-08-28 19:39:59,369  pymodbus.logging:transaction.py:419 Changing transaction state from "WAITING FOR REPLY" to "PROCESSING REPLY"
DEBUG   2025-08-28 19:39:59,369  pymodbus.logging:transaction.py:324 RECV: 0x1 0x3 0x4 0x3c 0xf8 0xa1 0x4c 0xf 0xf7
DEBUG   2025-08-28 19:39:59,369  pymodbus.logging:base.py:92 Processing: 0x1 0x3 0x4 0x3c 0xf8 0xa1 0x4c 0xf 0xf7
DEBUG   2025-08-28 19:39:59,369  pymodbus.logging:decoders.py:103 decode PDU for 3
DEBUG   2025-08-28 19:39:59,369  pymodbus.logging:base.py:102 Frame advanced, resetting header!!
DEBUG   2025-08-28 19:39:59,369  pymodbus.logging:transaction.py:67 Adding transaction 0
DEBUG   2025-08-28 19:39:59,369  pymodbus.logging:transaction.py:78 Getting transaction 0
DEBUG   2025-08-28 19:39:59,369  pymodbus.logging:transaction.py:258 Changing transaction state from "PROCESSING REPLY" to "TRANSACTION_COMPLETE"
INFO    2025-08-28 19:39:59,369  root:modbus_rtu_tcp.py:44 read_measurement ret is:ReadHoldingRegistersResponse (2)
INFO    2025-08-28 19:39:59,369  root:acudc260_modbus_get.py:201 read p2_power ret is:[15608, 41292]
DEBUG   2025-08-28 19:39:59,369  pymodbus.logging:transaction.py:184 Current transaction state - TRANSACTION_COMPLETE
DEBUG   2025-08-28 19:39:59,370  pymodbus.logging:transaction.py:193 Running transaction 0
DEBUG   2025-08-28 19:39:59,370  pymodbus.logging:transaction.py:293 SEND: 0x1 0x3 0x30 0xc 0x0 0x2 0xb 0x8
DEBUG   2025-08-28 19:39:59,370  pymodbus.logging:serial.py:271 Changing state to IDLE - Last Frame End - 1756381199.369813 Current Time stamp - 1756381199.370946
DEBUG   2025-08-28 19:39:59,370  pymodbus.logging:serial.py:279 Waiting for 3.5 char before next send - 1.823 ms
DEBUG   2025-08-28 19:39:59,373  pymodbus.logging:base.py:250 New Transaction state "SENDING"
DEBUG   2025-08-28 19:39:59,373  pymodbus.logging:transaction.py:317 Changing transaction state from "SENDING" to "WAITING FOR REPLY"
DEBUG   2025-08-28 19:39:59,401  pymodbus.logging:transaction.py:419 Changing transaction state from "WAITING FOR REPLY" to "PROCESSING REPLY"
DEBUG   2025-08-28 19:39:59,401  pymodbus.logging:transaction.py:324 RECV: 0x1 0x3 0x4 0x3d 0x83 0xc5 0x13 0x14 0xea
DEBUG   2025-08-28 19:39:59,401  pymodbus.logging:base.py:92 Processing: 0x1 0x3 0x4 0x3d 0x83 0xc5 0x13 0x14 0xea
DEBUG   2025-08-28 19:39:59,401  pymodbus.logging:decoders.py:103 decode PDU for 3
DEBUG   2025-08-28 19:39:59,401  pymodbus.logging:base.py:102 Frame advanced, resetting header!!
DEBUG   2025-08-28 19:39:59,401  pymodbus.logging:transaction.py:67 Adding transaction 0
DEBUG   2025-08-28 19:39:59,401  pymodbus.logging:transaction.py:78 Getting transaction 0
DEBUG   2025-08-28 19:39:59,401  pymodbus.logging:transaction.py:258 Changing transaction state from "PROCESSING REPLY" to "TRANSACTION_COMPLETE"
INFO    2025-08-28 19:39:59,401  root:modbus_rtu_tcp.py:44 read_measurement ret is:ReadHoldingRegistersResponse (2)
INFO    2025-08-28 19:39:59,401  root:acudc260_modbus_get.py:215 read p_sum_power ret is:[15747, 50451]
DEBUG   2025-08-28 19:39:59,502  pymodbus.logging:transaction.py:184 Current transaction state - TRANSACTION_COMPLETE
DEBUG   2025-08-28 19:39:59,502  pymodbus.logging:transaction.py:193 Running transaction 0
DEBUG   2025-08-28 19:39:59,502  pymodbus.logging:transaction.py:293 SEND: 0x1 0x3 0x30 0x0 0x0 0x2 0xcb 0xb
DEBUG   2025-08-28 19:39:59,502  pymodbus.logging:serial.py:271 Changing state to IDLE - Last Frame End - 1756381199.401231 Current Time stamp - 1756381199.502727
DEBUG   2025-08-28 19:39:59,502  pymodbus.logging:base.py:250 New Transaction state "SENDING"
DEBUG   2025-08-28 19:39:59,502  pymodbus.logging:transaction.py:317 Changing transaction state from "SENDING" to "WAITING FOR REPLY"
DEBUG   2025-08-28 19:39:59,529  pymodbus.logging:transaction.py:419 Changing transaction state from "WAITING FOR REPLY" to "PROCESSING REPLY"
DEBUG   2025-08-28 19:39:59,529  pymodbus.logging:transaction.py:324 RECV: 0x1 0x3 0x4 0x42 0x70 0x6 0x90 0xec 0x5c
DEBUG   2025-08-28 19:39:59,529  pymodbus.logging:base.py:92 Processing: 0x1 0x3 0x4 0x42 0x70 0x6 0x90 0xec 0x5c
DEBUG   2025-08-28 19:39:59,529  pymodbus.logging:decoders.py:103 decode PDU for 3
DEBUG   2025-08-28 19:39:59,529  pymodbus.logging:base.py:102 Frame advanced, resetting header!!
DEBUG   2025-08-28 19:39:59,529  pymodbus.logging:transaction.py:67 Adding transaction 0
DEBUG   2025-08-28 19:39:59,529  pymodbus.logging:transaction.py:78 Getting transaction 0
DEBUG   2025-08-28 19:39:59,529  pymodbus.logging:transaction.py:258 Changing transaction state from "PROCESSING REPLY" to "TRANSACTION_COMPLETE"
INFO    2025-08-28 19:39:59,529  root:modbus_rtu_tcp.py:44 read_measurement ret is:ReadHoldingRegistersResponse (2)
INFO    2025-08-28 19:39:59,529  root:acudc260_modbus_get.py:131 read u_voltage ret is:[17008, 1680]
DEBUG   2025-08-28 19:39:59,529  pymodbus.logging:transaction.py:184 Current transaction state - TRANSACTION_COMPLETE
DEBUG   2025-08-28 19:39:59,529  pymodbus.logging:transaction.py:193 Running transaction 0
DEBUG   2025-08-28 19:39:59,529  pymodbus.logging:transaction.py:293 SEND: 0x1 0x3 0x30 0x2 0x0 0x2 0x6a 0xcb
DEBUG   2025-08-28 19:39:59,529  pymodbus.logging:serial.py:271 Changing state to IDLE - Last Frame End - 1756381199.529371 Current Time stamp - 1756381199.529371
DEBUG   2025-08-28 19:39:59,529  pymodbus.logging:serial.py:279 Waiting for 3.5 char before next send - 1.823 ms
DEBUG   2025-08-28 19:39:59,532  pymodbus.logging:base.py:250 New Transaction state "SENDING"
DEBUG   2025-08-28 19:39:59,533  pymodbus.logging:transaction.py:317 Changing transaction state from "SENDING" to "WAITING FOR REPLY"
DEBUG   2025-08-28 19:39:59,564  pymodbus.logging:transaction.py:419 Changing transaction state from "WAITING FOR REPLY" to "PROCESSING REPLY"
DEBUG   2025-08-28 19:39:59,564  pymodbus.logging:transaction.py:324 RECV: 0x1 0x3 0x4 0x3f 0x8 0x94 0x83 0x58 0x84
DEBUG   2025-08-28 19:39:59,564  pymodbus.logging:base.py:92 Processing: 0x1 0x3 0x4 0x3f 0x8 0x94 0x83 0x58 0x84
DEBUG   2025-08-28 19:39:59,564  pymodbus.logging:decoders.py:103 decode PDU for 3
DEBUG   2025-08-28 19:39:59,564  pymodbus.logging:base.py:102 Frame advanced, resetting header!!
DEBUG   2025-08-28 19:39:59,564  pymodbus.logging:transaction.py:67 Adding transaction 0
DEBUG   2025-08-28 19:39:59,564  pymodbus.logging:transaction.py:78 Getting transaction 0
DEBUG   2025-08-28 19:39:59,564  pymodbus.logging:transaction.py:258 Changing transaction state from "PROCESSING REPLY" to "TRANSACTION_COMPLETE"
INFO    2025-08-28 19:39:59,564  root:modbus_rtu_tcp.py:44 read_measurement ret is:ReadHoldingRegistersResponse (2)
INFO    2025-08-28 19:39:59,564  root:acudc260_modbus_get.py:145 read i1_current ret is:[16136, 38019]
DEBUG   2025-08-28 19:39:59,564  pymodbus.logging:transaction.py:184 Current transaction state - TRANSACTION_COMPLETE
DEBUG   2025-08-28 19:39:59,564  pymodbus.logging:transaction.py:193 Running transaction 0
DEBUG   2025-08-28 19:39:59,564  pymodbus.logging:transaction.py:293 SEND: 0x1 0x3 0x30 0x4 0x0 0x2 0x8a 0xca
DEBUG   2025-08-28 19:39:59,564  pymodbus.logging:serial.py:271 Changing state to IDLE - Last Frame End - 1756381199.564047 Current Time stamp - 1756381199.564047
DEBUG   2025-08-28 19:39:59,564  pymodbus.logging:serial.py:279 Waiting for 3.5 char before next send - 1.823 ms
DEBUG   2025-08-28 19:39:59,566  pymodbus.logging:base.py:250 New Transaction state "SENDING"
DEBUG   2025-08-28 19:39:59,567  pymodbus.logging:transaction.py:317 Changing transaction state from "SENDING" to "WAITING FOR REPLY"
DEBUG   2025-08-28 19:39:59,593  pymodbus.logging:transaction.py:419 Changing transaction state from "WAITING FOR REPLY" to "PROCESSING REPLY"
DEBUG   2025-08-28 19:39:59,593  pymodbus.logging:transaction.py:324 RECV: 0x1 0x3 0x4 0x3f 0x3 0x73 0xeb 0x63 0x58
DEBUG   2025-08-28 19:39:59,593  pymodbus.logging:base.py:92 Processing: 0x1 0x3 0x4 0x3f 0x3 0x73 0xeb 0x63 0x58
DEBUG   2025-08-28 19:39:59,593  pymodbus.logging:decoders.py:103 decode PDU for 3
DEBUG   2025-08-28 19:39:59,593  pymodbus.logging:base.py:102 Frame advanced, resetting header!!
DEBUG   2025-08-28 19:39:59,593  pymodbus.logging:transaction.py:67 Adding transaction 0
DEBUG   2025-08-28 19:39:59,593  pymodbus.logging:transaction.py:78 Getting transaction 0
DEBUG   2025-08-28 19:39:59,593  pymodbus.logging:transaction.py:258 Changing transaction state from "PROCESSING REPLY" to "TRANSACTION_COMPLETE"
INFO    2025-08-28 19:39:59,593  root:modbus_rtu_tcp.py:44 read_measurement ret is:ReadHoldingRegistersResponse (2)
INFO    2025-08-28 19:39:59,593  root:acudc260_modbus_get.py:159 read i2_current ret is:[16131, 29675]
DEBUG   2025-08-28 19:39:59,593  pymodbus.logging:transaction.py:184 Current transaction state - TRANSACTION_COMPLETE
DEBUG   2025-08-28 19:39:59,593  pymodbus.logging:transaction.py:193 Running transaction 0
DEBUG   2025-08-28 19:39:59,593  pymodbus.logging:transaction.py:293 SEND: 0x1 0x3 0x30 0x6 0x0 0x2 0x2b 0xa
DEBUG   2025-08-28 19:39:59,593  pymodbus.logging:serial.py:271 Changing state to IDLE - Last Frame End - 1756381199.593922 Current Time stamp - 1756381199.593922
DEBUG   2025-08-28 19:39:59,595  pymodbus.logging:serial.py:279 Waiting for 3.5 char before next send - 1.823 ms
DEBUG   2025-08-28 19:39:59,597  pymodbus.logging:base.py:250 New Transaction state "SENDING"
DEBUG   2025-08-28 19:39:59,597  pymodbus.logging:transaction.py:317 Changing transaction state from "SENDING" to "WAITING FOR REPLY"
DEBUG   2025-08-28 19:39:59,626  pymodbus.logging:transaction.py:419 Changing transaction state from "WAITING FOR REPLY" to "PROCESSING REPLY"
DEBUG   2025-08-28 19:39:59,626  pymodbus.logging:transaction.py:324 RECV: 0x1 0x3 0x4 0x3f 0x84 0xc4 0xcf 0xa4 0x9a
DEBUG   2025-08-28 19:39:59,626  pymodbus.logging:base.py:92 Processing: 0x1 0x3 0x4 0x3f 0x84 0xc4 0xcf 0xa4 0x9a
DEBUG   2025-08-28 19:39:59,626  pymodbus.logging:decoders.py:103 decode PDU for 3
DEBUG   2025-08-28 19:39:59,626  pymodbus.logging:base.py:102 Frame advanced, resetting header!!
DEBUG   2025-08-28 19:39:59,626  pymodbus.logging:transaction.py:67 Adding transaction 0
DEBUG   2025-08-28 19:39:59,626  pymodbus.logging:transaction.py:78 Getting transaction 0
DEBUG   2025-08-28 19:39:59,626  pymodbus.logging:transaction.py:258 Changing transaction state from "PROCESSING REPLY" to "TRANSACTION_COMPLETE"
INFO    2025-08-28 19:39:59,626  root:modbus_rtu_tcp.py:44 read_measurement ret is:ReadHoldingRegistersResponse (2)
INFO    2025-08-28 19:39:59,626  root:acudc260_modbus_get.py:173 read i_sum_current ret is:[16260, 50383]
DEBUG   2025-08-28 19:39:59,626  pymodbus.logging:transaction.py:184 Current transaction state - TRANSACTION_COMPLETE
DEBUG   2025-08-28 19:39:59,626  pymodbus.logging:transaction.py:193 Running transaction 0
DEBUG   2025-08-28 19:39:59,627  pymodbus.logging:transaction.py:293 SEND: 0x1 0x3 0x30 0x8 0x0 0x2 0x4a 0xc9
DEBUG   2025-08-28 19:39:59,627  pymodbus.logging:serial.py:271 Changing state to IDLE - Last Frame End - 1756381199.626117 Current Time stamp - 1756381199.627278
DEBUG   2025-08-28 19:39:59,627  pymodbus.logging:serial.py:279 Waiting for 3.5 char before next send - 1.823 ms
DEBUG   2025-08-28 19:39:59,629  pymodbus.logging:base.py:250 New Transaction state "SENDING"
DEBUG   2025-08-28 19:39:59,629  pymodbus.logging:transaction.py:317 Changing transaction state from "SENDING" to "WAITING FOR REPLY"
DEBUG   2025-08-28 19:39:59,659  pymodbus.logging:transaction.py:419 Changing transaction state from "WAITING FOR REPLY" to "PROCESSING REPLY"
DEBUG   2025-08-28 19:39:59,659  pymodbus.logging:transaction.py:324 RECV: 0x1 0x3 0x4 0x3d 0x0 0xbd 0xb1 0x46 0xbb
DEBUG   2025-08-28 19:39:59,659  pymodbus.logging:base.py:92 Processing: 0x1 0x3 0x4 0x3d 0x0 0xbd 0xb1 0x46 0xbb
DEBUG   2025-08-28 19:39:59,659  pymodbus.logging:decoders.py:103 decode PDU for 3
DEBUG   2025-08-28 19:39:59,659  pymodbus.logging:base.py:102 Frame advanced, resetting header!!
DEBUG   2025-08-28 19:39:59,660  pymodbus.logging:transaction.py:67 Adding transaction 0
DEBUG   2025-08-28 19:39:59,660  pymodbus.logging:transaction.py:78 Getting transaction 0
DEBUG   2025-08-28 19:39:59,660  pymodbus.logging:transaction.py:258 Changing transaction state from "PROCESSING REPLY" to "TRANSACTION_COMPLETE"
INFO    2025-08-28 19:39:59,660  root:modbus_rtu_tcp.py:44 read_measurement ret is:ReadHoldingRegistersResponse (2)
INFO    2025-08-28 19:39:59,660  root:acudc260_modbus_get.py:187 read p1_power ret is:[15616, 48561]
DEBUG   2025-08-28 19:39:59,660  pymodbus.logging:transaction.py:184 Current transaction state - TRANSACTION_COMPLETE
DEBUG   2025-08-28 19:39:59,660  pymodbus.logging:transaction.py:193 Running transaction 0
DEBUG   2025-08-28 19:39:59,660  pymodbus.logging:transaction.py:293 SEND: 0x1 0x3 0x30 0xa 0x0 0x2 0xeb 0x9
DEBUG   2025-08-28 19:39:59,660  pymodbus.logging:serial.py:271 Changing state to IDLE - Last Frame End - 1756381199.659713 Current Time stamp - 1756381199.660355
DEBUG   2025-08-28 19:39:59,660  pymodbus.logging:serial.py:279 Waiting for 3.5 char before next send - 1.823 ms
DEBUG   2025-08-28 19:39:59,663  pymodbus.logging:base.py:250 New Transaction state "SENDING"
DEBUG   2025-08-28 19:39:59,663  pymodbus.logging:transaction.py:317 Changing transaction state from "SENDING" to "WAITING FOR REPLY"
DEBUG   2025-08-28 19:39:59,685  pymodbus.logging:transaction.py:419 Changing transaction state from "WAITING FOR REPLY" to "PROCESSING REPLY"
DEBUG   2025-08-28 19:39:59,687  pymodbus.logging:transaction.py:324 RECV: 0x1 0x3 0x4 0x3d 0x0 0x2c 0x6c 0xeb 0x72
DEBUG   2025-08-28 19:39:59,687  pymodbus.logging:base.py:92 Processing: 0x1 0x3 0x4 0x3d 0x0 0x2c 0x6c 0xeb 0x72
DEBUG   2025-08-28 19:39:59,687  pymodbus.logging:decoders.py:103 decode PDU for 3
DEBUG   2025-08-28 19:39:59,687  pymodbus.logging:base.py:102 Frame advanced, resetting header!!
DEBUG   2025-08-28 19:39:59,687  pymodbus.logging:transaction.py:67 Adding transaction 0
DEBUG   2025-08-28 19:39:59,687  pymodbus.logging:transaction.py:78 Getting transaction 0
DEBUG   2025-08-28 19:39:59,687  pymodbus.logging:transaction.py:258 Changing transaction state from "PROCESSING REPLY" to "TRANSACTION_COMPLETE"
INFO    2025-08-28 19:39:59,687  root:modbus_rtu_tcp.py:44 read_measurement ret is:ReadHoldingRegistersResponse (2)
INFO    2025-08-28 19:39:59,687  root:acudc260_modbus_get.py:201 read p2_power ret is:[15616, 11372]
DEBUG   2025-08-28 19:39:59,687  pymodbus.logging:transaction.py:184 Current transaction state - TRANSACTION_COMPLETE
DEBUG   2025-08-28 19:39:59,687  pymodbus.logging:transaction.py:193 Running transaction 0
DEBUG   2025-08-28 19:39:59,687  pymodbus.logging:transaction.py:293 SEND: 0x1 0x3 0x30 0xc 0x0 0x2 0xb 0x8
DEBUG   2025-08-28 19:39:59,687  pymodbus.logging:serial.py:271 Changing state to IDLE - Last Frame End - 1756381199.685634 Current Time stamp - 1756381199.687015
DEBUG   2025-08-28 19:39:59,688  pymodbus.logging:serial.py:279 Waiting for 3.5 char before next send - 1.823 ms
DEBUG   2025-08-28 19:39:59,690  pymodbus.logging:base.py:250 New Transaction state "SENDING"
DEBUG   2025-08-28 19:39:59,690  pymodbus.logging:transaction.py:317 Changing transaction state from "SENDING" to "WAITING FOR REPLY"
DEBUG   2025-08-28 19:39:59,721  pymodbus.logging:transaction.py:419 Changing transaction state from "WAITING FOR REPLY" to "PROCESSING REPLY"
DEBUG   2025-08-28 19:39:59,721  pymodbus.logging:transaction.py:324 RECV: 0x1 0x3 0x4 0x3d 0x80 0xeb 0x5f 0xf8 0xbf
DEBUG   2025-08-28 19:39:59,721  pymodbus.logging:base.py:92 Processing: 0x1 0x3 0x4 0x3d 0x80 0xeb 0x5f 0xf8 0xbf
DEBUG   2025-08-28 19:39:59,721  pymodbus.logging:decoders.py:103 decode PDU for 3
DEBUG   2025-08-28 19:39:59,721  pymodbus.logging:base.py:102 Frame advanced, resetting header!!
DEBUG   2025-08-28 19:39:59,721  pymodbus.logging:transaction.py:67 Adding transaction 0
DEBUG   2025-08-28 19:39:59,721  pymodbus.logging:transaction.py:78 Getting transaction 0
DEBUG   2025-08-28 19:39:59,721  pymodbus.logging:transaction.py:258 Changing transaction state from "PROCESSING REPLY" to "TRANSACTION_COMPLETE"
INFO    2025-08-28 19:39:59,721  root:modbus_rtu_tcp.py:44 read_measurement ret is:ReadHoldingRegistersResponse (2)
INFO    2025-08-28 19:39:59,722  root:acudc260_modbus_get.py:215 read p_sum_power ret is:[15744, 60255]
DEBUG   2025-08-28 19:39:59,823  pymodbus.logging:transaction.py:184 Current transaction state - TRANSACTION_COMPLETE
DEBUG   2025-08-28 19:39:59,823  pymodbus.logging:transaction.py:193 Running transaction 0
DEBUG   2025-08-28 19:39:59,823  pymodbus.logging:transaction.py:293 SEND: 0x1 0x3 0x30 0x0 0x0 0x2 0xcb 0xb
DEBUG   2025-08-28 19:39:59,823  pymodbus.logging:serial.py:271 Changing state to IDLE - Last Frame End - 1756381199.721697 Current Time stamp - 1756381199.823392
DEBUG   2025-08-28 19:39:59,823  pymodbus.logging:base.py:250 New Transaction state "SENDING"
DEBUG   2025-08-28 19:39:59,823  pymodbus.logging:transaction.py:317 Changing transaction state from "SENDING" to "WAITING FOR REPLY"
DEBUG   2025-08-28 19:39:59,850  pymodbus.logging:transaction.py:419 Changing transaction state from "WAITING FOR REPLY" to "PROCESSING REPLY"
DEBUG   2025-08-28 19:39:59,850  pymodbus.logging:transaction.py:324 RECV: 0x1 0x3 0x4 0x42 0x6f 0xff 0x61 0x5e 0x4e
DEBUG   2025-08-28 19:39:59,850  pymodbus.logging:base.py:92 Processing: 0x1 0x3 0x4 0x42 0x6f 0xff 0x61 0x5e 0x4e
DEBUG   2025-08-28 19:39:59,851  pymodbus.logging:decoders.py:103 decode PDU for 3
DEBUG   2025-08-28 19:39:59,851  pymodbus.logging:base.py:102 Frame advanced, resetting header!!
DEBUG   2025-08-28 19:39:59,851  pymodbus.logging:transaction.py:67 Adding transaction 0
DEBUG   2025-08-28 19:39:59,851  pymodbus.logging:transaction.py:78 Getting transaction 0
DEBUG   2025-08-28 19:39:59,851  pymodbus.logging:transaction.py:258 Changing transaction state from "PROCESSING REPLY" to "TRANSACTION_COMPLETE"
INFO    2025-08-28 19:39:59,851  root:modbus_rtu_tcp.py:44 read_measurement ret is:ReadHoldingRegistersResponse (2)
INFO    2025-08-28 19:39:59,851  root:acudc260_modbus_get.py:131 read u_voltage ret is:[17007, 65377]
DEBUG   2025-08-28 19:39:59,851  pymodbus.logging:transaction.py:184 Current transaction state - TRANSACTION_COMPLETE
DEBUG   2025-08-28 19:39:59,851  pymodbus.logging:transaction.py:193 Running transaction 0
DEBUG   2025-08-28 19:39:59,851  pymodbus.logging:transaction.py:293 SEND: 0x1 0x3 0x30 0x2 0x0 0x2 0x6a 0xcb
DEBUG   2025-08-28 19:39:59,851  pymodbus.logging:serial.py:271 Changing state to IDLE - Last Frame End - 1756381199.850477 Current Time stamp - 1756381199.85104
DEBUG   2025-08-28 19:39:59,851  pymodbus.logging:serial.py:279 Waiting for 3.5 char before next send - 1.823 ms
DEBUG   2025-08-28 19:39:59,853  pymodbus.logging:base.py:250 New Transaction state "SENDING"
DEBUG   2025-08-28 19:39:59,853  pymodbus.logging:transaction.py:317 Changing transaction state from "SENDING" to "WAITING FOR REPLY"
DEBUG   2025-08-28 19:39:59,882  pymodbus.logging:transaction.py:419 Changing transaction state from "WAITING FOR REPLY" to "PROCESSING REPLY"
DEBUG   2025-08-28 19:39:59,898  pymodbus.logging:transaction.py:324 RECV: 0x1 0x3 0x4 0x3f 0x8 0x64 0x83 0x1c 0x84
DEBUG   2025-08-28 19:39:59,898  pymodbus.logging:base.py:92 Processing: 0x1 0x3 0x4 0x3f 0x8 0x64 0x83 0x1c 0x84
DEBUG   2025-08-28 19:39:59,899  pymodbus.logging:decoders.py:103 decode PDU for 3
DEBUG   2025-08-28 19:39:59,899  pymodbus.logging:base.py:102 Frame advanced, resetting header!!
DEBUG   2025-08-28 19:39:59,899  pymodbus.logging:transaction.py:67 Adding transaction 0
DEBUG   2025-08-28 19:39:59,899  pymodbus.logging:transaction.py:78 Getting transaction 0
DEBUG   2025-08-28 19:39:59,899  pymodbus.logging:transaction.py:258 Changing transaction state from "PROCESSING REPLY" to "TRANSACTION_COMPLETE"
INFO    2025-08-28 19:39:59,899  root:modbus_rtu_tcp.py:44 read_measurement ret is:ReadHoldingRegistersResponse (2)
INFO    2025-08-28 19:39:59,899  root:acudc260_modbus_get.py:145 read i1_current ret is:[16136, 25731]
DEBUG   2025-08-28 19:39:59,899  pymodbus.logging:transaction.py:184 Current transaction state - TRANSACTION_COMPLETE
DEBUG   2025-08-28 19:39:59,899  pymodbus.logging:transaction.py:193 Running transaction 0
DEBUG   2025-08-28 19:39:59,899  pymodbus.logging:transaction.py:293 SEND: 0x1 0x3 0x30 0x4 0x0 0x2 0x8a 0xca
DEBUG   2025-08-28 19:39:59,899  pymodbus.logging:serial.py:271 Changing state to IDLE - Last Frame End - 1756381199.882304 Current Time stamp - 1756381199.899065
DEBUG   2025-08-28 19:39:59,899  pymodbus.logging:base.py:250 New Transaction state "SENDING"
DEBUG   2025-08-28 19:39:59,899  pymodbus.logging:transaction.py:317 Changing transaction state from "SENDING" to "WAITING FOR REPLY"
DEBUG   2025-08-28 19:39:59,926  pymodbus.logging:transaction.py:419 Changing transaction state from "WAITING FOR REPLY" to "PROCESSING REPLY"
DEBUG   2025-08-28 19:39:59,926  pymodbus.logging:transaction.py:324 RECV: 0x1 0x3 0x4 0x3f 0x9 0x83 0xb0 0x46 0xa1
DEBUG   2025-08-28 19:39:59,926  pymodbus.logging:base.py:92 Processing: 0x1 0x3 0x4 0x3f 0x9 0x83 0xb0 0x46 0xa1
DEBUG   2025-08-28 19:39:59,926  pymodbus.logging:decoders.py:103 decode PDU for 3
DEBUG   2025-08-28 19:39:59,926  pymodbus.logging:base.py:102 Frame advanced, resetting header!!
DEBUG   2025-08-28 19:39:59,926  pymodbus.logging:transaction.py:67 Adding transaction 0
DEBUG   2025-08-28 19:39:59,926  pymodbus.logging:transaction.py:78 Getting transaction 0
DEBUG   2025-08-28 19:39:59,926  pymodbus.logging:transaction.py:258 Changing transaction state from "PROCESSING REPLY" to "TRANSACTION_COMPLETE"
INFO    2025-08-28 19:39:59,926  root:modbus_rtu_tcp.py:44 read_measurement ret is:ReadHoldingRegistersResponse (2)
INFO    2025-08-28 19:39:59,926  root:acudc260_modbus_get.py:159 read i2_current ret is:[16137, 33712]
DEBUG   2025-08-28 19:39:59,927  pymodbus.logging:transaction.py:184 Current transaction state - TRANSACTION_COMPLETE
DEBUG   2025-08-28 19:39:59,927  pymodbus.logging:transaction.py:193 Running transaction 0
DEBUG   2025-08-28 19:39:59,927  pymodbus.logging:transaction.py:293 SEND: 0x1 0x3 0x30 0x6 0x0 0x2 0x2b 0xa
DEBUG   2025-08-28 19:39:59,927  pymodbus.logging:serial.py:271 Changing state to IDLE - Last Frame End - 1756381199.926512 Current Time stamp - 1756381199.927495
DEBUG   2025-08-28 19:39:59,927  pymodbus.logging:serial.py:279 Waiting for 3.5 char before next send - 1.823 ms
DEBUG   2025-08-28 19:39:59,930  pymodbus.logging:base.py:250 New Transaction state "SENDING"
DEBUG   2025-08-28 19:39:59,930  pymodbus.logging:transaction.py:317 Changing transaction state from "SENDING" to "WAITING FOR REPLY"
DEBUG   2025-08-28 19:39:59,958  pymodbus.logging:transaction.py:419 Changing transaction state from "WAITING FOR REPLY" to "PROCESSING REPLY"
DEBUG   2025-08-28 19:39:59,958  pymodbus.logging:transaction.py:324 RECV: 0x1 0x3 0x4 0x3f 0x88 0xf4 0x1a 0xb1 0x6
DEBUG   2025-08-28 19:39:59,958  pymodbus.logging:base.py:92 Processing: 0x1 0x3 0x4 0x3f 0x88 0xf4 0x1a 0xb1 0x6
DEBUG   2025-08-28 19:39:59,958  pymodbus.logging:decoders.py:103 decode PDU for 3
DEBUG   2025-08-28 19:39:59,958  pymodbus.logging:base.py:102 Frame advanced, resetting header!!
DEBUG   2025-08-28 19:39:59,958  pymodbus.logging:transaction.py:67 Adding transaction 0
DEBUG   2025-08-28 19:39:59,958  pymodbus.logging:transaction.py:78 Getting transaction 0
DEBUG   2025-08-28 19:39:59,958  pymodbus.logging:transaction.py:258 Changing transaction state from "PROCESSING REPLY" to "TRANSACTION_COMPLETE"
INFO    2025-08-28 19:39:59,958  root:modbus_rtu_tcp.py:44 read_measurement ret is:ReadHoldingRegistersResponse (2)
INFO    2025-08-28 19:39:59,958  root:acudc260_modbus_get.py:173 read i_sum_current ret is:[16264, 62490]
DEBUG   2025-08-28 19:39:59,958  pymodbus.logging:transaction.py:184 Current transaction state - TRANSACTION_COMPLETE
DEBUG   2025-08-28 19:39:59,958  pymodbus.logging:transaction.py:193 Running transaction 0
DEBUG   2025-08-28 19:39:59,958  pymodbus.logging:transaction.py:293 SEND: 0x1 0x3 0x30 0x8 0x0 0x2 0x4a 0xc9
DEBUG   2025-08-28 19:39:59,959  pymodbus.logging:serial.py:271 Changing state to IDLE - Last Frame End - 1756381199.958418 Current Time stamp - 1756381199.958418
DEBUG   2025-08-28 19:39:59,959  pymodbus.logging:serial.py:279 Waiting for 3.5 char before next send - 1.823 ms
DEBUG   2025-08-28 19:39:59,961  pymodbus.logging:base.py:250 New Transaction state "SENDING"
DEBUG   2025-08-28 19:39:59,962  pymodbus.logging:transaction.py:317 Changing transaction state from "SENDING" to "WAITING FOR REPLY"
DEBUG   2025-08-28 19:39:59,990  pymodbus.logging:transaction.py:419 Changing transaction state from "WAITING FOR REPLY" to "PROCESSING REPLY"
DEBUG   2025-08-28 19:39:59,990  pymodbus.logging:transaction.py:324 RECV: 0x1 0x3 0x4 0x3d 0x2 0xc7 0xcc 0x4 0x3a
DEBUG   2025-08-28 19:39:59,990  pymodbus.logging:base.py:92 Processing: 0x1 0x3 0x4 0x3d 0x2 0xc7 0xcc 0x4 0x3a
DEBUG   2025-08-28 19:39:59,990  pymodbus.logging:decoders.py:103 decode PDU for 3
DEBUG   2025-08-28 19:39:59,990  pymodbus.logging:base.py:102 Frame advanced, resetting header!!
DEBUG   2025-08-28 19:39:59,990  pymodbus.logging:transaction.py:67 Adding transaction 0
DEBUG   2025-08-28 19:39:59,990  pymodbus.logging:transaction.py:78 Getting transaction 0
DEBUG   2025-08-28 19:39:59,990  pymodbus.logging:transaction.py:258 Changing transaction state from "PROCESSING REPLY" to "TRANSACTION_COMPLETE"
INFO    2025-08-28 19:39:59,990  root:modbus_rtu_tcp.py:44 read_measurement ret is:ReadHoldingRegistersResponse (2)
INFO    2025-08-28 19:39:59,990  root:acudc260_modbus_get.py:187 read p1_power ret is:[15618, 51148]
DEBUG   2025-08-28 19:39:59,990  pymodbus.logging:transaction.py:184 Current transaction state - TRANSACTION_COMPLETE
DEBUG   2025-08-28 19:39:59,990  pymodbus.logging:transaction.py:193 Running transaction 0
DEBUG   2025-08-28 19:39:59,990  pymodbus.logging:transaction.py:293 SEND: 0x1 0x3 0x30 0xa 0x0 0x2 0xeb 0x9
DEBUG   2025-08-28 19:39:59,990  pymodbus.logging:serial.py:271 Changing state to IDLE - Last Frame End - 1756381199.990696 Current Time stamp - 1756381199.990696
DEBUG   2025-08-28 19:39:59,990  pymodbus.logging:serial.py:279 Waiting for 3.5 char before next send - 1.823 ms
DEBUG   2025-08-28 19:39:59,993  pymodbus.logging:base.py:250 New Transaction state "SENDING"
DEBUG   2025-08-28 19:39:59,993  pymodbus.logging:transaction.py:317 Changing transaction state from "SENDING" to "WAITING FOR REPLY"
DEBUG   2025-08-28 19:40:00,021  pymodbus.logging:transaction.py:419 Changing transaction state from "WAITING FOR REPLY" to "PROCESSING REPLY"
DEBUG   2025-08-28 19:40:00,021  pymodbus.logging:transaction.py:324 RECV: 0x1 0x3 0x4 0x3c 0xfd 0xe6 0xfc 0x2d 0xb2
DEBUG   2025-08-28 19:40:00,021  pymodbus.logging:base.py:92 Processing: 0x1 0x3 0x4 0x3c 0xfd 0xe6 0xfc 0x2d 0xb2
DEBUG   2025-08-28 19:40:00,022  pymodbus.logging:decoders.py:103 decode PDU for 3
DEBUG   2025-08-28 19:40:00,022  pymodbus.logging:base.py:102 Frame advanced, resetting header!!
DEBUG   2025-08-28 19:40:00,022  pymodbus.logging:transaction.py:67 Adding transaction 0
DEBUG   2025-08-28 19:40:00,022  pymodbus.logging:transaction.py:78 Getting transaction 0
DEBUG   2025-08-28 19:40:00,022  pymodbus.logging:transaction.py:258 Changing transaction state from "PROCESSING REPLY" to "TRANSACTION_COMPLETE"
INFO    2025-08-28 19:40:00,022  root:modbus_rtu_tcp.py:44 read_measurement ret is:ReadHoldingRegistersResponse (2)
INFO    2025-08-28 19:40:00,022  root:acudc260_modbus_get.py:201 read p2_power ret is:[15613, 59132]
DEBUG   2025-08-28 19:40:00,022  pymodbus.logging:transaction.py:184 Current transaction state - TRANSACTION_COMPLETE
DEBUG   2025-08-28 19:40:00,022  pymodbus.logging:transaction.py:193 Running transaction 0
DEBUG   2025-08-28 19:40:00,022  pymodbus.logging:transaction.py:293 SEND: 0x1 0x3 0x30 0xc 0x0 0x2 0xb 0x8
DEBUG   2025-08-28 19:40:00,022  pymodbus.logging:serial.py:271 Changing state to IDLE - Last Frame End - 1756381200.021936 Current Time stamp - 1756381200.022933
DEBUG   2025-08-28 19:40:00,022  pymodbus.logging:serial.py:279 Waiting for 3.5 char before next send - 1.823 ms
DEBUG   2025-08-28 19:40:00,025  pymodbus.logging:base.py:250 New Transaction state "SENDING"
DEBUG   2025-08-28 19:40:00,025  pymodbus.logging:transaction.py:317 Changing transaction state from "SENDING" to "WAITING FOR REPLY"
DEBUG   2025-08-28 19:40:00,057  pymodbus.logging:transaction.py:419 Changing transaction state from "WAITING FOR REPLY" to "PROCESSING REPLY"
DEBUG   2025-08-28 19:40:00,057  pymodbus.logging:transaction.py:324 RECV: 0x1 0x3 0x4 0x3d 0x80 0xdd 0xa5 0x6f 0x5c
DEBUG   2025-08-28 19:40:00,057  pymodbus.logging:base.py:92 Processing: 0x1 0x3 0x4 0x3d 0x80 0xdd 0xa5 0x6f 0x5c
DEBUG   2025-08-28 19:40:00,057  pymodbus.logging:decoders.py:103 decode PDU for 3
DEBUG   2025-08-28 19:40:00,057  pymodbus.logging:base.py:102 Frame advanced, resetting header!!
DEBUG   2025-08-28 19:40:00,057  pymodbus.logging:transaction.py:67 Adding transaction 0
DEBUG   2025-08-28 19:40:00,057  pymodbus.logging:transaction.py:78 Getting transaction 0
DEBUG   2025-08-28 19:40:00,058  pymodbus.logging:transaction.py:258 Changing transaction state from "PROCESSING REPLY" to "TRANSACTION_COMPLETE"
INFO    2025-08-28 19:40:00,058  root:modbus_rtu_tcp.py:44 read_measurement ret is:ReadHoldingRegistersResponse (2)
INFO    2025-08-28 19:40:00,058  root:acudc260_modbus_get.py:215 read p_sum_power ret is:[15744, 56741]
DEBUG   2025-08-28 19:40:00,159  pymodbus.logging:transaction.py:184 Current transaction state - TRANSACTION_COMPLETE
DEBUG   2025-08-28 19:40:00,159  pymodbus.logging:transaction.py:193 Running transaction 0
DEBUG   2025-08-28 19:40:00,159  pymodbus.logging:transaction.py:293 SEND: 0x1 0x3 0x30 0x0 0x0 0x2 0xcb 0xb
DEBUG   2025-08-28 19:40:00,159  pymodbus.logging:serial.py:271 Changing state to IDLE - Last Frame End - 1756381200.057312 Current Time stamp - 1756381200.159205
DEBUG   2025-08-28 19:40:00,159  pymodbus.logging:base.py:250 New Transaction state "SENDING"
DEBUG   2025-08-28 19:40:00,160  pymodbus.logging:transaction.py:317 Changing transaction state from "SENDING" to "WAITING FOR REPLY"
DEBUG   2025-08-28 19:40:00,186  pymodbus.logging:transaction.py:419 Changing transaction state from "WAITING FOR REPLY" to "PROCESSING REPLY"
DEBUG   2025-08-28 19:40:00,186  pymodbus.logging:transaction.py:324 RECV: 0x1 0x3 0x4 0x42 0x70 0x5 0x1 0x2d 0x0
DEBUG   2025-08-28 19:40:00,186  pymodbus.logging:base.py:92 Processing: 0x1 0x3 0x4 0x42 0x70 0x5 0x1 0x2d 0x0
DEBUG   2025-08-28 19:40:00,186  pymodbus.logging:decoders.py:103 decode PDU for 3
DEBUG   2025-08-28 19:40:00,186  pymodbus.logging:base.py:102 Frame advanced, resetting header!!
DEBUG   2025-08-28 19:40:00,186  pymodbus.logging:transaction.py:67 Adding transaction 0
DEBUG   2025-08-28 19:40:00,186  pymodbus.logging:transaction.py:78 Getting transaction 0
DEBUG   2025-08-28 19:40:00,186  pymodbus.logging:transaction.py:258 Changing transaction state from "PROCESSING REPLY" to "TRANSACTION_COMPLETE"
INFO    2025-08-28 19:40:00,186  root:modbus_rtu_tcp.py:44 read_measurement ret is:ReadHoldingRegistersResponse (2)
INFO    2025-08-28 19:40:00,187  root:acudc260_modbus_get.py:131 read u_voltage ret is:[17008, 1281]
DEBUG   2025-08-28 19:40:00,187  pymodbus.logging:transaction.py:184 Current transaction state - TRANSACTION_COMPLETE
DEBUG   2025-08-28 19:40:00,187  pymodbus.logging:transaction.py:193 Running transaction 0
DEBUG   2025-08-28 19:40:00,187  pymodbus.logging:transaction.py:293 SEND: 0x1 0x3 0x30 0x2 0x0 0x2 0x6a 0xcb
DEBUG   2025-08-28 19:40:00,187  pymodbus.logging:serial.py:271 Changing state to IDLE - Last Frame End - 1756381200.186151 Current Time stamp - 1756381200.187286
DEBUG   2025-08-28 19:40:00,187  pymodbus.logging:serial.py:279 Waiting for 3.5 char before next send - 1.823 ms
DEBUG   2025-08-28 19:40:00,189  pymodbus.logging:base.py:250 New Transaction state "SENDING"
DEBUG   2025-08-28 19:40:00,189  pymodbus.logging:transaction.py:317 Changing transaction state from "SENDING" to "WAITING FOR REPLY"
DEBUG   2025-08-28 19:40:00,218  pymodbus.logging:transaction.py:419 Changing transaction state from "WAITING FOR REPLY" to "PROCESSING REPLY"
DEBUG   2025-08-28 19:40:00,218  pymodbus.logging:transaction.py:324 RECV: 0x1 0x3 0x4 0x3f 0x4 0x32 0x2 0x23 0x47
DEBUG   2025-08-28 19:40:00,218  pymodbus.logging:base.py:92 Processing: 0x1 0x3 0x4 0x3f 0x4 0x32 0x2 0x23 0x47
DEBUG   2025-08-28 19:40:00,218  pymodbus.logging:decoders.py:103 decode PDU for 3
DEBUG   2025-08-28 19:40:00,218  pymodbus.logging:base.py:102 Frame advanced, resetting header!!
DEBUG   2025-08-28 19:40:00,218  pymodbus.logging:transaction.py:67 Adding transaction 0
DEBUG   2025-08-28 19:40:00,218  pymodbus.logging:transaction.py:78 Getting transaction 0
DEBUG   2025-08-28 19:40:00,218  pymodbus.logging:transaction.py:258 Changing transaction state from "PROCESSING REPLY" to "TRANSACTION_COMPLETE"
INFO    2025-08-28 19:40:00,218  root:modbus_rtu_tcp.py:44 read_measurement ret is:ReadHoldingRegistersResponse (2)
INFO    2025-08-28 19:40:00,218  root:acudc260_modbus_get.py:145 read i1_current ret is:[16132, 12802]
DEBUG   2025-08-28 19:40:00,218  pymodbus.logging:transaction.py:184 Current transaction state - TRANSACTION_COMPLETE
DEBUG   2025-08-28 19:40:00,218  pymodbus.logging:transaction.py:193 Running transaction 0
DEBUG   2025-08-28 19:40:00,219  pymodbus.logging:transaction.py:293 SEND: 0x1 0x3 0x30 0x4 0x0 0x2 0x8a 0xca
DEBUG   2025-08-28 19:40:00,219  pymodbus.logging:serial.py:271 Changing state to IDLE - Last Frame End - 1756381200.218576 Current Time stamp - 1756381200.219634
DEBUG   2025-08-28 19:40:00,219  pymodbus.logging:serial.py:279 Waiting for 3.5 char before next send - 1.823 ms
DEBUG   2025-08-28 19:40:00,222  pymodbus.logging:base.py:250 New Transaction state "SENDING"
DEBUG   2025-08-28 19:40:00,222  pymodbus.logging:transaction.py:317 Changing transaction state from "SENDING" to "WAITING FOR REPLY"
DEBUG   2025-08-28 19:40:00,251  pymodbus.logging:transaction.py:419 Changing transaction state from "WAITING FOR REPLY" to "PROCESSING REPLY"
DEBUG   2025-08-28 19:40:00,251  pymodbus.logging:transaction.py:324 RECV: 0x1 0x3 0x4 0x3f 0x3 0xec 0x9d 0x8b 0x4e
DEBUG   2025-08-28 19:40:00,251  pymodbus.logging:base.py:92 Processing: 0x1 0x3 0x4 0x3f 0x3 0xec 0x9d 0x8b 0x4e
DEBUG   2025-08-28 19:40:00,251  pymodbus.logging:decoders.py:103 decode PDU for 3
DEBUG   2025-08-28 19:40:00,251  pymodbus.logging:base.py:102 Frame advanced, resetting header!!
DEBUG   2025-08-28 19:40:00,251  pymodbus.logging:transaction.py:67 Adding transaction 0
DEBUG   2025-08-28 19:40:00,251  pymodbus.logging:transaction.py:78 Getting transaction 0
DEBUG   2025-08-28 19:40:00,251  pymodbus.logging:transaction.py:258 Changing transaction state from "PROCESSING REPLY" to "TRANSACTION_COMPLETE"
INFO    2025-08-28 19:40:00,251  root:modbus_rtu_tcp.py:44 read_measurement ret is:ReadHoldingRegistersResponse (2)
INFO    2025-08-28 19:40:00,251  root:acudc260_modbus_get.py:159 read i2_current ret is:[16131, 60573]
DEBUG   2025-08-28 19:40:00,251  pymodbus.logging:transaction.py:184 Current transaction state - TRANSACTION_COMPLETE
DEBUG   2025-08-28 19:40:00,251  pymodbus.logging:transaction.py:193 Running transaction 0
DEBUG   2025-08-28 19:40:00,252  pymodbus.logging:transaction.py:293 SEND: 0x1 0x3 0x30 0x6 0x0 0x2 0x2b 0xa
DEBUG   2025-08-28 19:40:00,252  pymodbus.logging:serial.py:271 Changing state to IDLE - Last Frame End - 1756381200.251209 Current Time stamp - 1756381200.252303
DEBUG   2025-08-28 19:40:00,252  pymodbus.logging:serial.py:279 Waiting for 3.5 char before next send - 1.823 ms
DEBUG   2025-08-28 19:40:00,254  pymodbus.logging:base.py:250 New Transaction state "SENDING"
DEBUG   2025-08-28 19:40:00,254  pymodbus.logging:transaction.py:317 Changing transaction state from "SENDING" to "WAITING FOR REPLY"
DEBUG   2025-08-28 19:40:00,281  pymodbus.logging:transaction.py:419 Changing transaction state from "WAITING FOR REPLY" to "PROCESSING REPLY"
DEBUG   2025-08-28 19:40:00,281  pymodbus.logging:transaction.py:324 RECV: 0x1 0x3 0x4 0x3f 0x88 0x20 0x5e 0xee 0x35
DEBUG   2025-08-28 19:40:00,281  pymodbus.logging:base.py:92 Processing: 0x1 0x3 0x4 0x3f 0x88 0x20 0x5e 0xee 0x35
DEBUG   2025-08-28 19:40:00,281  pymodbus.logging:decoders.py:103 decode PDU for 3
DEBUG   2025-08-28 19:40:00,281  pymodbus.logging:base.py:102 Frame advanced, resetting header!!
DEBUG   2025-08-28 19:40:00,281  pymodbus.logging:transaction.py:67 Adding transaction 0
DEBUG   2025-08-28 19:40:00,281  pymodbus.logging:transaction.py:78 Getting transaction 0
DEBUG   2025-08-28 19:40:00,281  pymodbus.logging:transaction.py:258 Changing transaction state from "PROCESSING REPLY" to "TRANSACTION_COMPLETE"
INFO    2025-08-28 19:40:00,281  root:modbus_rtu_tcp.py:44 read_measurement ret is:ReadHoldingRegistersResponse (2)
INFO    2025-08-28 19:40:00,281  root:acudc260_modbus_get.py:173 read i_sum_current ret is:[16264, 8286]
DEBUG   2025-08-28 19:40:00,282  pymodbus.logging:transaction.py:184 Current transaction state - TRANSACTION_COMPLETE
DEBUG   2025-08-28 19:40:00,282  pymodbus.logging:transaction.py:193 Running transaction 0
DEBUG   2025-08-28 19:40:00,282  pymodbus.logging:transaction.py:293 SEND: 0x1 0x3 0x30 0x8 0x0 0x2 0x4a 0xc9
DEBUG   2025-08-28 19:40:00,282  pymodbus.logging:serial.py:271 Changing state to IDLE - Last Frame End - 1756381200.281139 Current Time stamp - 1756381200.282197
DEBUG   2025-08-28 19:40:00,282  pymodbus.logging:serial.py:279 Waiting for 3.5 char before next send - 1.823 ms
DEBUG   2025-08-28 19:40:00,284  pymodbus.logging:base.py:250 New Transaction state "SENDING"
DEBUG   2025-08-28 19:40:00,284  pymodbus.logging:transaction.py:317 Changing transaction state from "SENDING" to "WAITING FOR REPLY"
DEBUG   2025-08-28 19:40:00,313  pymodbus.logging:transaction.py:419 Changing transaction state from "WAITING FOR REPLY" to "PROCESSING REPLY"
DEBUG   2025-08-28 19:40:00,313  pymodbus.logging:transaction.py:324 RECV: 0x1 0x3 0x4 0x3d 0xa 0x13 0xd9 0x1b 0x37
DEBUG   2025-08-28 19:40:00,313  pymodbus.logging:base.py:92 Processing: 0x1 0x3 0x4 0x3d 0xa 0x13 0xd9 0x1b 0x37
DEBUG   2025-08-28 19:40:00,313  pymodbus.logging:decoders.py:103 decode PDU for 3
DEBUG   2025-08-28 19:40:00,313  pymodbus.logging:base.py:102 Frame advanced, resetting header!!
DEBUG   2025-08-28 19:40:00,313  pymodbus.logging:transaction.py:67 Adding transaction 0
DEBUG   2025-08-28 19:40:00,313  pymodbus.logging:transaction.py:78 Getting transaction 0
DEBUG   2025-08-28 19:40:00,313  pymodbus.logging:transaction.py:258 Changing transaction state from "PROCESSING REPLY" to "TRANSACTION_COMPLETE"
INFO    2025-08-28 19:40:00,313  root:modbus_rtu_tcp.py:44 read_measurement ret is:ReadHoldingRegistersResponse (2)
INFO    2025-08-28 19:40:00,313  root:acudc260_modbus_get.py:187 read p1_power ret is:[15626, 5081]
DEBUG   2025-08-28 19:40:00,313  pymodbus.logging:transaction.py:184 Current transaction state - TRANSACTION_COMPLETE
DEBUG   2025-08-28 19:40:00,313  pymodbus.logging:transaction.py:193 Running transaction 0
DEBUG   2025-08-28 19:40:00,313  pymodbus.logging:transaction.py:293 SEND: 0x1 0x3 0x30 0xa 0x0 0x2 0xeb 0x9
DEBUG   2025-08-28 19:40:00,313  pymodbus.logging:serial.py:271 Changing state to IDLE - Last Frame End - 1756381200.313469 Current Time stamp - 1756381200.313469
DEBUG   2025-08-28 19:40:00,313  pymodbus.logging:serial.py:279 Waiting for 3.5 char before next send - 1.823 ms
DEBUG   2025-08-28 19:40:00,316  pymodbus.logging:base.py:250 New Transaction state "SENDING"
DEBUG   2025-08-28 19:40:00,316  pymodbus.logging:transaction.py:317 Changing transaction state from "SENDING" to "WAITING FOR REPLY"
DEBUG   2025-08-28 19:40:00,346  pymodbus.logging:transaction.py:419 Changing transaction state from "WAITING FOR REPLY" to "PROCESSING REPLY"
DEBUG   2025-08-28 19:40:00,346  pymodbus.logging:transaction.py:324 RECV: 0x1 0x3 0x4 0x3c 0xf6 0xaa 0x50 0x68 0xcd
DEBUG   2025-08-28 19:40:00,346  pymodbus.logging:base.py:92 Processing: 0x1 0x3 0x4 0x3c 0xf6 0xaa 0x50 0x68 0xcd
DEBUG   2025-08-28 19:40:00,346  pymodbus.logging:decoders.py:103 decode PDU for 3
DEBUG   2025-08-28 19:40:00,346  pymodbus.logging:base.py:102 Frame advanced, resetting header!!
DEBUG   2025-08-28 19:40:00,346  pymodbus.logging:transaction.py:67 Adding transaction 0
DEBUG   2025-08-28 19:40:00,347  pymodbus.logging:transaction.py:78 Getting transaction 0
DEBUG   2025-08-28 19:40:00,347  pymodbus.logging:transaction.py:258 Changing transaction state from "PROCESSING REPLY" to "TRANSACTION_COMPLETE"
INFO    2025-08-28 19:40:00,347  root:modbus_rtu_tcp.py:44 read_measurement ret is:ReadHoldingRegistersResponse (2)
INFO    2025-08-28 19:40:00,347  root:acudc260_modbus_get.py:201 read p2_power ret is:[15606, 43600]
DEBUG   2025-08-28 19:40:00,347  pymodbus.logging:transaction.py:184 Current transaction state - TRANSACTION_COMPLETE
DEBUG   2025-08-28 19:40:00,347  pymodbus.logging:transaction.py:193 Running transaction 0
DEBUG   2025-08-28 19:40:00,347  pymodbus.logging:transaction.py:293 SEND: 0x1 0x3 0x30 0xc 0x0 0x2 0xb 0x8
DEBUG   2025-08-28 19:40:00,347  pymodbus.logging:serial.py:271 Changing state to IDLE - Last Frame End - 1756381200.346221 Current Time stamp - 1756381200.347281
DEBUG   2025-08-28 19:40:00,347  pymodbus.logging:serial.py:279 Waiting for 3.5 char before next send - 1.823 ms
DEBUG   2025-08-28 19:40:00,350  pymodbus.logging:base.py:250 New Transaction state "SENDING"
DEBUG   2025-08-28 19:40:00,350  pymodbus.logging:transaction.py:317 Changing transaction state from "SENDING" to "WAITING FOR REPLY"
DEBUG   2025-08-28 19:40:00,378  pymodbus.logging:transaction.py:419 Changing transaction state from "WAITING FOR REPLY" to "PROCESSING REPLY"
DEBUG   2025-08-28 19:40:00,378  pymodbus.logging:transaction.py:324 RECV: 0x1 0x3 0x4 0x3d 0x7c 0x3e 0x82 0xa6 0x46
DEBUG   2025-08-28 19:40:00,378  pymodbus.logging:base.py:92 Processing: 0x1 0x3 0x4 0x3d 0x7c 0x3e 0x82 0xa6 0x46
DEBUG   2025-08-28 19:40:00,378  pymodbus.logging:decoders.py:103 decode PDU for 3
DEBUG   2025-08-28 19:40:00,378  pymodbus.logging:base.py:102 Frame advanced, resetting header!!
DEBUG   2025-08-28 19:40:00,378  pymodbus.logging:transaction.py:67 Adding transaction 0
DEBUG   2025-08-28 19:40:00,379  pymodbus.logging:transaction.py:78 Getting transaction 0
DEBUG   2025-08-28 19:40:00,379  pymodbus.logging:transaction.py:258 Changing transaction state from "PROCESSING REPLY" to "TRANSACTION_COMPLETE"
INFO    2025-08-28 19:40:00,379  root:modbus_rtu_tcp.py:44 read_measurement ret is:ReadHoldingRegistersResponse (2)
INFO    2025-08-28 19:40:00,379  root:acudc260_modbus_get.py:215 read p_sum_power ret is:[15740, 16002]
DEBUG   2025-08-28 19:40:00,480  pymodbus.logging:transaction.py:184 Current transaction state - TRANSACTION_COMPLETE
DEBUG   2025-08-28 19:40:00,480  pymodbus.logging:transaction.py:193 Running transaction 0
DEBUG   2025-08-28 19:40:00,480  pymodbus.logging:transaction.py:293 SEND: 0x1 0x3 0x30 0x0 0x0 0x2 0xcb 0xb
DEBUG   2025-08-28 19:40:00,480  pymodbus.logging:serial.py:271 Changing state to IDLE - Last Frame End - 1756381200.378693 Current Time stamp - 1756381200.480542
DEBUG   2025-08-28 19:40:00,480  pymodbus.logging:base.py:250 New Transaction state "SENDING"
DEBUG   2025-08-28 19:40:00,481  pymodbus.logging:transaction.py:317 Changing transaction state from "SENDING" to "WAITING FOR REPLY"
DEBUG   2025-08-28 19:40:00,506  pymodbus.logging:transaction.py:419 Changing transaction state from "WAITING FOR REPLY" to "PROCESSING REPLY"
DEBUG   2025-08-28 19:40:00,506  pymodbus.logging:transaction.py:324 RECV: 0x1 0x3 0x4 0x42 0x70 0x9 0x4 0xe8 0x3
DEBUG   2025-08-28 19:40:00,506  pymodbus.logging:base.py:92 Processing: 0x1 0x3 0x4 0x42 0x70 0x9 0x4 0xe8 0x3
DEBUG   2025-08-28 19:40:00,506  pymodbus.logging:decoders.py:103 decode PDU for 3
DEBUG   2025-08-28 19:40:00,506  pymodbus.logging:base.py:102 Frame advanced, resetting header!!
DEBUG   2025-08-28 19:40:00,506  pymodbus.logging:transaction.py:67 Adding transaction 0
DEBUG   2025-08-28 19:40:00,506  pymodbus.logging:transaction.py:78 Getting transaction 0
DEBUG   2025-08-28 19:40:00,506  pymodbus.logging:transaction.py:258 Changing transaction state from "PROCESSING REPLY" to "TRANSACTION_COMPLETE"
INFO    2025-08-28 19:40:00,506  root:modbus_rtu_tcp.py:44 read_measurement ret is:ReadHoldingRegistersResponse (2)
INFO    2025-08-28 19:40:00,508  root:acudc260_modbus_get.py:131 read u_voltage ret is:[17008, 2308]
DEBUG   2025-08-28 19:40:00,508  pymodbus.logging:transaction.py:184 Current transaction state - TRANSACTION_COMPLETE
DEBUG   2025-08-28 19:40:00,508  pymodbus.logging:transaction.py:193 Running transaction 0
DEBUG   2025-08-28 19:40:00,508  pymodbus.logging:transaction.py:293 SEND: 0x1 0x3 0x30 0x2 0x0 0x2 0x6a 0xcb
DEBUG   2025-08-28 19:40:00,508  pymodbus.logging:serial.py:271 Changing state to IDLE - Last Frame End - 1756381200.506954 Current Time stamp - 1756381200.508279
DEBUG   2025-08-28 19:40:00,508  pymodbus.logging:serial.py:279 Waiting for 3.5 char before next send - 1.823 ms
DEBUG   2025-08-28 19:40:00,511  pymodbus.logging:base.py:250 New Transaction state "SENDING"
DEBUG   2025-08-28 19:40:00,511  pymodbus.logging:transaction.py:317 Changing transaction state from "SENDING" to "WAITING FOR REPLY"
DEBUG   2025-08-28 19:40:00,537  pymodbus.logging:transaction.py:419 Changing transaction state from "WAITING FOR REPLY" to "PROCESSING REPLY"
DEBUG   2025-08-28 19:40:00,537  pymodbus.logging:transaction.py:324 RECV: 0x1 0x3 0x4 0x3f 0x8 0xb3 0x5b 0x43 0x2e
DEBUG   2025-08-28 19:40:00,537  pymodbus.logging:base.py:92 Processing: 0x1 0x3 0x4 0x3f 0x8 0xb3 0x5b 0x43 0x2e
DEBUG   2025-08-28 19:40:00,537  pymodbus.logging:decoders.py:103 decode PDU for 3
DEBUG   2025-08-28 19:40:00,537  pymodbus.logging:base.py:102 Frame advanced, resetting header!!
DEBUG   2025-08-28 19:40:00,538  pymodbus.logging:transaction.py:67 Adding transaction 0
DEBUG   2025-08-28 19:40:00,538  pymodbus.logging:transaction.py:78 Getting transaction 0
DEBUG   2025-08-28 19:40:00,538  pymodbus.logging:transaction.py:258 Changing transaction state from "PROCESSING REPLY" to "TRANSACTION_COMPLETE"
INFO    2025-08-28 19:40:00,538  root:modbus_rtu_tcp.py:44 read_measurement ret is:ReadHoldingRegistersResponse (2)
INFO    2025-08-28 19:40:00,538  root:acudc260_modbus_get.py:145 read i1_current ret is:[16136, 45915]
DEBUG   2025-08-28 19:40:00,538  pymodbus.logging:transaction.py:184 Current transaction state - TRANSACTION_COMPLETE
DEBUG   2025-08-28 19:40:00,538  pymodbus.logging:transaction.py:193 Running transaction 0
DEBUG   2025-08-28 19:40:00,538  pymodbus.logging:transaction.py:293 SEND: 0x1 0x3 0x30 0x4 0x0 0x2 0x8a 0xca
DEBUG   2025-08-28 19:40:00,538  pymodbus.logging:serial.py:271 Changing state to IDLE - Last Frame End - 1756381200.53767 Current Time stamp - 1756381200.538739
DEBUG   2025-08-28 19:40:00,538  pymodbus.logging:serial.py:279 Waiting for 3.5 char before next send - 1.823 ms
DEBUG   2025-08-28 19:40:00,541  pymodbus.logging:base.py:250 New Transaction state "SENDING"
DEBUG   2025-08-28 19:40:00,542  pymodbus.logging:transaction.py:317 Changing transaction state from "SENDING" to "WAITING FOR REPLY"
DEBUG   2025-08-28 19:40:00,569  pymodbus.logging:transaction.py:419 Changing transaction state from "WAITING FOR REPLY" to "PROCESSING REPLY"
DEBUG   2025-08-28 19:40:00,569  pymodbus.logging:transaction.py:324 RECV: 0x1 0x3 0x4 0x3f 0x3 0x6c 0x92 0xaa 0x8a
DEBUG   2025-08-28 19:40:00,569  pymodbus.logging:base.py:92 Processing: 0x1 0x3 0x4 0x3f 0x3 0x6c 0x92 0xaa 0x8a
DEBUG   2025-08-28 19:40:00,569  pymodbus.logging:decoders.py:103 decode PDU for 3
DEBUG   2025-08-28 19:40:00,569  pymodbus.logging:base.py:102 Frame advanced, resetting header!!
DEBUG   2025-08-28 19:40:00,569  pymodbus.logging:transaction.py:67 Adding transaction 0
DEBUG   2025-08-28 19:40:00,569  pymodbus.logging:transaction.py:78 Getting transaction 0
DEBUG   2025-08-28 19:40:00,569  pymodbus.logging:transaction.py:258 Changing transaction state from "PROCESSING REPLY" to "TRANSACTION_COMPLETE"
INFO    2025-08-28 19:40:00,569  root:modbus_rtu_tcp.py:44 read_measurement ret is:ReadHoldingRegistersResponse (2)
INFO    2025-08-28 19:40:00,571  root:acudc260_modbus_get.py:159 read i2_current ret is:[16131, 27794]
DEBUG   2025-08-28 19:40:00,571  pymodbus.logging:transaction.py:184 Current transaction state - TRANSACTION_COMPLETE
DEBUG   2025-08-28 19:40:00,571  pymodbus.logging:transaction.py:193 Running transaction 0
DEBUG   2025-08-28 19:40:00,571  pymodbus.logging:transaction.py:293 SEND: 0x1 0x3 0x30 0x6 0x0 0x2 0x2b 0xa
DEBUG   2025-08-28 19:40:00,571  pymodbus.logging:serial.py:271 Changing state to IDLE - Last Frame End - 1756381200.569965 Current Time stamp - 1756381200.571119
DEBUG   2025-08-28 19:40:00,571  pymodbus.logging:serial.py:279 Waiting for 3.5 char before next send - 1.823 ms
DEBUG   2025-08-28 19:40:00,573  pymodbus.logging:base.py:250 New Transaction state "SENDING"
